"Freq [GHz]","im(Zo(1)) []","im(Zo(2)) []"
1,-1.17167741039225,-0.705730309563211
2,-0.930641089590898,-0.570545152456271
3,-0.822450117393993,-0.510956125714059
4,-0.755862069859391,-0.474563315617083
5,-0.707698496029487,-0.448335405017274
6,-0.669455218000573,-0.42748500038464
7,-0.637292356387131,-0.409869107375357
8,-0.60926921948369,-0.394424997703218
9,-0.58432438269965,-0.380586758748764
10,-0.561832344248098,-0.368030098050318
11,-0.54139388209299,-0.356552071652185
12,-0.522732298188599,-0.346012599259214
13,-0.505640511115827,-0.336305664555387
14,-0.489953407949082,-0.327345061409871
15,-0.475533020534553,-0.319057294847284
16,-0.4622603460529,-0.311377996114935
17,-0.450030656085843,-0.304250032842787
18,-0.438750658716981,-0.297622428017999
19,-0.428336660005194,-0.291449646224785
20,-0.418713284464756,-0.285691045146121
21,-0.40981249315037,-0.28031039441047
22,-0.401572792206303,-0.27527542955929
23,-0.393938545606336,-0.270557425671792
24,-0.386859370150572,-0.266130793657486
25,-0.380289587874234,-0.261972701049493
26,-0.374187728111724,-0.258062722472763
27,-0.368516078114886,-0.254382522465185
28,-0.36324027544011,-0.250915572250635
29,-0.358328941678447,-0.247646900436401
30,-0.353753359835763,-0.244562876909803
31,-0.34948718349826,-0.241651027312973
32,-0.345506186044211,-0.238899875801402
33,-0.341788039408423,-0.236298813325425
34,-0.33831212172615,-0.233837987768683
35,-0.33505935201067,-0.231508213508617
36,-0.332012045957929,-0.229300897236978
37,-0.32915379254858,-0.227207977306582
38,-0.326469346566623,-0.225221874548889
39,-0.323944535910601,-0.223335452036364
40,-0.321566181029774,-0.221541982336487
41,-0.319322023561612,-0.219835120485656
42,-0.31409544679834,-0.218208881539515
43,-0.307867007301878,-0.215094773187132
44,-0.304792235702902,-0.21261674491108
45,-0.301819876492911,-0.211384987664344
46,-0.297746421053377,-0.210199731955804
47,-0.296727513017841,-0.20751642601796
48,-0.293260987815913,-0.206214717850043
49,-0.290386215845559,-0.20527204307196
50,-0.289670038344219,-0.204353969620425
51,-0.288963977708428,-0.202207367952812
52,-0.28826523271705,-0.201405880347829
53,-0.28564661895869,-0.200619347084759
54,-0.285043747167371,-0.199846388470966
55,-0.282560971256726,-0.199085729750318
56,-0.282034972192781,-0.198336196162842
57,-0.281498881841294,-0.19645575255275
58,-0.280951654965994,-0.195788369130901
59,-0.278598376586915,-0.195125716047683
60,-0.278106248535088,-0.19446714583418
61,-0.275958261291527,-0.193812080639966
62,-0.275504727792123,-0.193160007951716
63,-0.275030800435354,-0.192510476330192
64,-0.274536533983713,-0.191863091347088
65,-0.274022073127937,-0.191217511603641
66,-0.272141128027882,-0.189694904947067
67,-0.271278071191754,-0.189098313697492
68,-0.27077762571546,-0.188500356804861
69,-0.268829540399493,-0.187900992699645
70,-0.268346348734321,-0.187300209231781
71,-0.267584314835334,-0.18663778205802
72,-0.26706663847146,-0.185983546417975
73,-0.265677324159994,-0.185384953637458
74,-0.265151470858561,-0.184784715842495
75,-0.26460327677054,-0.184182962890455
76,-0.26403366476302,-0.183579835322006
77,-0.262436354030607,-0.18267233225207
78,-0.261276204020622,-0.181784386071856
79,-0.260713183352642,-0.181207407102453
80,-0.260129651507351,-0.18062821851359
81,-0.259526596257268,-0.180047066709739
82,-0.258904985652403,-0.179464196961254
83,-0.257634326519402,-0.178879852619728
84,-0.256229573828561,-0.178294274286673
85,-0.255615353733096,-0.177707699209775
86,-0.254983885281587,-0.177120360613666
87,-0.254336119899642,-0.176532487181569
88,-0.253061392704504,-0.1759443026005
89,-0.25169125610442,-0.175356025114093
90,-0.251054135691834,-0.174580456979594
91,-0.24974717650113,-0.17381253663032
92,-0.248459316875152,-0.173243111352263
93,-0.247832754231166,-0.172673543366441
94,-0.247191704367156,-0.172104061145358
95,-0.246537057806131,-0.171534884319593
96,-0.245869671843769,-0.170966223704342
97,-0.24519037139599,-0.170398281331708
98,-0.244499949523661,-0.169831250523679
99,-0.243799168431991,-0.169265316000869
100,-0.243088760036176,-0.168700653965462
101,-0.242369426902414,-0.168137432257573
102,-0.241641842982148,-0.167575810492498
103,-0.240906654390241,-0.167015940222449
104,-0.24016448019071,-0.166347176338102
105,-0.23941591332943,-0.165796567637047
106,-0.238661521234587,-0.165141854385647
107,-0.237901846762456,-0.164600301885245
108,-0.237137408910583,-0.164060673310871
109,-0.236368703579566,-0.163523097688742
110,-0.235596204390773,-0.1629876963186
111,-0.234820363388919,-0.162454583058116
112,-0.234041611785289,-0.161923864566918
113,-0.233260360719255,-0.161395640567263
114,-0.232477001904943,-0.160870004104598
115,-0.231691908396174,-0.160347041792915
116,-0.230905435212834,-0.159826834063476
117,-0.230117920038727,-0.159309455426235
118,-0.22932968383884,-0.158726024451621
119,-0.228541031517803,-0.158153850778747
120,-0.227752252517764,-0.157651599831922
121,-0.226963621412043,-0.157152126667453
122,-0.226175398504414,-0.156655493178733
123,-0.225387830381585,-0.15616175608617
124,-0.224601150457214,-0.155670967144925
125,-0.223815579499116,-0.155183173400661
126,-0.223031326158437,-0.154698417384012
127,-0.222248587449469,-0.154123000999505
128,-0.221467549277575,-0.153648962653307
129,-0.220688386812589,-0.153177850533293
130,-0.219911265035834,-0.15270970109382
131,-0.219136339133021,-0.152244546840233
132,-0.218363754901636,-0.151782416527001
133,-0.217593649209849,-0.151323335346188
134,-0.216826150295927,-0.150867325106379
135,-0.216061378239326,-0.150414404418519
136,-0.215299445291829,-0.149964588858296
137,-0.214540456201201,-0.149517891123033
138,-0.213784508589974,-0.149074321203285
139,-0.21303169323806,-0.148633886512444
140,-0.212282094449345,-0.148196592042797
141,-0.211535790297259,-0.147762440498973
142,-0.210792852946726,-0.147331432424292
143,-0.210053348928925,-0.14690356633185
144,-0.209317339400134,-0.146478838820339
145,-0.208584880397595,-0.146057244689926
146,-0.207856023100967,-0.145638777052141
147,-0.20713081403559,-0.145223427432118
148,-0.20640929534422,-0.144811185868402
149,-0.205691504970245,-0.144402041008656
150,-0.20497747688359,-0.14399598020186
