!  2-Port S-parameters saved by WinCal
!
# Hz S RI R 50
200000000.000 +0.0000000000E+000 +0.0000000000E+000  +3.6314491183E-002 +3.8503706455E-002  +1.9633430988E-002 +5.5403314531E-002  +0.0000000000E+000 +0.0000000000E+000 
400000000.000 +0.0000000000E+000 +0.0000000000E+000  -4.5018582605E-003 +4.6769615263E-002  -4.4538211077E-002 +2.6845641434E-002  +0.0000000000E+000 +0.0000000000E+000 
600000000.000 +0.0000000000E+000 +0.0000000000E+000  -3.3435843885E-002 +2.6234732941E-002  -3.3743001521E-002 -2.9054382816E-002  +0.0000000000E+000 +0.0000000000E+000 
800000000.000 +0.0000000000E+000 +0.0000000000E+000  -3.4952569753E-002 -7.4700331315E-003  +1.5497973189E-002 -3.5698965192E-002  +0.0000000000E+000 +0.0000000000E+000 
1000000000.000 +0.0000000000E+000 +0.0000000000E+000  -1.1395149864E-002 -3.5054713488E-002  +3.6016441882E-002 +1.6705455258E-002  +0.0000000000E+000 +0.0000000000E+000 
1200000000.000 +0.0000000000E+000 +0.0000000000E+000  +2.8119388968E-002 -3.2077088952E-002  -2.0411631092E-002 +4.1800078005E-002  +0.0000000000E+000 +0.0000000000E+000 
1400000000.000 +0.0000000000E+000 +0.0000000000E+000  +4.7004245222E-002 +1.8438179046E-002  -4.3945442885E-002 -3.3901773393E-002  +0.0000000000E+000 +0.0000000000E+000 
1600000000.000 +0.0000000000E+000 +0.0000000000E+000  +7.5643981108E-004 +6.7698419094E-002  +4.3026808649E-002 -5.1984943449E-002  +0.0000000000E+000 +0.0000000000E+000 
1800000000.000 +0.0000000000E+000 +0.0000000000E+000  -7.4843525887E-002 +3.9218943566E-002  +6.5685413778E-002 +5.4283224046E-002  +0.0000000000E+000 +0.0000000000E+000 
2000000000.000 +0.0000000000E+000 +0.0000000000E+000  -8.3386488259E-002 -4.4050108641E-002  -6.4387291670E-002 +6.6949129105E-002  +0.0000000000E+000 +0.0000000000E+000 
2200000000.000 +0.0000000000E+000 +0.0000000000E+000  -1.3400478289E-002 -9.3463651836E-002  -6.3794516027E-002 -6.1351507902E-002  +0.0000000000E+000 +0.0000000000E+000 
2400000000.000 +0.0000000000E+000 +0.0000000000E+000  +6.8027220666E-002 -4.5165155083E-002  +6.0842338949E-002 -4.2838618159E-002  +0.0000000000E+000 +0.0000000000E+000 
2600000000.000 +0.0000000000E+000 +0.0000000000E+000  +2.9878311325E-003 -2.0483190194E-002  -2.0097795874E-002 +2.7148136869E-002  +0.0000000000E+000 +0.0000000000E+000 
2800000000.000 +0.0000000000E+000 +0.0000000000E+000  -8.6802067235E-003 +2.8646135703E-002  +3.4069944173E-002 -1.0793512920E-003  +0.0000000000E+000 +0.0000000000E+000 
3000000000.000 +0.0000000000E+000 +0.0000000000E+000  +3.0323846266E-002 -1.9618295133E-002  -2.6917455718E-002 -2.2394238040E-002  +0.0000000000E+000 +0.0000000000E+000 
3200000000.000 +0.0000000000E+000 +0.0000000000E+000  -3.2061476260E-002 -8.1506250426E-003  +8.5433368804E-004 +4.5930687338E-002  +0.0000000000E+000 +0.0000000000E+000 
3400000000.000 +0.0000000000E+000 +0.0000000000E+000  +2.2425662726E-002 +1.5813751146E-002  +3.6998838186E-002 -2.9030855745E-002  +0.0000000000E+000 +0.0000000000E+000 
3600000000.000 +0.0000000000E+000 +0.0000000000E+000  -1.5806462616E-002 -3.5355892032E-002  -3.8802362978E-002 -7.7512832358E-003  +0.0000000000E+000 +0.0000000000E+000 
3800000000.000 +0.0000000000E+000 +0.0000000000E+000  -2.4091938511E-002 +4.1713811457E-002  +2.1886777133E-002 +3.2891359180E-002  +0.0000000000E+000 +0.0000000000E+000 
4000000000.000 +0.0000000000E+000 +0.0000000000E+000  +3.5804264247E-002 -8.3167682169E-004  +2.0422521979E-002 -2.7128456160E-002  +0.0000000000E+000 +0.0000000000E+000 
4200000000.000 +0.0000000000E+000 +0.0000000000E+000  -1.1599254794E-002 +4.6006292105E-003  -1.6555422917E-002 +6.8006101064E-003  +0.0000000000E+000 +0.0000000000E+000 
4400000000.000 +0.0000000000E+000 +0.0000000000E+000  +3.3753186464E-002 -2.1554459818E-003  +2.1313643083E-002 -1.2711736374E-002  +0.0000000000E+000 +0.0000000000E+000 
4600000000.000 +0.0000000000E+000 +0.0000000000E+000  -1.9834347069E-002 -1.6596246511E-002  -3.7087988108E-002 -1.4225973748E-002  +0.0000000000E+000 +0.0000000000E+000 
4800000000.000 +0.0000000000E+000 +0.0000000000E+000  +1.2290262617E-002 -7.5496649370E-003  +1.0254431516E-002 +3.0331576243E-002  +0.0000000000E+000 +0.0000000000E+000 
5000000000.000 +0.0000000000E+000 +0.0000000000E+000  -3.8689386100E-002 -7.7032856643E-003  -2.1169343963E-003 -2.2442262620E-002  +0.0000000000E+000 +0.0000000000E+000 
5200000000.000 +0.0000000000E+000 +0.0000000000E+000  +1.8725086004E-002 +2.5063950568E-002  -1.6583854333E-002 +2.9824584723E-002  +0.0000000000E+000 +0.0000000000E+000 
5400000000.000 +0.0000000000E+000 +0.0000000000E+000  -1.1895005591E-002 -2.1121902391E-002  +3.0576523393E-002 +1.2533135014E-003  +0.0000000000E+000 +0.0000000000E+000 
5600000000.000 +0.0000000000E+000 +0.0000000000E+000  -9.4563215971E-003 +3.9149276912E-002  -1.4489760622E-002 -1.0950134136E-002  +0.0000000000E+000 +0.0000000000E+000 
5800000000.000 +0.0000000000E+000 +0.0000000000E+000  +4.1448991746E-002 -3.0552856624E-003  +1.1136529036E-002 +2.6516592130E-002  +0.0000000000E+000 +0.0000000000E+000 
6000000000.000 +0.0000000000E+000 +0.0000000000E+000  -1.5214410610E-002 -1.5225735493E-002  +2.9516747221E-002 -2.4958306924E-002  +0.0000000000E+000 +0.0000000000E+000 
6200000000.000 +0.0000000000E+000 +0.0000000000E+000  +2.1740099415E-002 +1.1065613478E-002  -3.1802680343E-002 -1.5121001750E-002  +0.0000000000E+000 +0.0000000000E+000 
6400000000.000 +0.0000000000E+000 +0.0000000000E+000  +9.5273302868E-003 -3.6955215037E-002  -1.9451561384E-003 +2.6139257476E-002  +0.0000000000E+000 +0.0000000000E+000 
6600000000.000 +0.0000000000E+000 +0.0000000000E+000  -3.5933468491E-002 +1.3495254330E-002  +2.2176183760E-002 -2.4529853836E-002  +0.0000000000E+000 +0.0000000000E+000 
6800000000.000 +0.0000000000E+000 +0.0000000000E+000  +2.7411265299E-002 +1.3440127485E-002  -3.8738775998E-002 -7.9090446234E-003  +0.0000000000E+000 +0.0000000000E+000 
7000000000.000 +0.0000000000E+000 +0.0000000000E+000  -1.0277878493E-002 -3.9427217096E-002  -6.7878817208E-003 +3.6411032081E-002  +0.0000000000E+000 +0.0000000000E+000 
7200000000.000 +0.0000000000E+000 +0.0000000000E+000  -3.8198087364E-002 +3.1788308173E-002  +2.3094264790E-002 -1.4316274785E-002  +0.0000000000E+000 +0.0000000000E+000 
7400000000.000 +0.0000000000E+000 +0.0000000000E+000  +3.4131471068E-002 +2.0464429632E-002  -3.2238628715E-002 -1.0468686000E-002  +0.0000000000E+000 +0.0000000000E+000 
7600000000.000 +0.0000000000E+000 +0.0000000000E+000  -4.4361455366E-003 -1.3446229510E-002  -3.0084601603E-003 +4.6573173255E-002  +0.0000000000E+000 +0.0000000000E+000 
7800000000.000 +0.0000000000E+000 +0.0000000000E+000  +1.0521476157E-002 +2.8171563521E-002  +4.9292605370E-002 +1.4716818987E-004  +0.0000000000E+000 +0.0000000000E+000 
8000000000.000 +0.0000000000E+000 +0.0000000000E+000  +3.5401150584E-002 -3.3894248307E-002  -7.8215319663E-003 -2.9687669128E-002  +0.0000000000E+000 +0.0000000000E+000 
8200000000.000 +0.0000000000E+000 +0.0000000000E+000  -3.2804369926E-002 -3.3402033150E-002  -3.7160031497E-003 +2.2726977244E-002  +0.0000000000E+000 +0.0000000000E+000 
8400000000.000 +0.0000000000E+000 +0.0000000000E+000  -7.4568600394E-003 +1.9625527784E-002  +3.6266993731E-002 -2.0094607025E-002  +0.0000000000E+000 +0.0000000000E+000 
8600000000.000 +0.0000000000E+000 +0.0000000000E+000  -2.7886093594E-003 -2.2950034589E-002  -2.2214099765E-002 -4.7823414207E-002  +0.0000000000E+000 +0.0000000000E+000 
8800000000.000 +0.0000000000E+000 +0.0000000000E+000  -4.4439889491E-002 +1.5898946673E-002  -3.9446663111E-002 +1.2761990540E-002  +0.0000000000E+000 +0.0000000000E+000 
9000000000.000 +0.0000000000E+000 +0.0000000000E+000  +2.1902538836E-002 +4.3123252690E-002  +1.3046044856E-002 +1.5132713132E-002  +0.0000000000E+000 +0.0000000000E+000 
9200000000.000 +0.0000000000E+000 +0.0000000000E+000  +2.1985255182E-002 -1.3864217326E-002  -1.2066600844E-002 -1.6366291791E-002  +0.0000000000E+000 +0.0000000000E+000 
9400000000.000 +0.0000000000E+000 +0.0000000000E+000  -7.8028966673E-003 +7.7586830594E-003  -2.5732073933E-002 +2.2083446383E-002  +0.0000000000E+000 +0.0000000000E+000 
9600000000.000 +0.0000000000E+000 +0.0000000000E+000  +2.5059396401E-002 +7.0857495302E-004  +2.9402194545E-002 +1.7771583050E-002  +0.0000000000E+000 +0.0000000000E+000 
9800000000.000 +0.0000000000E+000 +0.0000000000E+000  -6.6498322412E-003 -2.2900944576E-002  +7.2928303853E-003 -2.6969969273E-002  +0.0000000000E+000 +0.0000000000E+000 
10000000000.000 +0.0000000000E+000 +0.0000000000E+000  -2.6088266168E-003 +1.5233629383E-002  -2.2908480838E-002 +4.4332230464E-003  +0.0000000000E+000 +0.0000000000E+000 
10200000000.000 +0.0000000000E+000 +0.0000000000E+000  +1.7258789390E-002 -1.4334208332E-002  +7.1871248074E-003 +1.8406493589E-002  +0.0000000000E+000 +0.0000000000E+000 
10400000000.000 +0.0000000000E+000 +0.0000000000E+000  -2.0734891295E-002 -1.0575673543E-002  +8.3238482475E-003 -1.1761176400E-002  +0.0000000000E+000 +0.0000000000E+000 
10600000000.000 +0.0000000000E+000 +0.0000000000E+000  -5.4378183559E-003 +8.1362249330E-003  -1.9571378827E-002 +5.9548411518E-003  +0.0000000000E+000 +0.0000000000E+000 
10800000000.000 +0.0000000000E+000 +0.0000000000E+000  -1.2929295190E-002 -2.8475350700E-003  +1.1465459131E-002 +2.5244209915E-002  +0.0000000000E+000 +0.0000000000E+000 
11000000000.000 +0.0000000000E+000 +0.0000000000E+000  -1.2772828341E-002 +2.6641648263E-002  +2.1861817688E-002 -5.5945520289E-003  +0.0000000000E+000 +0.0000000000E+000 
11200000000.000 +0.0000000000E+000 +0.0000000000E+000  +2.3859219626E-002 +1.8323756754E-002  +4.4912134763E-004 -5.1334826276E-003  +0.0000000000E+000 +0.0000000000E+000 
11400000000.000 +0.0000000000E+000 +0.0000000000E+000  +1.1065276340E-002 -3.5012003500E-003  +1.6562316567E-002 -4.2676557787E-003  +0.0000000000E+000 +0.0000000000E+000 
11600000000.000 +0.0000000000E+000 +0.0000000000E+000  +2.0780563354E-002 +5.4734745063E-003  +3.2100169919E-003 -3.4938126802E-002  +0.0000000000E+000 +0.0000000000E+000 
11800000000.000 +0.0000000000E+000 +0.0000000000E+000  +2.1356699988E-002 -3.2324369997E-002  -2.8100062162E-002 -1.5544673428E-002  +0.0000000000E+000 +0.0000000000E+000 
12000000000.000 +0.0000000000E+000 +0.0000000000E+000  -2.9816068709E-002 -2.1154602990E-002  -1.0568944737E-002 +1.0228016414E-002  +0.0000000000E+000 +0.0000000000E+000 
12200000000.000 +0.0000000000E+000 +0.0000000000E+000  -1.4227261767E-002 +6.1510982923E-003  -1.6356347129E-002 +1.3379501179E-003  +0.0000000000E+000 +0.0000000000E+000 
12400000000.000 +0.0000000000E+000 +0.0000000000E+000  -1.9552540034E-002 +1.5543946065E-003  -7.0406319574E-003 +3.3076059073E-002  +0.0000000000E+000 +0.0000000000E+000 
12600000000.000 +0.0000000000E+000 +0.0000000000E+000  -1.4453312382E-002 +2.2334881127E-002  +2.8933489695E-002 +1.6812225804E-002  +0.0000000000E+000 +0.0000000000E+000 
12800000000.000 +0.0000000000E+000 +0.0000000000E+000  +5.3213597275E-003 +1.8640855327E-002  +1.5837527812E-002 -1.3828990050E-002  +0.0000000000E+000 +0.0000000000E+000 
13000000000.000 +0.0000000000E+000 +0.0000000000E+000  +7.8039621003E-003 +3.9897649549E-003  -9.4454707578E-003 -1.8414747319E-004  +0.0000000000E+000 +0.0000000000E+000 
13200000000.000 +0.0000000000E+000 +0.0000000000E+000  +8.2147298381E-003 +5.2436972037E-003  +1.8505860120E-002 +1.0073521174E-002  +0.0000000000E+000 +0.0000000000E+000 
13400000000.000 +0.0000000000E+000 +0.0000000000E+000  +1.6306351870E-002 -8.3514386788E-003  +3.2476915512E-003 -2.5029657409E-002  +0.0000000000E+000 +0.0000000000E+000 
13600000000.000 +0.0000000000E+000 +0.0000000000E+000  +2.4879281409E-003 -1.2403741479E-002  -1.7630705610E-002 +1.3677077368E-003  +0.0000000000E+000 +0.0000000000E+000 
13800000000.000 +0.0000000000E+000 +0.0000000000E+000  +3.0871871859E-003 -5.0843041390E-003  +9.9305566400E-003 +1.2895128690E-002  +0.0000000000E+000 +0.0000000000E+000 
14000000000.000 +0.0000000000E+000 +0.0000000000E+000  -1.0575942724E-004 -1.5134681948E-002  +1.1846546084E-002 -1.3086056337E-002  +0.0000000000E+000 +0.0000000000E+000 
14200000000.000 +0.0000000000E+000 +0.0000000000E+000  -1.0825888254E-002 -2.4453969672E-003  -4.9708751030E-003 -3.5327097867E-003  +0.0000000000E+000 +0.0000000000E+000 
14400000000.000 +0.0000000000E+000 +0.0000000000E+000  -1.0004604701E-003 -5.2356314845E-003  +1.2033984996E-002 -1.2146851979E-002  +0.0000000000E+000 +0.0000000000E+000 
14600000000.000 +0.0000000000E+000 +0.0000000000E+000  -2.1262487397E-002 -5.9313648380E-003  -2.2999137640E-002 -2.9540995136E-002  +0.0000000000E+000 +0.0000000000E+000 
14800000000.000 +0.0000000000E+000 +0.0000000000E+000  -1.0964803398E-002 +2.1584291011E-002  -3.9829425514E-002 +4.6520144679E-003  +0.0000000000E+000 +0.0000000000E+000 
15000000000.000 +0.0000000000E+000 +0.0000000000E+000  +5.2697602659E-003 +8.5423868150E-003  -8.7377196178E-003 +1.8811438233E-002  +0.0000000000E+000 +0.0000000000E+000 
15200000000.000 +0.0000000000E+000 +0.0000000000E+000  -3.6393392365E-003 +1.7417689785E-002  -1.1456155218E-002 +7.1279872209E-003  +0.0000000000E+000 +0.0000000000E+000 
15400000000.000 +0.0000000000E+000 +0.0000000000E+000  +2.5508949533E-002 +1.8127480522E-002  -9.8163159564E-003 +3.5443495959E-002  +0.0000000000E+000 +0.0000000000E+000 
15600000000.000 +0.0000000000E+000 +0.0000000000E+000  +2.6506705210E-002 -1.0890145786E-002  +3.2605573535E-002 +2.7527056634E-002  +0.0000000000E+000 +0.0000000000E+000 
15800000000.000 +0.0000000000E+000 +0.0000000000E+000  +8.8407620788E-003 -2.2319456562E-002  +2.6450758800E-002 -1.1509019881E-002  +0.0000000000E+000 +0.0000000000E+000 
16000000000.000 +0.0000000000E+000 +0.0000000000E+000  -1.7370868474E-002 -3.2367225736E-002  +8.5971746594E-003 -5.0631137565E-003  +0.0000000000E+000 +0.0000000000E+000 
16200000000.000 +0.0000000000E+000 +0.0000000000E+000  -4.1332088411E-002 +3.6774673499E-003  +2.3968672380E-002 -1.6994653270E-002  +0.0000000000E+000 +0.0000000000E+000 
16400000000.000 +0.0000000000E+000 +0.0000000000E+000  -9.6501763910E-003 +2.8326101601E-002  -5.1885605790E-003 -3.9040841162E-002  +0.0000000000E+000 +0.0000000000E+000 
16600000000.000 +0.0000000000E+000 +0.0000000000E+000  +2.2436040454E-003 +3.7450811360E-003  -3.1511452049E-002 -1.2158323079E-002  +0.0000000000E+000 +0.0000000000E+000 
16800000000.000 +0.0000000000E+000 +0.0000000000E+000  -7.5359204784E-003 +1.9664751366E-002  -1.4715434983E-002 +9.3635246158E-003  +0.0000000000E+000 +0.0000000000E+000 
17000000000.000 +0.0000000000E+000 +0.0000000000E+000  +2.1876864135E-002 +1.7966208979E-002  -1.4399666339E-002 +3.6802734248E-003  +0.0000000000E+000 +0.0000000000E+000 
17200000000.000 +0.0000000000E+000 +0.0000000000E+000  +2.0111810416E-002 -4.9089184031E-003  -1.5727508813E-002 +1.7943590879E-002  +0.0000000000E+000 +0.0000000000E+000 
17400000000.000 +0.0000000000E+000 +0.0000000000E+000  +2.0897129551E-002 -1.1356355622E-002  +5.0401706249E-003 +2.3570034653E-002  +0.0000000000E+000 +0.0000000000E+000 
17600000000.000 +0.0000000000E+000 +0.0000000000E+000  +3.8333467674E-003 -2.7194390073E-002  +1.1623462662E-002 +4.6609984711E-003  +0.0000000000E+000 +0.0000000000E+000 
17800000000.000 +0.0000000000E+000 +0.0000000000E+000  -1.1911081150E-002 -6.4970827661E-003  +3.9830594324E-003 +5.3816084983E-004  +0.0000000000E+000 +0.0000000000E+000 
18000000000.000 +0.0000000000E+000 +0.0000000000E+000  -2.1431387868E-003 -1.2382760644E-002  +2.6277001016E-003 +2.0298473537E-003  +0.0000000000E+000 +0.0000000000E+000 
18200000000.000 +0.0000000000E+000 +0.0000000000E+000  -2.6983195916E-002 -4.6573192813E-003  +4.8277768656E-004 +4.6762423590E-003  +0.0000000000E+000 +0.0000000000E+000 
18400000000.000 +0.0000000000E+000 +0.0000000000E+000  -2.3051453754E-003 +2.3494498804E-002  +9.5372367650E-003 +6.8554384634E-003  +0.0000000000E+000 +0.0000000000E+000 
18600000000.000 +0.0000000000E+000 +0.0000000000E+000  +6.4870137721E-003 -1.5821134672E-002  +1.1711905710E-002 -1.8630615668E-003  +0.0000000000E+000 +0.0000000000E+000 
18800000000.000 +0.0000000000E+000 +0.0000000000E+000  -3.5693760961E-002 +1.5838867053E-002  +2.3261392489E-003 +2.5810129009E-003  +0.0000000000E+000 +0.0000000000E+000 
19000000000.000 +0.0000000000E+000 +0.0000000000E+000  +2.5568600744E-002 +3.8910489529E-002  +2.0363520831E-002 +5.8985771611E-003  +0.0000000000E+000 +0.0000000000E+000 
19200000000.000 +0.0000000000E+000 +0.0000000000E+000  +1.7799295485E-002 -1.8307218328E-002  +1.4271766879E-002 -3.4054502845E-002  +0.0000000000E+000 +0.0000000000E+000 
19400000000.000 +0.0000000000E+000 +0.0000000000E+000  -1.6392616555E-002 +1.7869668081E-002  -3.1229039654E-002 -1.8205747008E-002  +0.0000000000E+000 +0.0000000000E+000 
19600000000.000 +0.0000000000E+000 +0.0000000000E+000  +5.7159498334E-002 +8.4320409223E-003  -9.8678050563E-003 +1.1932882480E-002  +0.0000000000E+000 +0.0000000000E+000 
19800000000.000 +0.0000000000E+000 +0.0000000000E+000  -2.5052336976E-002 -6.5542824566E-002  +1.0822935030E-002 -1.9014183432E-002  +0.0000000000E+000 +0.0000000000E+000 
20000000000.000 +0.0000000000E+000 +0.0000000000E+000  -3.6221619695E-002 +2.2027140483E-002  -5.0101652741E-002 -1.1684192345E-002  +0.0000000000E+000 +0.0000000000E+000 
20200000000.000 +0.0000000000E+000 +0.0000000000E+000  +6.0537201352E-003 -1.4859450050E-002  -4.6262521297E-002 +2.9116729274E-002  +0.0000000000E+000 +0.0000000000E+000 
20400000000.000 +0.0000000000E+000 +0.0000000000E+000  -5.9049390256E-002 +9.2119639739E-003  +2.2518815473E-002 +2.9287118465E-002  +0.0000000000E+000 +0.0000000000E+000 
20600000000.000 +0.0000000000E+000 +0.0000000000E+000  +2.1726112813E-002 +7.1491964161E-002  -2.9940877575E-003 -1.7005261034E-002  +0.0000000000E+000 +0.0000000000E+000 
20800000000.000 +0.0000000000E+000 +0.0000000000E+000  +4.3009649962E-002 -3.8444966078E-002  -2.5420943275E-002 +3.7612788379E-002  +0.0000000000E+000 +0.0000000000E+000 
21000000000.000 +0.0000000000E+000 +0.0000000000E+000  -1.4914046042E-002 +2.6587357279E-003  +4.8599090427E-002 +4.2737990618E-002  +0.0000000000E+000 +0.0000000000E+000 
21200000000.000 +0.0000000000E+000 +0.0000000000E+000  +4.4107086957E-002 -8.9183561504E-003  +3.7105288357E-002 -4.4376783073E-002  +0.0000000000E+000 +0.0000000000E+000 
21400000000.000 +0.0000000000E+000 +0.0000000000E+000  -1.9054530188E-002 -6.1699673533E-002  -3.3186040819E-002 -1.4591785148E-002  +0.0000000000E+000 +0.0000000000E+000 
21600000000.000 +0.0000000000E+000 +0.0000000000E+000  -4.6624287963E-002 +2.2387331352E-002  +1.5480360948E-002 +2.9226146638E-002  +0.0000000000E+000 +0.0000000000E+000 
21800000000.000 +0.0000000000E+000 +0.0000000000E+000  +2.3580981418E-002 +6.7832637578E-003  +3.1741082668E-002 -3.3836543560E-002  +0.0000000000E+000 +0.0000000000E+000 
22000000000.000 +0.0000000000E+000 +0.0000000000E+000  -3.0442085117E-002 -2.1536348388E-002  -3.7195473909E-002 -2.2773999721E-002  +0.0000000000E+000 +0.0000000000E+000 
22200000000.000 +0.0000000000E+000 +0.0000000000E+000  -1.2090142816E-002 +4.5614659786E-002  +1.6093541635E-003 +3.2450191677E-002  +0.0000000000E+000 +0.0000000000E+000 
22400000000.000 +0.0000000000E+000 +0.0000000000E+000  +3.1886313111E-002 -7.5316755101E-003  +2.7710124850E-002 -2.8312075883E-002  +0.0000000000E+000 +0.0000000000E+000 
22600000000.000 +0.0000000000E+000 +0.0000000000E+000  -3.1184813008E-002 -3.9603691548E-003  -4.0470559150E-002 -1.9132280722E-002  +0.0000000000E+000 +0.0000000000E+000 
22800000000.000 +0.0000000000E+000 +0.0000000000E+000  +1.4299436472E-002 +4.5097410679E-002  +2.8899480822E-004 +3.6475513130E-002  +0.0000000000E+000 +0.0000000000E+000 
23000000000.000 +0.0000000000E+000 +0.0000000000E+000  +3.3630825579E-002 -1.3667408377E-002  +2.3696182296E-002 -3.0506655574E-002  +0.0000000000E+000 +0.0000000000E+000 
