! Touchstone file exported from HFSS 2021.1.0
!        File:           C:/Users/Ziad/Desktop/TMTT HFSS/mTRL_verification.aedt
!        Generated:      1:50:01 AM  Aug 09, 2022
!        Design:         impedance_transition
!        Project:        mTRL_verification
!        Setup:          Setup1
!        Solution:       Sweep
!
! Variables:
!        $e_r = 1.73929
!        $er = 3.2
!        $tand = 0.002
!        match_width = 0.094mm
!        port_height = 0.946mm
!        sig_length = 0.1mm
!        step_width = 0.2086mm
!        sub_length = 0.2mm
!        sub_thickness = 0.0473mm
!        sub_width = 4mm
!        trace_thickness = 0.0126mm
!
!Data is not renormalized
# GHz S MA
! Terminal data exported
! Port[1] = 1
! Port[2] = 2
2                              0.246498093383562 179.133216868831 0.96893196879964 -0.807626872381735 0.96893196879964 -0.807626872381735 0.246568376089691 -0.944044928037277 
! Gamma         1.04593504210781 66.6700791383097 1.0407309288705  69.19133680759   
! Port Impedance         54.027272504092  -0.6926065302966 32.4537496486569 -0.405757419989088 
4                              0.246243232476355 178.388821804505 0.968905221562006 -1.61814514582706 0.968905221562006 -1.61814514582706 0.246378145682378 -1.79870362368764 
! Gamma         1.5735996861071  132.716314194345 1.56390222069298 137.782048530872 
! Port Impedance         53.799053697634  -0.480289397753662 32.32235923177   -0.281449895592  
6                              0.246146333719821 177.652381279736 0.968805685118294 -2.42927520186268 0.968805685118294 -2.42927520186268 0.246209926792548 -2.66188198965747 
! Gamma         2.01488594657397 198.645160302812 2.00545939129764 206.253653745405 
! Port Impedance         53.6938902562585 -0.385882536240819 32.2616551389946 -0.227380211342779 
8                              0.246138587350806 176.911968105078 0.968643351110112 -3.23820724551206 0.968643351110112 -3.23820724551206 0.245996678265071 -3.51788134099129 
! Gamma         2.40521878319393 264.507632806243 2.39621392795642 274.660105740662 
! Port Impedance         53.625698435302  -0.328401511313674 32.2224228152157 -0.195198741497462 
10                             0.24617787315087 176.162272114143 0.968452809395368 -4.04383711754604 0.968452809395368 -4.04383711754604 0.245766423228887 -4.36069727937769 
! Gamma         2.75873066401672 330.330664127772 2.74881364984526 343.029529818854 
! Port Impedance         53.5745832103445 -0.287793965170134 32.1930734627129 -0.172785926711739 
12                             0.246232644449037 175.403704718975 0.968262218493304 -4.84661279754183 0.968262218493304 -4.84661279754183 0.245544788856098 -5.19209164042021 
! Gamma         3.08408138003231 396.129977950659 3.07147067484214 411.379240438891 
! Port Impedance         53.533113419966  -0.25678150236732 32.1694527335315 -0.155751827613828 
14                             0.246286659575499 174.638710968977 0.968085036663057 -5.64743911015594 0.968085036663057 -5.64743911015594 0.24534321754907 -6.01586931553319 
! Gamma         3.38718817661338 461.915648857502 3.37026563226005 479.720497664217 
! Port Impedance         53.4977219293605 -0.232154540249371 32.1495919676958 -0.142226366100617 
16                             0.246333705172973 173.869608473613 0.967925004421303 -6.4471115371847 0.967925004421303 -6.4471115371847 0.245163647286721 -6.8353701689185 
! Gamma         3.67225293854345 527.694581919656 3.64965981874734 548.061005899723 
! Port Impedance         53.4663837118865 -0.212255014529365 32.1323515762657 -0.131272084216785 
18                             0.24637243198521 173.09803875771  0.967781402573768 -7.24619137557464 0.967781402573768 -7.24619137557464 0.245003841959821 -7.65292593940364 
! Gamma         3.94229943630256 593.471819043913 3.91288094425166 616.406393693384 
! Port Impedance         53.437832493911  -0.1960845259613 32.1169968359596 -0.122328315678442 
20                             0.24640339480035 172.325025734115 0.967652031414023 -8.04503974636925 0.967652031414023 -8.04503974636925 0.244860402925707 -8.47000770100346 
! Gamma         4.1995384462478  659.251268316334 4.16228038644323 684.761051130686 
! Port Impedance         53.4112360549165 -0.182958677601648 32.1030304194244 -0.115005752897438 
22                             0.246427669696316 171.551159117159 0.967534535440415 -8.84387894458381 0.967534535440415 -8.84387894458381 0.244730059046656 -9.28748982542321 
! Gamma         4.44562756835855 725.036114203805 4.39961717642472 753.128590064199 
! Port Impedance         53.3810076609405 -0.211021588263614 32.0872400377204 -0.134977913757903 
24                             0.246446299072993 170.776754768981 0.967426877136519 -9.64284278178676 0.967426877136519 -9.64284278178676 0.24461008081972 -10.1058650536715 
! Gamma         4.68185141175086 790.829050921041 4.62626127331812 821.512096377603 
! Port Impedance         53.345719369344  -0.216204243168753 32.0689528777856 -0.137516749334777 
26                             0.246460116013033 170.001966729929 0.967327437929535 -10.4420109670285 0.967327437929534 -10.4420109670285 0.24449832319973 -10.9253906843562 
! Gamma         4.9092431485734  856.632418677324 4.84333019192793 889.914270714472 
! Port Impedance         53.3086555768945 -0.219601069033225 32.0499661605653 -0.140765329371588 
28                             0.246469725229149 169.226858852106 0.967234978355894 -11.2414309625933 0.967234978355895 -11.2414309625933 0.244393138500046 -11.7461815595252 
! Gamma         5.12866488578515 922.448286315912 5.05177691111366 958.337509883101 
! Port Impedance         53.271331161766  -0.214778663011497 32.0311889852099 -0.137920375325913 
30                             0.246475539361432 168.451448477475 0.967148558778563 -12.0411314311168 0.967148558778563 -12.0411314311168 0.24429326185492 -12.5682678152231 
! Gamma         5.34085997399156 988.278503948223 5.25244432736632 1026.78395673234 
! Port Impedance         53.233122141362  -0.217096564028291 32.0122063112963 -0.140341320073404 
32                             0.246477827721521 167.675732099348 0.967067460705085 -12.8411303599246 0.967067460705085 -12.8411303599246 0.244197707583462 -13.391630551421 
! Gamma         5.5464865419802  1054.12473842182 5.44609763208941 1095.25553320941 
! Port Impedance         53.1962490422695 -0.216345065062042 31.9941488843699 -0.140694293867205 
34                             0.246476761015811 166.899699784589 0.966991121897408 -13.6414398942653 0.966991121897407 -13.6414398942653 0.244105687318204 -14.2162238978187 
! Gamma         5.74613864712736 1119.98849873953 5.63344260024278 1163.75396439379 
! Port Impedance         53.1595703765895 -0.213890956188166 31.9767594592357 -0.138550462336764 
36                             0.246472447043844 166.12334271623  0.966919087439344 -14.4420691523357 0.966919087439344 -14.4420691523357 0.244016549917893 -15.0419886764517 
! Gamma         5.94035937988256 1185.87115540908 5.81513521674152 1232.28079760486 
! Port Impedance         53.124549407673  -0.208842149807274 31.9603057236268 -0.137888132774632 
38                             0.246464957033606 165.346656605186 0.966850974887251 -15.2430258084709 0.966850974887251 -15.2430258084709 0.243929739540173 -15.8688608161812 
! Gamma         6.12964884538567 1251.77395599174 5.99178624147024 1300.83741874276 
! Port Impedance         53.0902394879065 -0.205347023526802 31.9445699222937 -0.134461040876655 
40                             0.246454343941155 164.569642693439 0.966786450545209 -16.0443169295867 0.966786450545209 -16.0443169295867 0.243844767573116 -16.6967764430787 
! Gamma         6.31446897844026 1317.69803814074 6.16396305018173 1369.42506693765 
! Port Impedance         53.057120558422  -0.203263546640254 31.9299109015912 -0.132562042756954 
42                             0.246440654430277 163.792307425757 0.966725213990179 -16.8459493665061 0.966725213990179 -16.8459493665061 0.243761194559055 -17.5256748420161 
! Gamma         6.495246486001   1383.64444090231 6.33219022452808 1438.04484806045 
! Port Impedance         53.0256950743385 -0.201127830672314 31.9160198899148 -0.130332371176535 
44                             0.246423936142148 163.014661460093 0.96666698844446 -17.6479298882066 0.966666988444459 -17.6479298882066 0.243678619005577 -18.3555000475414 
! Gamma         6.67237476038387 1449.61411471504 6.49694978208446 1506.6977473034  
! Port Impedance         52.9957314640015 -0.19405754998818 31.9031683887013 -0.129182925950215 
46                             0.246404241605489 162.236718425783 0.966611515130133 -18.450265176193 0.966611515130133 -18.450265176193 0.243596670752027 -19.1862015540967 
! Gamma         6.8462152968501  1515.60793036709 6.6586815478621  1575.38464092718 
! Port Impedance         52.966170174171  -0.192528435320795 31.890977155523  -0.126949901414398 
48                             0.24638162984272 161.458493673055 0.966558550225206 -19.2529617519392 0.966558550225207 -19.2529617519391 0.243515007205437 -20.0177344714164 
! Gamma         7.01709893908356 1581.6266870708  6.81778391417684 1644.10630718538 
! Port Impedance         52.9380912880885 -0.190940743038731 31.8797397906806 -0.124632728720777 
50                             0.246356166477926 160.68000315062  0.966507863432903 -20.0560258819675 0.966507863432903 -20.0560258819675 0.243433311284405 -20.8500593453381 
! Gamma         7.18532713451855 1647.67111975498 6.97461507358986 1712.86343641114 
! Port Impedance         52.911360271079  -0.191869816912371 31.8692390155717 -0.12173394220659 
52                             0.246327922926395 159.901262469725 0.96645923748224 -20.8594634837213 0.96645923748224 -20.8594634837213 0.243351290283105 -21.6831417781643 
! Gamma         7.35117328751309 1713.74190564161 7.12949471159969 1781.65664025517 
! Port Impedance         52.8857305183755 -0.185199305427454 31.859413300499  -0.119478227330132 
54                             0.246296975100928 159.122286182167 0.966412468098289 -21.663280047731 0.966412468098289 -21.663280047731 0.243268675173175 -22.5169519561166 
! Gamma         7.51488423948862 1779.8396701619  7.28270609084647 1850.48646008186 
! Port Impedance         52.8607939774065 -0.183780208042117 31.850367288875  -0.117175256396706 
56                             0.246263401911508 158.343087260096 0.966367364151869 -22.4674805795989 0.966367364151869 -22.4674805795989 0.243185220029523 -23.351464136055 
! Gamma         7.67668186793606 1845.96499224986 7.43449843340754 1919.35337453166 
! Port Impedance         52.836985957177  -0.182278299930768 31.8419393812042 -0.113847410510465 
58                             0.246227283764417 157.56367676041  0.966323747807689 -23.2720695641773 0.966323747807689 -23.2720695641773 0.243100701428424 -24.1866561377026 
! Gamma         7.83676477744231 1912.11840906552 7.58508950111109 1988.25780628592 
! Port Impedance         52.8142166753895 -0.180696694730713 31.8340174073651 -0.11164937771369 
60                             0.246188701167261 156.784063641598 0.966281454576727 -24.0770509489045 0.966281454576727 -24.0770509489045 0.243014917726574 -25.0225088582786 
! Gamma         7.9953100459777  1978.30042019103 7.7346682790322  2057.20012807693 
! Port Impedance         52.792320821283  -0.171772976554012 31.8267218774797 -0.109424524864484 
62                             0.246147733517755 156.004254706932 0.966240333226239 -24.8824281446441 0.966240333226239 -24.8824281446441 0.242927688209183 -25.8590058294471 
! Gamma         8.15247498901297 2044.51149133387 7.88339767888572 2126.18066799302 
! Port Impedance         52.7707410441415 -0.170487648978971 31.8200029892839 -0.107181939406928 
64                             0.24610445810098 155.224254641181 0.966200245538856 -25.6882040393306 0.966200245538856 -25.6882040393306 0.242838852110419 -26.6961328162344 
! Gamma         8.30839890580282 2110.75205759338 8.03141719378185 2195.1997141467  
! Port Impedance         52.749994166491  -0.169101726464752 31.8137427092479 -0.103293169770271 
66                             0.246058949297969 154.444066117842 0.966161065931913 -26.4943810220477 0.966161065931913 -26.4943810220477 0.242748267529067 -27.5338774646191 
! Gamma         8.4632047777268  2177.02252632939 8.17884545107839 2264.25751875591 
! Port Impedance         52.7300101842985 -0.167618125159693 31.8078001222082 -0.10120530484359 
68                             0.246011278003211 153.663689953643 0.966122680956382 -27.300961014027 0.966122680956382 -27.300961014027 0.242655810279475 -28.3722289946456 
! Gamma         8.61700089443536 2243.32327967283 8.32578262451317 2333.35430171444 
! Port Impedance         52.7107242810105 -0.166040019866588 31.8023241193213 -0.099106099937677 
70                             0.245961511217925 152.883125291686 0.966084988704623 -28.1079455038803 0.966084988704623 -28.1079455038803 0.242561372696286 -29.2111779356664 
! Gamma         8.76988238974158 2309.65467672525 8.47231267990053 2402.49025369944 
! Port Impedance         52.692076820116  -0.164370881765971 31.7972791289483 -0.097001375740109 
72                             0.245909711808374 152.102369800811 0.966047898149798 -28.9153355855533 0.966047898149798 -28.9153355855533 0.242464862435301 -30.0507159032172 
! Gamma         8.92193267522874 2376.01705547918 8.61850543933585 2471.66553888183 
! Port Impedance         52.6737255595255 -0.154173110915771 31.792632809878  -0.094896300109486 
74                             0.245855938393713 151.321419878925 0.966011328443663 -29.7231319968934 0.966011328443663 -29.7231319968934 0.242366201284253 -30.8908354112101 
! Gamma         9.07322476432635 2442.41073449607 8.76441845790692 2540.88029728675 
! Port Impedance         52.6557113541615 -0.152747537008256 31.7883558747105 -0.0927954800179595 
76                             0.24580024534316 150.540270853463 0.965975208192392 -30.53133515806  0.965975208192392 -30.53133515806  0.242265324006002 -31.7315297174639 
! Gamma         9.22382248430391 2508.83601437835 8.91009871361162 2610.13464685342 
! Port Impedance         52.638218272785  -0.151220775396758 31.7842616659518 -0.088758568258211 
78                             0.245742682861496 149.758917172831 0.965939474726935 -31.3399452085837 0.965939474726935 -31.3399452085837 0.242162177228474 -32.5727926973726 
! Gamma         9.37378157653253 2575.2931790534  9.05558411629494 2679.42868523809 
! Port Impedance         52.62120523495   -0.149598544917582 31.7804699122139 -0.08682080813987 
80                             0.245683297139709 148.977352586084 0.965904073381696 -32.1489620429469 0.965904073381694 -32.1489620429469 0.242056718385545 -33.4146187438698 
! Gamma         9.52315068852681 2641.78249690941 9.20090484498113 2748.76249139326 
! Port Impedance         52.604635108014  -0.147886839511897 31.7769900365812 -0.0848881112885665 
82                             0.245622130558024 148.195570308526 0.965868956789838 -32.9583853440994 0.965868956789838 -32.9583853440994 0.241948914716544 -34.2570026896655 
! Gamma         9.67197226279825 2708.30422178608 9.34608452524007 2818.13612695947 
! Port Impedance         52.58847443836   -0.146091871956637 31.7738024952173 -0.08296415042528 
84                             0.245559221927161 147.413563171602 0.965834084201363 -33.7682146146507 0.965834084201363 -33.7682146146507 0.241838742324013 -35.0999397480034 
! Gamma         9.82028332879639 2774.85859385979 9.49114125950748 2887.54963749616 
! Port Impedance         52.572693179682  -0.144220016737008 31.7708897503384 -0.0810522884556995 
86                             0.245494606758794 146.631323757962 0.965799420826796 -34.5784492059606 0.965799420826795 -34.5784492059606 0.241726185289225 -35.9434254709051 
! Gamma         9.96811620529474 2841.44584042498 9.63608852387219 2957.00305357471 
! Port Impedance         52.5572644244405 -0.142277753474656 31.7682276655232 -0.0795482305484405 
88                             0.24542831755414 145.848844520924 0.965764937208402 -35.3890883448587 0.965764937208402 -35.3890883448587 0.241611234838669 -36.787455720834 
! Gamma         10.1154991205445 2908.06617659339 9.78093594470547 3026.49639175381 
! Port Impedance         52.541948427856  -0.128626999918572 31.7658123582969 -0.0776386688944945 
90                             0.245360384108765 145.066117888938 0.96573060861726 -36.200131157947 0.96573060861726 -36.2001311579469 0.241493888560238 -37.6320266533816 
! Gamma         10.2624567578934 2974.71980591801 9.92568996811894 3096.02965545862 
! Port Impedance         52.52672936545   -0.127046608503261 31.7635198187996 -0.073520268224756 
92                             0.245290833828799 144.283136356358 0.96569641447468 -37.0115766938137 0.96569641447468 -37.0115766938137 0.241374149662945 -38.4771347099946 
! Gamma         10.4090107341872 3041.40692095929 10.0703544345446 3165.60283577015 
! Port Impedance         52.51182904375   -0.125394053137961 31.7614325919486 -0.0717876660564275 
94                             0.245219692053375 143.499892560078 0.965662337795965 -37.823423942785 0.965662337795964 -37.823423942785 0.24125202627157 -39.3227766167276 
! Gamma         10.555180018002  3108.12770379434 10.2149310697581 3235.21591214693 
! Port Impedance         52.497229615773  -0.123676684763898 31.7595684167065 -0.0700741458375945 
96                             0.245146982380957 142.716379343175 0.965628364653811 -38.6356718544126 0.965628364653811 -38.6356718544126 0.241127530750065 -40.1689493879008 
! Gamma         10.700981294357  3174.88232648477 10.3594199028171 3304.86885307885 
! Port Impedance         52.4829151426565 -0.121901691279533 31.7579177421079 -0.068381965271175 
98                             0.245072727003521 141.932589806151 0.965594483657076 -39.4483193526357 0.965594483657076 -39.4483193526357 0.241000679053328 -41.0156503327042 
! Gamma         10.8464292820207 3241.67095149903 10.5038196202659 3374.56161669201 
! Port Impedance         52.468867879878  -0.120683612280367 31.7564719954273 -0.0667131493664205 
100                            0.244996947040118 141.148517345545 0.965560685444116 -40.2613653484523 0.965560685444116 -40.2613653484523 0.240871490095046 -41.8628770619444 
! Gamma         10.9915370089848 3308.49373210677 10.6481278651017 3444.29415130293 
! Port Impedance         52.4550757467935 -0.11876772738586 31.7552234802812 -0.0650695020163405 
102                            0.244919662872275 140.364155680431 0.96552696218762 -41.0748087500111 0.96552696218762 -41.0748087500111 0.240739985130933 -42.7106274932893 
! Gamma         11.136316051182  3375.35081273945 10.7923414879583 3514.06639593414 
! Port Impedance         52.4415317087435 -0.116817727520499 31.7541652837328 -0.0634526170228565 
104                            0.244840894477417 139.579498866503 0.965493307110121 -41.8886484699148 0.965493307110121 -41.8886484699148 0.240606187151718 -43.5588998524681 
! Gamma         11.2807767390318 3442.24232932654 10.9364567571493 3583.87828079314 
! Port Impedance         52.428225639896  -0.114839638381841 31.7532911919114 -0.0618638887667115 
106                            0.244760661762646 138.794541298412 0.965459714008536 -42.7028834298211 0.965459714008536 -42.7028834298211 0.2404701202881  -44.4076926696547 
! Gamma         11.4249283358039 3509.16840960819 11.0804695333591 3653.72972772061 
! Port Impedance         52.415148575789  -0.112839186401387 31.7525956135549 -0.0603045226583565 
