!  2-Port S-parameters saved by WinCal
! VAR MeasName=S-Parameters (CALIBRATED_DATA) read from VNA (MS4647B)
! VAR MeasDate=27-Apr-22 17:19:28
! VAR NAME=RAW_stepline_5mm_2
! VAR FILENAME=RAW_stepline_5mm_2.S2P
! VAR DATE=27-Apr-22 17:19:28
! VAR PHYS_PORTS=1,2
! VAR ObjTypeName=DATASET
! VAR IndexType=Frequency
! VAR ChuckHeaterState=Unknown
! VAR ChuckTemp=NaN
! VAR ChuckTempUnits=Unknown
!
# Hz S RI R 50
200000000.000 -3.7958258487E-002 -8.3774230893E-002  -2.6729014787E-001 -6.7990974725E-001  -3.8749202224E-001 -6.3429150911E-001  +1.0700164324E-002 -5.2523083648E-002 
400000000.000 +1.1804375176E-001 -7.8104164942E-002  -4.0177501068E-001 +5.5597592419E-001  -2.2632477287E-001 +6.6132285344E-001  -1.1772549518E-001 -4.9650129922E-003 
600000000.000 +1.0966316971E-001 -6.5195059401E-002  +5.9302779088E-001 +1.5446458101E-001  +5.4844226164E-001 -2.5659221966E-001  -9.7173853644E-002 +6.5854217827E-002 
800000000.000 +6.3690528941E-002 -2.5494623337E-001  -2.7504892808E-001 -5.9797451819E-001  -6.0052921151E-001 -2.3239151926E-001  +1.9931864946E-001 +5.3918000864E-002 
1000000000.000 +6.9934430611E-002 -1.6374287225E-001  -1.5790420321E-001 +6.8901556991E-001  +3.9517256957E-001 +5.4983259479E-001  +1.5784784546E-001 -7.0816210981E-002 
1200000000.000 +1.2207149901E-001 -1.5073289423E-001  +6.6984698210E-001 -3.0131805995E-001  +6.7046639656E-002 -6.8700510674E-001  -2.4176089435E-002 -9.6903437494E-002 
1400000000.000 +1.0775785938E-001 -2.3974804440E-001  -6.6098016842E-001 -2.9807006697E-001  -4.9271610772E-001 +4.5112694901E-001  -9.6433292148E-002 -9.2599614129E-002 
1600000000.000 +1.1783713276E-001 +4.4010953951E-002  +2.1471831058E-001 +6.0294789036E-001  +5.6157236412E-001 +1.2959707855E-003  -1.1630811343E-001 +1.6493634835E-002 
1800000000.000 +3.6708850615E-002 +9.7144249563E-002  +2.7401630487E-001 -4.3478889484E-001  -3.3664473871E-001 -2.9547971122E-001  -3.1867467625E-002 +3.2846536829E-002 
2000000000.000 +2.0961383830E-001 +3.7566831516E-002  -4.2372899105E-001 +5.3889377532E-002  +1.7645731626E-002 +3.5957602545E-001  +2.2093294674E-001 +6.8270284551E-002 
2200000000.000 +5.2591864770E-002 -2.2951975422E-001  +2.4573599305E-001 +3.2633023009E-001  +2.7807035750E-001 -2.2826721221E-001  -5.5028122781E-002 -2.8306415561E-001 
2400000000.000 -6.5520935537E-002 -1.6835193552E-001  -7.7656074478E-002 -4.3056961125E-001  -3.8438199547E-001 +1.0032589232E-001  -1.3433754079E-001 +9.8113797769E-002 
2600000000.000 -6.0716631275E-002 +2.2417537565E-001  -7.4095384528E-001 +3.9389306568E-003  -1.1843962906E-001 +4.9965043927E-001  +1.4239468949E-001 -5.8752865900E-002 
2800000000.000 -1.4813502544E-001 -3.3583362723E-001  +3.6673801723E-001 -7.4957539214E-001  -6.7946099467E-001 +1.2474619377E-001  -5.3042359700E-002 +2.6027228368E-001 
3000000000.000 +1.3962793176E-001 -1.4540175169E-001  +3.9047331678E-001 +7.4095032790E-001  -3.9308878757E-001 -6.1145864568E-001  -1.2754830783E-001 +2.2850407621E-002 
3200000000.000 -3.7128442144E-002 -3.8548306474E-002  -7.8832471598E-001 -3.6687568180E-002  +3.3071468558E-001 -6.0754795601E-001  +8.2959337237E-002 -5.9535963472E-003 
3400000000.000 -5.0172758047E-002 +1.6660354804E-002  +4.0876310536E-001 -7.0361665348E-001  +7.3068815143E-001 +8.6303743445E-002  +1.3611739797E-001 +5.5222070399E-002 
3600000000.000 +9.6301305649E-004 -2.2432223122E-001  +2.2924002959E-001 +7.7702047776E-001  +2.0424885725E-001 +7.9799341384E-001  +1.9266708005E-002 +2.1294516350E-001 
3800000000.000 +5.3616188020E-002 -2.9214913192E-002  -7.8281937301E-001 -3.6673401147E-001  -6.9214783336E-001 +3.9465997467E-001  -2.0370956176E-002 +5.1565272820E-002 
4000000000.000 +3.9236592698E-002 +4.0837431884E-001  +7.5932738287E-001 -3.5622180974E-001  -5.5552409230E-001 -4.7341234362E-001  -5.1982279142E-002 -2.6325772883E-001 
4200000000.000 -8.4320368611E-002 -8.7600238529E-002  -2.5477365076E-001 +8.5408379741E-001  +3.0006288382E-001 -7.8408121349E-001  +8.6975692481E-002 +5.3330341900E-002 
4400000000.000 +1.6753882119E-001 -3.4962530658E-001  -3.9138786419E-001 -6.9602791031E-001  +8.3590284368E-001 +1.9421260441E-002  -4.8633206305E-002 +3.0288009212E-001 
4600000000.000 +4.9510528953E-002 +2.2496577042E-001  +8.0727605012E-001 +1.4093151467E-001  +1.1570893116E-001 +7.9940167662E-001  -1.6340998089E-001 -1.4913022745E-001 
4800000000.000 -4.4409516701E-001 +9.2185310004E-002  -6.5203212942E-001 +3.4376415971E-001  -6.5278671862E-001 +2.1478913278E-001  +2.6233064341E-001 -3.1552311202E-001 
5000000000.000 +1.2905477455E-001 -3.7288482213E-002  +2.1617598194E-001 -7.5972129200E-001  -5.6518250993E-001 -6.2533133519E-001  +5.8919776495E-002 +1.0798085158E-001 
5200000000.000 +3.1226726787E-001 +1.6221189601E-001  +3.7085340827E-001 +6.1888698701E-001  +5.3859120250E-001 -6.1683425508E-001  -1.7248495091E-001 +3.5798759905E-001 
5400000000.000 -4.2571884824E-001 +1.3620884539E-001  -6.5144263689E-001 -2.4954719149E-001  +5.9892727570E-001 +4.3682077657E-001  -9.8217695239E-002 -3.6324122240E-001 
5600000000.000 -3.7805501997E-002 -2.3728527262E-001  +5.9500966598E-001 -3.0019310915E-001  -1.2614429617E-001 +7.1454731783E-001  +2.4708798023E-001 -5.4504345085E-002 
5800000000.000 +2.2912283009E-001 +4.3949288016E-002  -1.9538204337E-001 +6.3304387455E-001  -7.6678622617E-001 -3.9710548908E-002  -1.3876207951E-001 +2.4969690070E-001 
6000000000.000 -1.1779065151E-001 +1.5944361446E-001  -3.2831014230E-001 -4.9332872229E-001  -1.2854650158E-001 -6.9488485224E-001  -2.8880268807E-001 -1.4303936706E-001 
6200000000.000 -1.5427288733E-001 -2.7086380423E-001  +4.9497032523E-001 +2.5939663645E-001  +6.1030745067E-001 -7.6135683818E-002  +3.8658326720E-001 -1.1240865608E-001 
6400000000.000 +1.5993555205E-002 -2.5204880949E-002  -5.1472277504E-001 +3.2504049650E-001  +4.1882600659E-001 +5.2562964205E-001  -7.7510956625E-002 +3.7793600128E-002 
6600000000.000 +1.5174617032E-001 +3.0738085248E-001  +2.3849640255E-001 -4.9934644824E-001  -4.6402344273E-001 +3.8750286748E-001  -2.7095164393E-001 +8.9382494378E-002 
6800000000.000 -2.5332379777E-001 -3.8527389311E-002  +1.3548826165E-001 +5.6778393210E-001  -4.6843825391E-001 -4.3612717921E-001  +7.0840282220E-002 -2.2092956866E-001 
7000000000.000 +1.5822887430E-001 -2.7094881944E-001  -4.6955679157E-001 -2.3461766492E-001  +1.5240137135E-001 -5.0285641061E-001  +3.2720300140E-001 +1.7841991633E-002 
7200000000.000 +3.7283457262E-002 +1.8232481704E-001  +5.6095057714E-001 -9.3507741662E-002  +5.3669012995E-001 +8.5279344880E-002  -2.5165826978E-002 +1.6520116685E-001 
7400000000.000 -3.6898213641E-001 +5.8428647766E-002  -2.8551035999E-001 +3.7682071108E-001  +2.6395309596E-003 +4.7971807931E-001  -3.9846864407E-001 -1.8395416276E-001 
7600000000.000 +2.1805252206E-001 -2.3425958845E-001  +3.2005823318E-002 -5.2843776491E-001  -5.1204735125E-001 +7.0761259413E-003  +3.6047640138E-001 -5.0083122535E-002 
7800000000.000 -1.2589580275E-002 +6.9219341151E-002  +3.9384496659E-001 +3.4027929729E-001  -2.0724320177E-001 -4.1989829168E-001  -3.9734233054E-003 +1.5440593612E-001 
8000000000.000 -1.5551421470E-001 +6.1969779024E-002  -4.6142050035E-001 -5.6777782652E-002  +4.0394759772E-001 -1.9047036349E-001  -2.2947212772E-001 -2.0535933126E-002 
8200000000.000 -1.4086893993E-001 -1.4957800546E-001  +3.2720472652E-001 -3.0231954045E-001  +2.7742181171E-001 +3.2949039460E-001  +1.7607152620E-002 -1.4149640964E-001 
8400000000.000 +2.9186124910E-001 +6.5229288608E-002  -1.5372286227E-001 +3.6863495023E-001  -2.7180912267E-001 +2.7576895209E-001  +1.4148128263E-001 +1.5053069263E-001 
8600000000.000 +1.7957898135E-002 +9.8262008254E-002  -2.1151518176E-001 -3.3679686781E-001  -3.3413632780E-001 -2.0194892366E-001  +1.0775827624E-002 +2.3964446846E-002 
8800000000.000 -2.0203197930E-001 -2.2120139899E-001  +3.3937540821E-001 +7.5489815498E-002  +6.3990595543E-002 -3.4527046280E-001  -2.5389953382E-001 -1.6464885235E-001 
9000000000.000 +1.5780424467E-001 +2.7435871645E-002  -3.1625063957E-001 +1.5702397321E-001  +3.6659016729E-001 +3.8674988166E-002  +1.8415421054E-001 -5.1391119301E-002 
9200000000.000 -1.0958933793E-001 +2.5471110350E-001  +9.9993669729E-002 -2.8166564520E-001  +1.5472824172E-002 +2.9324319542E-001  +2.7812595862E-002 +3.0151413745E-001 
9400000000.000 -4.7016204734E-002 -9.1140993632E-002  +1.1396609593E-001 +3.0204821226E-001  -3.1130926946E-001 +7.7675175402E-002  -1.4551728152E-001 -8.2051960368E-002 
9600000000.000 +6.5733986099E-002 -1.5083779578E-001  -2.9377864675E-001 -1.2159799487E-001  -1.4724775266E-001 -2.8564457246E-001  +8.8079799145E-002 -1.4999896479E-001 
9800000000.000 +1.4468280060E-002 +1.3660955853E-001  +2.8129256197E-001 -9.0099752580E-002  +2.4287441710E-001 -1.8856871550E-001  +1.0043410662E-001 +1.6256921132E-001 
10000000000.000 -1.7831078072E-001 -5.3038888902E-002  -1.2282604140E-001 +2.3138867830E-001  +1.3949734607E-001 +2.2610317380E-001  -1.3245987946E-001 +1.4572626022E-001 
10200000000.000 +1.3281599307E-001 -7.5112979077E-002  +2.4227064521E-002 -2.7909573021E-001  -1.2796495520E-001 +2.4429418900E-001  -5.5899671620E-002 -1.6270154958E-001 
10400000000.000 +7.9725728706E-002 +1.2667497731E-001  +1.9680092702E-001 +1.9786659533E-001  -2.8469021036E-001 -1.0616445769E-001  +8.3268319916E-002 -7.5204666884E-002 
10600000000.000 -1.6827567990E-001 -1.3612654549E-001  -2.4375074480E-001 -1.4643157465E-002  +1.1214287748E-001 -2.2121613455E-001  -5.0263878697E-002 +2.5268375087E-001 
10800000000.000 +2.2112455578E-002 -4.8900768652E-002  +2.2596576374E-001 -1.2200959392E-001  +2.6470260324E-001 +3.3671867527E-002  -7.5311370818E-002 -8.9794963991E-002 
11000000000.000 +1.0994674783E-001 +1.2024774199E-001  -9.9062132601E-002 +2.3278455553E-001  +5.5604161681E-002 +2.5728447367E-001  +1.4008335043E-001 -1.1757797405E-001 
11200000000.000 -1.1165199491E-001 +3.8929829860E-002  -8.4651279907E-002 -2.3761513248E-001  -2.5915322869E-001 +9.5002217877E-002  -3.5830046171E-002 +3.3778844090E-002 
11400000000.000 +1.0636095139E-001 -1.8538907922E-001  +1.9795110708E-001 +1.1472100523E-001  -1.2689223936E-001 -2.2180700499E-001  -7.7377362055E-002 +2.9782153782E-002 
11600000000.000 +8.4774297798E-002 +4.2399833140E-002  -2.1572014147E-001 +7.4194983421E-002  +1.9992680814E-001 -1.4716787568E-001  +3.6608576205E-002 +5.2516661324E-002 
11800000000.000 -1.9290832831E-001 +1.2894161849E-001  +8.0585035678E-002 -1.9897944871E-001  +1.8393052250E-001 +1.4751918483E-001  +1.4386714338E-001 -1.2328265595E-001 
12000000000.000 +1.4124348951E-001 -9.3220601353E-002  +4.0510926763E-003 +2.1307497624E-001  -1.7000691202E-001 +1.6211465941E-001  -8.1327848192E-002 +1.3086575905E-001 
12200000000.000 -9.5184956331E-004 +5.3365855694E-003  -1.4216741509E-001 -1.7086056681E-001  -2.0140054987E-001 -1.4105829145E-001  -8.0043988483E-002 -3.2146549352E-002 
12400000000.000 -1.1320112463E-001 +6.0712667991E-002  +1.8747088173E-001 +4.6664599276E-002  +1.0036296224E-001 -1.8851131750E-001  +1.5945371535E-001 -5.2427343761E-002 
12600000000.000 -6.7351479685E-002 -9.0477945090E-002  -1.5373275993E-001 +1.1947476660E-001  +2.1082929268E-001 +6.4251256363E-002  -5.5559513158E-002 +1.2869164908E-001 
12800000000.000 +9.5030265019E-002 -2.1458187449E-002  +1.9417474322E-002 -1.9898480572E-001  +7.6171689808E-003 +2.3063868872E-001  -6.2520625223E-002 -1.1685712976E-001 
13000000000.000 +7.1244894472E-002 +3.4633861251E-002  +1.2338051591E-001 +1.6369593457E-001  -2.2496767454E-001 +6.0004094831E-002  +1.2146574137E-002 +7.3327961744E-002 
13200000000.000 -1.2564575355E-001 -2.3054963312E-001  -1.4841964707E-001 -8.3842223184E-002  -1.9077824945E-002 -1.7646881178E-001  +1.3557320295E-001 +2.8420457385E-002 
13400000000.000 +8.7817800597E-002 +1.1492832332E-001  +1.8319178424E-001 +5.2151198932E-002  +2.1693781652E-001 +2.3448292030E-002  -3.2216423565E-002 -4.7784827896E-003 
13600000000.000 -3.6547896353E-002 +5.2843904600E-002  -1.4879832436E-001 +1.3800800347E-001  +7.6323556951E-002 +2.2107334664E-001  -6.6071615575E-002 -2.4956468299E-002 
13800000000.000 -2.6349252255E-002 -7.6468628142E-002  +4.1590423296E-003 -1.9325573838E-001  -1.3376757971E-001 +1.5759884507E-001  +1.1364619533E-001 +1.4699112828E-002 
14000000000.000 +6.4076533413E-002 -3.3590880764E-002  +1.2191534195E-001 +1.3092692570E-001  -1.6552208422E-001 -9.0550065245E-002  -9.3490161078E-004 +1.3751584314E-001 
14200000000.000 -8.4996806170E-002 +4.1229776858E-002  -1.9274478014E-001 -5.2595978743E-002  +7.1342275064E-002 -1.9355825101E-001  -5.6886274145E-002 -1.0895612730E-001 
14400000000.000 +6.8268971223E-002 +2.9959364099E-002  +1.7131492637E-001 -8.2541666286E-002  +1.8835263519E-001 +8.3450750732E-002  -1.5879520163E-002 +5.8139120321E-002 
14600000000.000 +6.8405674302E-002 -5.8120191761E-002  -6.3870915064E-002 +1.6299791664E-001  -6.0966421795E-002 +1.6486544222E-001  +1.3335690528E-002 +6.6661719316E-002 
14800000000.000 +5.1572371843E-005 +3.6476010089E-003  -7.0185597344E-002 -1.7977793144E-001  -1.9418152037E-001 -6.5827815488E-003  +1.6704876271E-002 +4.0690099679E-002 
15000000000.000 -1.2484785016E-002 -4.1109216578E-002  +1.7785379521E-001 +6.7037742268E-002  -3.5401620708E-002 -1.8574274295E-001  +3.3568320385E-003 -9.0182842574E-002 
15200000000.000 -3.6069832372E-002 +9.6046544981E-002  -1.8347327268E-001 +5.9524948772E-002  +1.7327696060E-001 -5.4015162805E-002  -1.7141409947E-002 +5.0844376068E-002 
15400000000.000 +6.1879315073E-002 -1.3934693317E-002  +7.3934253988E-002 -1.7329340011E-001  +6.9145824679E-002 +1.6312272942E-001  -2.7991582700E-003 +8.7998638124E-002 
15600000000.000 -6.9941512637E-003 -3.3658617256E-002  +4.8223610733E-002 +1.9301213577E-001  -1.3090401242E-001 +1.2996550175E-001  +4.0642079465E-004 -7.7496713529E-002 
15800000000.000 -9.0875633293E-003 +4.0329820258E-002  -1.4306619962E-001 -1.4686224987E-001  -1.4128511212E-001 -1.1539580719E-001  +4.3813333743E-002 +1.0400728224E-001 
16000000000.000 +2.7312854619E-002 -5.2259366862E-002  +1.9439169335E-001 +5.0688687498E-003  +1.2800505992E-001 -1.2254008385E-001  -2.3112610525E-002 -6.6389539864E-002 
16200000000.000 -2.5467268414E-005 +7.8832383132E-002  -1.5114886293E-001 +1.2194950662E-001  +1.4229043415E-001 +8.9258244445E-002  -2.4704423902E-002 +6.0622057598E-002 
16400000000.000 +4.8439190001E-002 +1.6157936755E-003  +1.1199620663E-002 -1.8399774709E-001  -5.6741299050E-002 +1.5164604341E-001  +4.9835818167E-002 -1.4603214843E-002 
16600000000.000 -6.1174925507E-002 -4.4516321755E-002  +8.6475369627E-002 +1.5923404406E-001  -1.6632952855E-001 -1.2106150433E-002  -1.9047301585E-002 +2.9014985919E-003 
16800000000.000 +3.8147753280E-002 +6.4818736688E-002  -1.5873092189E-001 -9.3966849485E-002  -1.4424443717E-002 -1.6079519586E-001  -4.1312865581E-003 +7.8060990237E-002 
17000000000.000 +3.3561549734E-003 +2.9675892791E-002  +1.6753430010E-001 -3.1255327193E-002  +1.4640566414E-001 -2.4139415490E-002  +4.4721157833E-002 -6.5299681595E-002 
17200000000.000 -5.0851092260E-003 -7.3185731350E-003  -6.9156454202E-002 +1.5989611633E-001  +4.7422911135E-002 +1.4605417474E-001  -1.1077165359E-002 +1.2330025280E-001 
17400000000.000 +4.3232446586E-002 +2.9558126962E-002  -7.5288879915E-002 -1.4532015357E-001  -1.2067110365E-001 +8.3823773845E-002  -2.2865343309E-002 -6.6346387250E-002 
17600000000.000 -1.7256091756E-002 -1.8603901173E-002  +1.3433620424E-001 +4.8408503668E-002  -1.0182313045E-001 -7.4236576892E-002  +9.8055498949E-002 +2.1138040771E-002 
17800000000.000 -2.8263783965E-002 +1.0309878451E-001  -1.4108321409E-001 +1.8810491811E-002  +6.3914934248E-002 -1.0884736023E-001  -2.6275705270E-002 +1.0686169235E-001 
18000000000.000 +1.9436677938E-002 -2.6133637332E-002  +1.0124048169E-001 -1.2209581899E-001  +1.2931701069E-001 +5.2214148292E-002  -3.0293490987E-002 -1.2011003008E-001 
18200000000.000 +5.4692474972E-003 -4.5109256330E-002  +1.7627117615E-002 +1.5075228375E-001  -1.5374084651E-002 +1.3150794340E-001  +4.6446613466E-002 +1.1666204010E-001 
18400000000.000 -5.7634980573E-002 +1.3092905503E-001  -7.7721031992E-002 -8.5623643430E-002  -9.9925325550E-002 -1.0619323502E-002  +2.7940866390E-002 +8.8161367848E-002 
18600000000.000 -5.7980631265E-002 -9.6390811906E-002  +1.5047757994E-001 -5.6757102652E-003  +5.7763084133E-003 -1.2410570528E-001  -8.5053874882E-002 -4.3349811779E-002 
18800000000.000 +1.6443637861E-002 +5.3269295049E-002  -1.0010430539E-001 +1.0683140026E-001  +1.2603006201E-001 -5.1921930198E-002  +6.3204724821E-002 -1.7163675449E-002 
19000000000.000 +1.8049603733E-002 +3.7284684911E-002  -5.5212445117E-003 -1.2720219837E-001  +6.6945750728E-002 +8.7374971626E-002  +1.9041014261E-002 +3.8021503257E-002 
19200000000.000 -1.0851984803E-001 -1.4620386490E-001  +3.6783655662E-002 +1.0549174139E-001  -9.0287064737E-002 +3.1583475869E-002  -8.6372040505E-002 +8.3688301585E-002 
19400000000.000 +5.8869495443E-002 +6.7405269435E-002  -1.3589654142E-001 -6.0765160812E-002  -7.9564893516E-002 -9.7865951430E-002  +1.0828800089E-001 -8.5562739582E-002 
19600000000.000 +5.4074051178E-003 -5.2737930469E-003  +1.2653279906E-001 -6.9461700131E-002  +6.0365207874E-002 -1.1103775462E-001  -3.4772737709E-002 +6.1889794940E-002 
19800000000.000 -2.2709156677E-002 -5.5326145137E-002  -5.0609946902E-002 +1.1209079064E-001  +9.1331779594E-002 +6.2739904782E-002  +1.8303218832E-002 +4.9582081974E-002 
20000000000.000 +3.7629245389E-002 -2.5568292432E-002  -3.9255561689E-002 -1.3086716498E-001  -9.0406966323E-002 +8.1313722673E-002  -3.3344515334E-002 +8.1633268414E-003 
20200000000.000 -6.0128349694E-003 -2.8552461505E-002  +1.0247145640E-001 +8.4425856833E-002  -1.1514478712E-001 +4.1842931782E-002  +1.7982335262E-002 -6.0841263160E-002 
20400000000.000 -6.3407137570E-002 +5.2424631310E-002  -1.0807792700E-001 -2.1806164766E-003  -4.7605097402E-002 -8.8194767852E-002  +7.8214156857E-002 -7.4975090629E-003 
20600000000.000 +7.0851263755E-002 -4.9690035186E-002  +1.0473837239E-001 -5.7569487516E-002  +1.0174577960E-001 -4.0356433272E-002  -5.9489559084E-002 +1.2368830826E-001 
20800000000.000 +4.8526198351E-002 +1.8083682490E-002  -2.0356548533E-002 +1.3179166257E-001  +6.0162401525E-002 +1.0436374311E-001  -1.1019062828E-002 -1.0814668522E-001 
21000000000.000 -1.0043784450E-001 -5.5531882165E-002  -6.3399960319E-002 -5.8857085340E-002  -7.3554032146E-002 +3.3841137796E-002  +1.2719246356E-001 -3.0842339569E-002 
21200000000.000 +8.4546101507E-002 +1.9689202845E-002  +8.9164512989E-002 +4.0783236107E-002  -1.5970137214E-002 -8.5560035262E-002  -1.1032034920E-001 +9.2384447258E-002 
21400000000.000 +2.3170840827E-002 -1.2472429474E-003  -1.1436024209E-001 +5.5396998523E-002  +8.9192319924E-002 -6.9375419833E-002  +6.3426333928E-002 -2.6070460327E-002 
21600000000.000 -3.2775551184E-002 +3.1498589448E-002  +2.9869067494E-002 -1.1004277997E-001  +9.5907708440E-002 +2.1507294405E-002  +1.6094296086E-002 -2.9982820905E-002 
21800000000.000 +7.6967776507E-003 -6.8381073000E-002  +3.9128990337E-003 +7.7010310878E-002  -6.0249403503E-003 +6.8795171741E-002  +3.7046054821E-002 -5.5446762433E-003 
22000000000.000 +3.2083718756E-002 +2.1373893394E-002  -5.5460935706E-002 -9.4000692765E-002  -9.1722720054E-002 -1.6190313391E-002  -2.1053676393E-002 +4.3911295514E-002 
22200000000.000 +3.2658324069E-002 +1.1601509256E-001  +1.1434857475E-001 +4.5128777568E-003  -2.0282234851E-002 -9.6377181122E-002  -2.6177314642E-003 -3.6837306741E-003 
22400000000.000 -2.1750855840E-002 -1.5200344788E-001  -6.5528086732E-002 +5.2060588978E-002  +6.4518721800E-002 -3.0834306933E-002  +1.6643256607E-001 -6.0119897550E-002 
22600000000.000 +5.5938592883E-002 +7.0080520652E-002  +4.9962572213E-002 -7.3780481523E-002  +2.2683941379E-002 +7.0253033995E-002  -1.2834941636E-001 +7.4360526012E-002 
