!  2-Port S-parameters saved by WinCal
! VAR MeasName=S-Parameters (CALIBRATED_DATA) read from VNA (MS4647B)
! VAR MeasDate=27-Apr-22 17:23:16
! VAR NAME=RAW_stepline_3mm_2
! VAR FILENAME=RAW_stepline_3mm_2.S2P
! VAR DATE=27-Apr-22 17:23:16
! VAR PHYS_PORTS=1,2
! VAR ObjTypeName=DATASET
! VAR IndexType=Frequency
! VAR ChuckHeaterState=Unknown
! VAR ChuckTemp=NaN
! VAR ChuckTempUnits=Unknown
!
# Hz S RI R 50
200000000.000 -3.1145977015E-002 -8.4226594905E-002  -2.5741024934E-001 -6.8354460146E-001  -3.7771618560E-001 -6.4032260057E-001  +1.4484487759E-002 -5.5441566837E-002 
400000000.000 +1.1829773927E-001 -8.3647944733E-002  -4.1782729456E-001 +5.4421960282E-001  -2.4427772753E-001 +6.5504794336E-001  -1.2349606429E-001 -2.3199848259E-003 
600000000.000 +9.2582575542E-002 -6.4112709157E-002  +5.8587000681E-001 +1.8404714451E-001  +5.6253733823E-001 -2.3056010837E-001  -8.0279962924E-002 +5.9372183524E-002 
800000000.000 +7.1119042319E-002 -2.4274089664E-001  -2.4265839145E-001 -6.1415563268E-001  -5.8934726653E-001 -2.6554715960E-001  +1.8999300280E-001 +5.8483881362E-002 
1000000000.000 +8.1575178533E-002 -1.7401027583E-001  -2.0514335833E-001 +6.7765031847E-001  +3.5729420157E-001 +5.7601754184E-001  +1.7031639100E-001 -6.7587680062E-002 
1200000000.000 +1.0560472462E-001 -1.8064916269E-001  +6.9633843260E-001 -2.3746795855E-001  +1.3237498171E-001 -6.7745425818E-001  -6.2046726276E-002 -1.0803691355E-001 
1400000000.000 +1.0398605347E-001 -2.2136620414E-001  -6.3257469508E-001 -3.6117304300E-001  -5.3740194418E-001 +4.0372618841E-001  -7.1754610494E-002 -8.1968834257E-002 
1600000000.000 +1.3484762860E-001 +7.5143568722E-002  +1.4265650011E-001 +6.2161685582E-001  +5.5548222926E-001 +6.6299458324E-002  -1.3932438160E-001 -7.6950128247E-003 
1800000000.000 +4.5452603076E-002 +5.5886996953E-002  +3.3481635196E-001 -3.9980936038E-001  -2.9837719865E-001 -3.4345415224E-001  +2.3861529491E-004 +5.2248980663E-002 
2000000000.000 +1.7253618430E-001 +4.7331551090E-002  -4.3889225861E-001 -7.4511314487E-003  -3.5099446872E-002 +3.6849575817E-001  +1.8846070105E-001 +4.9428009602E-002 
2200000000.000 +6.8116127639E-002 -2.1804535896E-001  +1.9866085916E-001 +3.5963470437E-001  +3.0944626490E-001 -1.8874240478E-001  -4.1608815459E-002 -2.7370428721E-001 
2400000000.000 -4.0681897964E-002 -1.6016597298E-001  -4.6784431842E-003 -4.3502851974E-001  -3.9514522762E-001 +3.4536989152E-002  -1.3756505384E-001 +7.2373096855E-002 
2600000000.000 -4.0703013524E-002 +1.5938289664E-001  -7.4079362624E-001 -1.3706029186E-001  -2.1349738679E-001 +4.7538910780E-001  +1.0175743946E-001 -3.4834548207E-002 
2800000000.000 -7.2963168861E-002 -3.2180185907E-001  +5.1252715435E-001 -6.8140679855E-001  -7.0533089855E-001 -8.9657212886E-003  -9.6401717460E-002 +2.1766751025E-001 
3000000000.000 +1.4976158242E-001 -7.8779126409E-002  +2.4637495926E-001 +8.1073894003E-001  -2.7385877977E-001 -6.8521276050E-001  -1.0466684343E-001 -1.1231126452E-002 
3200000000.000 -2.8908090505E-002 -6.8029274016E-002  -7.6070759003E-001 -1.9713471049E-001  +4.4856624959E-001 -5.2478934415E-001  +6.6551324380E-002 +3.9770038160E-002 
3400000000.000 +6.2101608414E-002 -4.5744807373E-002  +5.9155903368E-001 -5.8162574765E-001  +7.0053785663E-001 +2.7994400440E-001  +3.8557317020E-002 +1.2474543877E-001 
3600000000.000 +5.7058622474E-002 -1.6498129030E-001  +4.0208103987E-002 +8.2559489510E-001  +1.4356253380E-002 +8.3923098412E-001  -4.3508541306E-002 +1.7390261292E-001 
3800000000.000 -9.0037410807E-002 +1.8859199378E-002  -6.6589645011E-001 -5.8414351950E-001  -7.9098573242E-001 +1.9818564037E-001  +6.6866269197E-002 +3.3108481497E-002 
4000000000.000 -4.1981597524E-003 +3.2337436232E-001  +8.4703846390E-001 -1.4821233105E-001  -4.2305323970E-001 -6.1387610088E-001  -2.0196736540E-002 -1.9856686140E-001 
4200000000.000 +1.1518893743E-002 -4.4440358689E-002  -5.0008160533E-001 +7.5662807839E-001  +5.2305507815E-001 -6.7254313876E-001  -1.9515181072E-002 +5.6663501894E-002 
4400000000.000 +1.6240194717E-001 -2.3263266486E-001  -1.8373983439E-001 -8.0570540727E-001  +8.2363733079E-001 +2.7044340734E-001  -5.7139768141E-002 +1.9500412357E-001 
4600000000.000 -3.2528515843E-002 +1.3959326819E-001  +7.4593639814E-001 +4.0036371806E-001  -1.5154650168E-001 +8.2453948858E-001  -2.8692009570E-002 -1.2278225455E-001 
4800000000.000 -3.8269191694E-001 -5.9962650317E-003  -7.5433425104E-001 +1.5260395824E-001  -7.1932033686E-001 +2.6252294955E-002  +2.8542994355E-001 -1.8981370829E-001 
5000000000.000 +1.0224263240E-001 +2.6902614974E-002  +4.5821132965E-001 -6.5421994107E-001  -3.3660073630E-001 -7.8494900103E-001  -1.8500104336E-002 +9.8117250072E-002 
5200000000.000 +1.3495459919E-001 +1.1144174148E-001  +1.4325416192E-001 +7.5290274586E-001  +7.5469794954E-001 -4.2210191099E-001  -1.2921008074E-001 +2.3761098192E-001 
5400000000.000 -4.0940170252E-001 +1.4345733960E-002  -5.5025741101E-001 -4.5575196317E-001  +4.3539824418E-001 +6.1724092375E-001  -1.9298506417E-002 -3.4251036321E-001 
5600000000.000 +6.0131605934E-002 -1.7146989901E-001  +6.8713132153E-001 -7.4183032647E-002  -3.8276190243E-001 +6.4330015537E-001  +1.7219293214E-001 -7.4817036296E-003 
5800000000.000 +1.9690465132E-001 +9.5790789843E-002  -4.1827259477E-001 +5.2829930054E-001  -7.0878184655E-001 -3.2116999107E-001  -1.4874833662E-001 +1.7193932927E-001 
6000000000.000 -1.2735810365E-001 +2.4598679812E-002  -1.1536010349E-001 -6.2071384027E-001  +1.6866053569E-001 -7.2906913954E-001  -1.3404912456E-001 -1.5709911629E-001 
6200000000.000 -4.6081177426E-002 -2.9970032191E-001  +3.8098191462E-001 +4.2700051021E-001  +6.1265462154E-001 +1.4977225439E-001  +3.9952508423E-001 +1.1045920389E-005 
6400000000.000 -1.0650361266E-002 +4.1351526567E-002  -6.1334571168E-001 +8.8134713110E-002  +1.6921576074E-001 +6.6304320248E-001  -1.4013206930E-001 -1.9700152350E-002 
6600000000.000 +5.6493029285E-002 +2.4290922542E-001  +4.4147229812E-001 -3.8564853156E-001  -6.1758090022E-001 +1.7913868009E-001  -1.6627120912E-001 -2.6606566951E-002 
6800000000.000 -1.9486690291E-001 -8.4098253143E-002  -1.1564898167E-001 +5.8984962535E-001  -2.5034450872E-001 -6.1211200236E-001  +1.3178044229E-001 -9.9800116541E-002 
7000000000.000 +1.9156470301E-001 -1.6414061199E-001  -3.5260558038E-001 -4.2818402336E-001  +3.6660155638E-001 -4.2190064030E-001  +2.1866547335E-001 +1.2344969898E-001 
7200000000.000 -3.8824988724E-002 +1.5741577642E-001  +5.5790255879E-001 +1.6694387697E-001  +4.5714352697E-001 +3.2251154802E-001  -6.1528331906E-002 +7.8300939736E-002 
7400000000.000 -2.8726174476E-001 -7.2344176078E-002  -4.4889368483E-001 +2.3933625590E-001  -2.1463106526E-001 +4.7510788136E-001  -2.7267476253E-001 -2.0603913827E-001 
7600000000.000 +3.3542893629E-001 -1.9175446669E-001  +2.5780705127E-001 -4.5593523786E-001  -4.6033248793E-001 -2.1605942219E-001  +3.7752225716E-001 +3.4736893722E-002 
7800000000.000 -9.8243243519E-002 +7.0580468029E-002  +1.8735234912E-001 +5.0742001433E-001  +2.2561550610E-002 -4.8768407702E-001  -8.5567553598E-002 +9.9756959504E-002 
8000000000.000 -1.3227381831E-001 -4.9800749859E-002  -3.9972674545E-001 -2.6680824879E-001  +4.6181382789E-001 +1.0015413619E-002  -1.9387840297E-001 -1.2985539987E-001 
8200000000.000 -3.9554383081E-002 -8.8631068621E-002  +4.5234794555E-001 -1.1224546570E-001  +9.0883607270E-002 +4.4168726280E-001  +7.5175447308E-002 -7.3070991923E-002 
8400000000.000 +2.1466232776E-001 +1.7307100884E-001  -3.0747332249E-001 +2.5727879452E-001  -3.6937941568E-001 +1.2122770669E-001  +7.5341088582E-002 +1.9456192250E-001 
8600000000.000 -2.1785216192E-002 +4.6324248739E-002  -6.9559711461E-003 -4.0533890331E-001  -1.8506275041E-001 -3.5316528037E-001  +2.7121837628E-002 -2.4572694978E-002 
8800000000.000 -1.0817272391E-001 -2.3874681217E-001  +2.7345017860E-001 +2.4090829256E-001  +2.3399043766E-001 -2.8440148673E-001  -1.4921870438E-001 -1.6535495916E-001 
9000000000.000 +1.4179133528E-001 +7.7777593744E-002  -3.5962245268E-001 -3.4584939001E-002  +2.9704740996E-001 +2.3171408280E-001  +1.5132036701E-001 +3.1934474897E-002 
9200000000.000 -1.9479882260E-001 +1.7338147634E-001  +2.3385359898E-001 -2.1316734946E-001  -1.3076224966E-001 +2.8071585742E-001  -6.2842726029E-002 +2.6436551727E-001 
9400000000.000 +3.3810657484E-002 -1.6643933023E-001  -6.0648349418E-002 +3.0670143499E-001  -2.9564328328E-001 -9.4589104364E-002  -1.3628113564E-001 -1.4826304230E-001 
9600000000.000 +8.5912882393E-002 -8.1793697519E-002  -1.8464466898E-001 -2.7070643479E-001  +3.4041602262E-002 -3.2972848825E-001  +1.1317500033E-001 -6.8135317684E-002 
9800000000.000 -5.5585947046E-002 +1.2619285826E-001  +2.9004296972E-001 +7.6713384416E-002  +3.1100667974E-001 -2.8541198579E-002  +6.2415847238E-003 +2.0302551362E-001 
10000000000.000 -9.9295997677E-002 -9.6970656006E-002  -2.3434018903E-001 +1.3832480395E-001  +1.2728952501E-003 +2.7583048397E-001  -1.6039155162E-001 +5.2369631975E-002 
10200000000.000 +1.8244611854E-001 +3.4361734736E-002  +1.5868432517E-001 -2.0313856038E-001  -2.2179875331E-001 +1.2399119471E-001  +8.1023959159E-003 -2.1770445449E-001 
10400000000.000 +2.0974685649E-002 +1.0571259949E-001  +3.8894713844E-002 +2.7923278381E-001  -1.6526350065E-001 -2.5881240233E-001  +8.0128751387E-002 -1.6152772708E-002 
10600000000.000 -9.1478664031E-002 -2.1473104518E-001  -1.9518462189E-001 -1.4218201580E-001  +2.1115621992E-001 -1.2418939823E-001  -1.2820434215E-001 +2.3665014757E-001 
10800000000.000 +7.7486062506E-002 +2.5842003640E-002  +2.4456989602E-001 +3.7655709156E-002  +1.8354929235E-001 +1.7901220924E-001  -5.4419097995E-002 -1.5218428839E-001 
11000000000.000 +2.4376052467E-002 +1.3517957675E-001  -2.1048194495E-001 +1.2563641504E-001  -1.0253224190E-001 +2.3313468549E-001  +2.1384550537E-001 -6.3646402338E-002 
11200000000.000 -9.7655297328E-002 -2.5598180868E-002  +8.3145309296E-002 -2.2988742460E-001  -2.5283585578E-001 -8.8623808974E-002  -8.5594122920E-002 +9.1356115976E-002 
11400000000.000 +1.7449285743E-001 -1.0132401927E-001  +8.8091300377E-002 +2.0558779377E-001  +3.0891835742E-002 -2.4846543261E-001  -1.1125627388E-001 -3.5055583706E-002 
11600000000.000 +8.4511234617E-003 +1.2360702342E-001  -2.0137203797E-001 -8.0340785431E-002  +2.3481239091E-001 +1.8623371790E-002  +8.3435645239E-002 +3.8498978211E-002 
11800000000.000 -2.2339139753E-001 +4.8829142732E-002  +1.8430316342E-001 -1.0655625513E-001  +5.3541594509E-002 +2.2613868654E-001  +1.1316278235E-001 -3.9584096734E-002 
12000000000.000 +2.3591416256E-001 -8.6810882027E-002  -1.2018344105E-001 +1.4375791867E-001  -2.0540993540E-001 +9.8039077550E-003  -1.7230007602E-001 +8.9083548868E-002 
12200000000.000 -3.0229020174E-002 +4.0245724739E-002  +1.7092464188E-002 -2.1841800594E-001  -4.5625010363E-002 -2.3814442505E-001  -3.0690857640E-002 -6.5821252638E-002 
12400000000.000 -1.3039661924E-001 -3.6176751214E-002  +1.1333198113E-001 +1.4813164200E-001  +1.8985019240E-001 -8.1526627111E-002  +1.8029054449E-001 +2.3840864131E-002 
12600000000.000 +4.0413609850E-002 -1.2889143523E-001  -1.7628656132E-001 -9.2741835687E-003  +1.0600146919E-001 +1.6959356668E-001  -1.2891397035E-001 +1.2969490065E-001 
12800000000.000 +1.3221403710E-001 +9.7625566910E-002  +1.3206180899E-001 -1.0886273023E-001  -1.3513553938E-001 +1.4380055404E-001  -6.3793746615E-002 -1.9707231112E-001 
13000000000.000 +8.0550055351E-003 +4.8990278412E-002  -3.6639064102E-002 +1.9356906621E-001  -1.8801482214E-001 -1.2152407529E-001  +5.6650715251E-002 +1.0370370589E-001 
13200000000.000 -4.8481183295E-002 -2.3771093303E-001  -6.0883821803E-002 -1.5178220448E-001  +9.1810784210E-002 -1.4401922514E-001  +5.0593421937E-002 +8.8563904166E-002 
13400000000.000 +6.1767443649E-002 +2.2544622092E-001  +6.3935074046E-002 +1.3198580160E-001  +9.7768907260E-002 +1.3702334374E-001  -7.0206708114E-002 -1.1709211077E-001 
13600000000.000 -1.2840879385E-001 +5.1698432504E-002  -1.8729761773E-001 -2.7646994383E-002  -1.1622074098E-001 +1.8433252159E-001  -8.5317148857E-003 -3.4931126027E-002 
13800000000.000 +1.2101843072E-002 -1.6781462162E-001  +1.3172765954E-001 -1.1601861119E-001  -1.8736160972E-001 +7.4800099785E-003  +9.2630996551E-002 +8.6496790775E-002 
14000000000.000 +1.2165460861E-001 +3.1539036862E-002  -8.6693491720E-003 +1.5199108048E-001  -4.2075564880E-002 -1.5504540636E-001  -9.7276148069E-002 +9.8639533643E-002 
14200000000.000 -1.9496462176E-001 +8.1974586811E-002  -4.5747984897E-002 -1.4504229585E-001  +1.5338247508E-001 -3.4187937029E-002  -2.1995136460E-002 -2.3206996128E-001 
14400000000.000 +4.3411888081E-002 -3.4318094695E-002  +1.5719281533E-001 +9.2436241289E-002  +3.3784554367E-002 +1.9398564008E-001  +2.1356186226E-002 +9.5842612212E-002 
14600000000.000 +1.3368090822E-001 +1.2567359605E-003  -1.4151539203E-001 +5.1072387729E-002  -1.4022657785E-001 +5.4277486902E-002  -7.9613827469E-002 +7.1926677920E-002 
14800000000.000 -9.6518784741E-002 +8.0255786506E-002  +9.8740842430E-002 -1.1998056507E-001  -7.2127418892E-002 -1.3796510421E-001  -2.7965596387E-002 -4.9593369698E-002 
15000000000.000 -5.9606799135E-002 -1.2857485468E-001  +2.7182896112E-002 +1.6499031761E-001  +1.2567126074E-001 -1.0900005341E-001  +8.0988790723E-002 -1.0695695907E-001 
15200000000.000 +5.2761920435E-002 +7.5566828058E-002  -1.2986359364E-001 -1.1620039100E-001  +1.2056077717E-001 +1.1092912986E-001  -3.9938611016E-002 +1.1693397848E-001 
15400000000.000 +1.7199762085E-002 +5.4099455812E-002  +1.5820556339E-001 -2.6341570209E-002  -8.5143897433E-002 +1.2318934378E-001  -8.9402036064E-002 +3.3376255593E-002 
15600000000.000 -9.3851093920E-002 -1.1019172795E-001  -1.3887010673E-001 +1.0230384035E-001  -1.4616484774E-001 -6.1840397781E-002  +2.9300403361E-002 -1.7812287361E-001 
15800000000.000 +7.0470301499E-002 +1.5707426382E-002  +5.5712314119E-002 -1.8573647862E-001  +3.0279874835E-002 -1.6945989839E-001  +6.9397282760E-002 +1.4570212118E-001 
16000000000.000 -1.6603033228E-002 +5.0752052306E-002  +7.2239082472E-002 +1.4264265351E-001  +1.3918787434E-001 +4.4755496647E-002  -1.1230032064E-001 -5.8009299004E-002 
16200000000.000 -9.5397215187E-002 +2.2858394535E-002  -1.4811428474E-001 -8.1631028329E-002  -2.5742840241E-002 +1.4453034903E-001  -3.3053960144E-002 -2.3566312978E-002 
16400000000.000 +1.1114536389E-001 -6.4836240578E-002  +1.5877583228E-001 -5.5439616439E-002  -1.4767984923E-001 +4.8289292741E-003  +1.2193489220E-001 -6.0797287871E-003 
16600000000.000 -3.8787121169E-002 +2.3762404783E-002  -9.5709449389E-002 +1.3214053094E-001  -5.4270943537E-002 -1.3944840081E-001  -7.6683501893E-002 +5.6654100568E-002 
16800000000.000 -6.2044009966E-002 +3.1528985119E-002  +2.6227867432E-002 -1.4264371338E-001  +1.1434878523E-001 -5.4386857400E-002  -6.4038389624E-002 -1.4582242306E-002 
17000000000.000 +5.7333776969E-002 -7.4253044174E-002  +6.9723256568E-002 +1.4952168051E-001  +5.8223404805E-002 +1.3153585744E-001  +9.3485384039E-002 -1.2387221184E-001 
17200000000.000 +3.6304000434E-002 +5.4422623856E-002  -1.5845102273E-001 -1.8874365652E-005  -1.0507530704E-001 +9.2140452267E-002  -1.5596008240E-002 +1.8630735486E-001 
17400000000.000 -5.8822753438E-002 +5.0903828273E-002  +8.9439484484E-002 -8.3990044040E-002  -8.4420748973E-002 -6.9934515796E-002  -1.3155997760E-001 -6.8620729394E-002 
17600000000.000 -4.2449312814E-002 -1.3056012362E-001  -4.0262744520E-002 +1.2551420644E-001  +6.5000001059E-002 -9.5791781104E-002  +8.1509551653E-002 -8.4063986538E-002 
17800000000.000 +6.2762824392E-002 +9.1726321370E-002  -5.8173298370E-002 -1.4487053442E-001  +1.3256344045E-001 +3.8358920839E-002  +3.7312685728E-002 +8.9282532755E-002 
18000000000.000 -1.4042955921E-002 +5.9532510953E-003  +1.3844695806E-001 +5.0126548791E-002  -5.2380599532E-003 +1.2922265254E-001  -9.7539470007E-002 -8.9191838130E-002 
18200000000.000 -1.6845275963E-002 -1.4822176569E-001  -1.1276671458E-001 +1.4793402547E-002  -9.8468526147E-002 -1.0497446602E-002  -3.2621094286E-002 +1.2794435079E-002 
18400000000.000 +6.6069754677E-002 +8.4065020412E-002  +1.0974682142E-001 -1.0466089952E-001  +1.1178852218E-002 -1.3125825866E-001  +8.0611049670E-002 +7.6992130052E-003 
18600000000.000 -1.6450152244E-002 -3.3201320293E-002  +5.3588732230E-002 +1.4839079169E-001  +1.2573060435E-001 -3.3822068162E-002  -6.9556041244E-002 -2.5520851806E-002 
18800000000.000 -9.0318033964E-003 +5.9867306920E-003  -1.1321565728E-001 -6.3478771381E-002  +7.1389190777E-002 +9.7872138624E-002  -3.2317555092E-002 -2.2151548693E-002 
19000000000.000 +1.1475200636E-001 +5.3583225829E-003  +1.2312260477E-001 +9.1118715896E-003  -9.2359932813E-002 +5.4198128959E-002  -9.9225970701E-004 -7.3818143095E-002 
19200000000.000 -5.7108572229E-002 -5.1512822947E-002  -1.2820950491E-001 +7.8362833214E-002  -6.6723984269E-002 -1.1012076158E-001  -7.8178789055E-003 +7.1840743566E-002 
19400000000.000 +3.4676700866E-002 +1.0652815120E-001  +2.8454513888E-002 -1.4971058706E-001  +7.8444141953E-002 -1.0241808093E-001  +6.7980794998E-002 -9.3984137475E-002 
19600000000.000 +6.9429780187E-002 -4.9112905599E-002  +6.3204331819E-002 +1.1164274634E-001  +9.9815266763E-002 +5.2318335899E-002  -9.3663732411E-002 -3.7917098353E-002 
19800000000.000 +1.4888941041E-002 +4.4780171757E-002  -1.4323310988E-001 -5.3859464687E-002  -7.0691728805E-002 +1.1937198952E-001  +5.6870849758E-002 -3.1614178671E-002 
20000000000.000 -2.5020686102E-002 -9.8717602567E-003  +1.3226144775E-001 -6.6032408853E-002  -1.0350552591E-001 -8.1635442954E-002  -2.2435101080E-002 +6.1412907550E-002 
20200000000.000 +2.6549392761E-002 -6.9393515284E-002  -7.7094820888E-002 +1.0855094625E-001  -4.9502256068E-002 -1.1192328658E-001  -7.2118103993E-002 -2.6560296359E-002 
20400000000.000 -1.8537364946E-002 +1.2461118356E-001  +1.0585356510E-002 -1.3416258519E-001  +1.1251302694E-001 -5.2547789229E-002  +2.5246604872E-002 -1.0083251472E-001 
20600000000.000 +6.6692610538E-004 -3.3668725846E-003  +9.1985065128E-002 +1.0373772140E-001  +7.1782139447E-002 +1.0404657228E-001  -2.3243531834E-002 +9.1506462307E-002 
20800000000.000 +7.6331575317E-002 -8.2774554265E-003  -1.3133505907E-001 -1.0260367590E-002  -9.8675158635E-002 +6.6932329162E-002  -5.4768050010E-002 -2.6810044607E-002 
21000000000.000 -6.8116512018E-002 +1.9586902636E-002  +9.3205759082E-002 -7.5286790219E-002  -3.1470182758E-002 -1.0805980102E-001  +2.0529372358E-002 -4.0331821016E-002 
21200000000.000 +4.7716377036E-003 +6.9834806498E-002  -1.3705523161E-002 +1.2469969294E-001  +9.7780373460E-002 -5.3259041667E-002  -1.1884277170E-001 +2.9008110039E-002 
21400000000.000 -1.0552264557E-003 -2.7745354599E-002  -7.4093032918E-002 -1.0999435639E-001  +8.4426749096E-002 +8.2101155180E-002  +7.0440883005E-002 +2.0807202017E-003 
21600000000.000 +4.9067846133E-003 +7.8575350906E-002  +1.0992433998E-001 +4.4132267269E-002  -3.3892800095E-002 +9.6330915594E-002  -7.3297127461E-002 +7.8038730747E-003 
21800000000.000 -6.0140187969E-002 -1.1458795329E-002  -1.1990567806E-001 +1.5515606329E-002  -1.0853810784E-001 -1.0767511045E-003  -2.6432429549E-002 -6.3516398316E-002 
22000000000.000 -3.8064350240E-002 -2.9705071868E-002  +8.2188515070E-002 -7.9011950011E-002  -5.3708179223E-003 -9.7405320731E-002  -2.8143196918E-003 +1.9684735234E-002 
22200000000.000 +5.0551116493E-002 +1.1683908088E-001  +4.3287637644E-004 +1.1806110608E-001  +9.8500552476E-002 -2.4924141443E-002  -6.4380157013E-002 +4.1172523201E-002 
22400000000.000 -6.8009320230E-002 -9.2950512448E-002  -6.1179360915E-002 -1.0233848087E-001  +3.1393406515E-002 +9.7216963737E-002  +8.3953570138E-002 -1.0549661591E-001 
22600000000.000 -2.4330858423E-002 +3.5028384817E-002  +1.0749253698E-001 +3.4232260356E-002  -7.7597935436E-002 +5.3035739532E-002  -1.0660877108E-001 +1.9239672041E-002 
