!  2-Port S-parameters saved by WinCal
! VAR NAME=RAW_stepline_1mm_2
! VAR DATE=08/08/2022 23:07:32
! VAR FILENAME=RAW_stepline_1mm_2.S2P
! VAR MeasName=S-Parameters (CALIBRATED_DATA) read from VNA (MS4647B)
! VAR MeasDate=27-Apr-22 16:47:37
! VAR PHYS_PORTS=1,2
! VAR ObjTypeName=DATASET
! VAR IndexType=Frequency
! VAR ChuckHeaterState=Unknown
! VAR ChuckTemp=NaN
! VAR ChuckTempUnits=Unknown
!
# Hz S RI R 50
200000000.000 -2.3412157870E-002 -8.4482008963E-002  -2.4703023227E-001 -6.8616894859E-001  -3.6663419100E-001 -6.4513774247E-001  +1.8494086562E-002 -5.8874429849E-002 
400000000.000 +1.1808583275E-001 -9.0182491348E-002  -4.3156328851E-001 +5.3143678494E-001  -2.6258643253E-001 +6.4664724317E-001  -1.2975772550E-001 +3.7574276611E-004 
600000000.000 +7.3740532024E-002 -6.4565974877E-002  +5.7626987352E-001 +2.1222019625E-001  +5.7422762279E-001 -2.0200394688E-001  -6.1163410216E-002 +5.4795717695E-002 
800000000.000 +7.8157619294E-002 -2.2830998140E-001  -2.1002751539E-001 -6.2726898484E-001  -5.7434108550E-001 -2.9789902177E-001  +1.7926594030E-001 +6.1260009294E-002 
1000000000.000 +9.6484256782E-002 -1.8510490672E-001  -2.5092690305E-001 +6.6129670014E-001  +3.1495509506E-001 +5.9837337148E-001  +1.8395492846E-001 -6.2046932153E-002 
1200000000.000 +9.2668718233E-002 -2.1591747140E-001  +7.1437068633E-001 -1.6946581989E-001  +1.9789211911E-001 -6.5705565965E-001  -9.8929651464E-002 -1.2860497089E-001 
1400000000.000 +9.6043373633E-002 -1.9977860176E-001  -5.9708705191E-001 -4.2156144195E-001  -5.7701992053E-001 +3.4732555264E-001  -4.8661091159E-002 -6.4147028164E-002 
1600000000.000 +1.4801350192E-001 +1.1042488542E-001  +6.9446032488E-002 +6.2747704908E-001  +5.3811072721E-001 +1.3253899191E-001  -1.5657316815E-001 -3.9879720951E-002 
1800000000.000 +6.6305571555E-002 +1.3059382178E-002  +3.9138766136E-001 -3.5113422358E-001  -2.4629532363E-001 -3.8711692372E-001  +2.6257786125E-002 +8.4032871521E-002 
2000000000.000 +1.2714011665E-001 +4.5854379821E-002  -4.4260757005E-001 -7.5718737770E-002  -9.5678838921E-002 +3.6637251754E-001  +1.6170994360E-001 +1.6558133690E-002 
2200000000.000 +8.1065660651E-002 -1.9863137038E-001  +1.4645708449E-001 +3.8672643589E-001  +3.3622894207E-001 -1.4208036601E-001  -3.4172107718E-002 -2.5844919650E-001 
2400000000.000 -1.6972073109E-002 -1.4658094561E-001  +6.7590035908E-002 -4.2452160242E-001  -3.9130319666E-001 -3.4281207751E-002  -1.2855393577E-001 +4.4559345993E-002 
2600000000.000 +5.7061584213E-003 +9.4058661817E-002  -7.0341258019E-001 -2.8498114311E-001  -3.0611363917E-001 +4.2544714653E-001  +4.8961893859E-002 -3.2093271719E-002 
2800000000.000 +8.6067555382E-003 -2.7456678191E-001  +6.5254189547E-001 -5.7041275536E-001  -6.9816306148E-001 -1.5937359916E-001  -1.1470664096E-001 +1.5270811153E-001 
3000000000.000 +1.2936422919E-001 +4.3001340961E-003  +8.0517834449E-002 +8.5505569471E-001  -1.3070335817E-001 -7.3794652656E-001  -6.3938238108E-002 -2.7607941194E-002 
3200000000.000 -2.1752598458E-002 -9.6884156114E-002  -6.9703969193E-001 -3.5209292088E-001  +5.4782504346E-001 -4.1422461293E-001  +2.3525279591E-002 +8.0072758833E-002 
3400000000.000 +2.0814271185E-001 -5.1769084409E-002  +7.2608279195E-001 -3.8796561627E-001  +5.9357391615E-001 +4.6626640853E-001  -9.5433213305E-002 +1.2396765644E-001 
3600000000.000 +9.1610514034E-002 -6.7033375101E-002  -1.7544393064E-001 +8.2068904055E-001  -1.9931902523E-001 +8.3050976572E-001  -6.9752891382E-002 +9.9882271494E-002 
3800000000.000 -2.6499637509E-001 -1.3930743754E-002  -4.5757096790E-001 -7.5695838879E-001  -8.1766420824E-001 -4.0617995814E-002  +1.5618931757E-001 +8.1606248345E-002 
4000000000.000 +7.0480096446E-004 +1.9729725876E-001  +8.7021831308E-001 +1.0481261286E-001  -2.3649178222E-001 -7.2091957892E-001  -4.3453699576E-002 -1.2028658453E-001 
4200000000.000 +9.2672993196E-002 +5.6176517024E-002  -7.1166301491E-001 +5.6253562619E-001  +7.0292259525E-001 -4.7550524169E-001  -1.1107947039E-001 -2.4045928929E-002 
4400000000.000 +7.2546360386E-002 -1.0436589911E-001  +8.5407438373E-002 -8.4664420197E-001  +7.0891916421E-001 +5.3728145941E-001  +2.5306314237E-002 +9.8960821194E-002 
4600000000.000 -6.1438393166E-002 -1.0534076515E-002  +5.6658958732E-001 +6.4292838039E-001  -4.4151602449E-001 +7.2373571353E-001  +5.6589519928E-002 +1.3881311052E-002 
4800000000.000 -2.3242856789E-001 -6.6958522676E-002  -8.0925848643E-001 -1.1001599987E-001  -7.3498170111E-001 -2.2499489277E-001  +2.0720328326E-001 -6.7506075203E-002 
5000000000.000 +3.4515173454E-002 +8.9001402984E-002  +6.5688643900E-001 -4.5570200929E-001  -4.7270745508E-002 -8.5741047256E-001  -5.6290032588E-002 +2.0564551190E-002 
5200000000.000 +1.2794937860E-003 -9.1339769701E-002  -1.8010015104E-001 +7.7241437217E-001  +8.9428291328E-001 -9.5148525737E-002  +1.5271484846E-002 +1.9338179690E-001 
5400000000.000 -2.8379086255E-001 -9.5346729218E-002  -3.6387769156E-001 -6.4781186124E-001  +1.9481057428E-001 +7.5668282535E-001  +6.8948704806E-003 -2.6482062211E-001 
5600000000.000 +9.6688472122E-002 -1.3140042781E-002  +6.7998728819E-001 +2.1402646353E-001  -6.2194078842E-001 +4.4876581037E-001  +7.5069846702E-002 -5.5616300024E-002 
5800000000.000 +1.0283842234E-001 +1.1050572259E-001  -6.0434043166E-001 +3.2694173328E-001  -5.3269649983E-001 -5.8188001311E-001  -6.8375272187E-002 +1.1355930434E-001 
6000000000.000 -9.4023503149E-005 -1.1074238736E-001  +1.9137592083E-001 -6.2476156583E-001  +4.9675579329E-001 -5.8313502159E-001  -2.4619454801E-002 -3.6486653503E-003 
6200000000.000 +8.3232741091E-002 -2.1614809967E-001  +1.8854038302E-001 +5.7704297856E-001  +5.2889596793E-001 +4.0767600889E-001  +3.0595069093E-001 +7.8028881768E-002 
6400000000.000 -1.0914459435E-001 +8.0787810033E-002  -5.9262855278E-001 -1.9253530754E-001  -1.4298378518E-001 +6.7227802816E-001  -1.0893820381E-001 -1.2482811115E-001 
6600000000.000 +4.6768858236E-002 +7.5033751949E-002  +6.0982212379E-001 -1.3712579815E-001  -6.6745820806E-001 -1.5186675019E-001  +2.2698494810E-002 +1.8279039521E-002 
6800000000.000 -8.5011107057E-002 -5.1347509076E-002  -3.9072895713E-001 +4.8511480961E-001  +7.0107815856E-002 -6.8023449098E-001  +3.5130963629E-002 +2.5807211171E-002 
7000000000.000 +9.3426110774E-002 -3.0459118840E-002  -1.0587080458E-001 -5.8996686508E-001  +5.7218817169E-001 -2.0032029529E-001  +4.7052117065E-002 +6.6379896520E-002 
7200000000.000 -7.6120177307E-002 +4.3280218168E-002  +4.1760996872E-001 +4.2798980950E-001  +2.4868312709E-001 +5.2031669333E-001  +1.6731266394E-002 +9.6474061669E-003 
7400000000.000 -6.2223072620E-002 -7.6295314046E-002  -5.5947585983E-001 -3.8318900630E-002  -4.8569548496E-001 +3.1742779782E-001  -1.8347794951E-001 -7.0136863628E-002 
7600000000.000 +3.5616177466E-001 -3.7312472709E-002  +4.6022638994E-001 -2.9292470155E-001  -3.1829370026E-001 -4.2585079860E-001  +3.0907823533E-001 +7.7149799392E-002 
7800000000.000 -1.6468200067E-001 -3.8104483915E-002  -1.2195994638E-001 +5.4053793890E-001  +2.9188250299E-001 -4.0609088739E-001  -4.8242348510E-002 -1.2327280263E-002 
8000000000.000 +2.4111869555E-002 -9.7434269409E-002  -2.1526774790E-001 -4.7396167269E-001  +4.2256195195E-001 +2.7276521521E-001  -6.7206827962E-002 -1.3668323135E-001 
8200000000.000 -5.5308271288E-002 +7.7504339191E-002  +4.6111506586E-001 +1.7226680427E-001  -1.8438460596E-001 +4.4368676659E-001  +1.2814447311E-002 +1.2029491943E-002 
8400000000.000 +4.3746238148E-002 +1.4397881374E-001  -4.2916407930E-001 +6.2061887835E-002  -4.1154342585E-001 -9.7366393135E-002  +1.0130417339E-002 +1.4288465519E-001 
8600000000.000 +3.5487635331E-002 -2.6900994701E-002  +2.3122056918E-001 -3.4674640990E-001  +5.0625809529E-002 -4.0643255768E-001  +9.3475393896E-002 -9.9737875773E-003 
8800000000.000 -3.6792242225E-002 -1.1964683881E-001  +8.5723105452E-002 +3.9580636256E-001  +3.9594792788E-001 -1.0053919608E-001  -1.1419596797E-001 -4.0450544647E-002 
9000000000.000 +6.1789336203E-002 +7.2586226512E-002  -2.8229565909E-001 -2.5247151856E-001  +1.0795977262E-001 +3.7998213872E-001  +5.1435450159E-002 +1.0965377721E-002 
9200000000.000 -1.2995705230E-001 +1.1526363182E-002  +3.6810956758E-001 -2.8782330310E-002  -3.2103451854E-001 +1.6742481082E-001  -5.0609812883E-002 +1.4222333396E-001 
9400000000.000 +1.4678394035E-001 -1.0166552727E-001  -2.3590931862E-001 +2.3378046494E-001  -2.0427537966E-001 -2.5905521395E-001  -7.3871505733E-002 -1.5213746093E-001 
9600000000.000 -3.6769003552E-003 -3.6961260815E-002  +2.9802696049E-002 -3.4926782009E-001  +2.5178172741E-001 -2.5045864582E-001  +1.7998906421E-002 -2.3942103543E-002 
9800000000.000 -6.0656571582E-002 +2.8188323628E-002  +1.9652010707E-001 +2.6489493044E-001  +2.8722762528E-001 +1.8894835047E-001  -5.9780184152E-002 +1.0473969401E-001 
10000000000.000 -1.0029490837E-002 -3.2903959245E-003  -3.0798052045E-001 -5.4574848915E-002  -2.0514984885E-001 +2.4214675893E-001  -5.4692541635E-002 -3.1569133649E-003 
10200000000.000 +8.2669785935E-002 +1.2378849249E-001  +2.6724791095E-001 -8.6611153029E-002  -2.7598603196E-001 -2.3152383356E-002  +7.4132819906E-002 -1.7421271301E-001 
10400000000.000 +4.3374783379E-002 +2.6434206889E-002  -1.6223848859E-001 +2.4687925063E-001  +4.8341774891E-002 -3.1820561495E-001  +1.3555631594E-002 -2.1756870846E-002 
10600000000.000 +3.0289432145E-002 -1.4082582451E-001  -6.8025691253E-002 -2.7188607996E-001  +2.7983286634E-001 +4.6044879541E-002  -1.2572132155E-001 +1.4469207126E-001 
10800000000.000 -3.7851631549E-004 +9.7497608771E-002  +1.7606820120E-001 +1.9925718759E-001  +2.9584946415E-002 +2.7410510683E-001  +9.8942403318E-003 -1.3522392575E-001 
11000000000.000 -5.2350787931E-003 +3.5188306453E-002  -2.6879471379E-001 -4.7243817182E-002  -2.5662774758E-001 +1.2310960759E-001  +1.6454373399E-001 +2.3510730649E-002 
11200000000.000 -2.2953476772E-002 -9.3213889553E-003  +2.2802131112E-001 -1.2259170343E-001  -1.3691256210E-001 -2.4913441433E-001  -1.4363737425E-001 +4.1960339557E-002 
11400000000.000 +8.0834977439E-002 -6.6512005633E-003  -8.6949082379E-002 +2.3808574127E-001  +2.1798473163E-001 -1.8093687203E-001  -4.1004329557E-002 -7.6185405379E-002 
11600000000.000 -8.0767438076E-002 +4.4810075400E-002  -1.0045686228E-001 -2.0818689446E-001  +1.7105185238E-001 +1.8309125329E-001  +9.4181463602E-002 +8.5111281009E-002 
11800000000.000 -1.2616401493E-001 +1.0127648934E-002  +2.3462123573E-001 +6.7104200759E-002  -1.4192958736E-001 +2.2537692643E-001  +1.1612678232E-002 -7.4025182021E-002 
12000000000.000 +2.3730095172E-001 +6.3702868288E-003  -2.0079413049E-001 +3.7260038317E-002  -1.8060640579E-001 -1.3365344795E-001  -1.4093597712E-001 -1.3655638499E-003 
12200000000.000 -6.1642068244E-002 +7.4145733118E-004  +1.7859602301E-001 -1.4230122849E-001  +1.4930482791E-001 -2.0434154204E-001  -3.7993747607E-003 -8.3708033249E-003 
12400000000.000 -1.3202426551E-002 -5.9094232137E-002  -3.6651269338E-002 +2.1747754393E-001  +2.2295772024E-001 +9.9404587274E-002  +8.9804483282E-002 +4.7970181748E-002 
12600000000.000 +8.6258845829E-002 -1.4833454460E-002  -1.3878817474E-001 -1.4841888644E-001  -4.7397618486E-002 +2.2427862867E-001  -1.3053596028E-001 +5.1708185903E-002 
12800000000.000 +2.0850747097E-002 +1.3430634825E-001  +1.8605412438E-001 +6.6633450819E-003  -2.1317259058E-001 +1.9922290962E-002  +1.1242398303E-002 -1.9773978805E-001 
13000000000.000 +6.0355418292E-003 -1.2868999981E-002  -1.7601042685E-001 +1.0433944692E-001  -3.4943488829E-002 -2.2989040016E-001  +1.5188933037E-002 +1.4356441816E-001 
13200000000.000 -4.3945203551E-002 -1.3987026151E-001  +1.0034222030E-001 -1.8090683598E-001  +2.1452695809E-001 -2.4244973842E-002  -2.3436967950E-002 -2.1817042649E-002 
13400000000.000 -3.0023547754E-002 +2.0489572231E-001  -3.5082896723E-002 +1.5477638121E-001  -1.0267037594E-002 +1.8183466919E-001  +2.4674700713E-002 -1.5101086318E-001 
13600000000.000 -1.0818425324E-001 -3.1848582949E-002  -1.0501287622E-001 -1.6422386606E-001  -2.2193611961E-001 +3.4412908372E-002  -1.3735864169E-002 +2.2742148319E-002 
13800000000.000 +9.6642252880E-002 -1.1604450613E-001  +1.9488608994E-001 +2.6873866310E-002  -1.4406382976E-001 -1.5375536332E-001  +1.9305273827E-002 +5.1778242813E-002 
14000000000.000 +5.3530960100E-002 +8.2629988390E-002  -1.3634406723E-001 +1.1483279874E-001  +9.8792341289E-002 -1.6094558129E-001  -4.8632994864E-002 +4.5415783967E-004 
14200000000.000 -2.1287943189E-001 -5.1586524697E-003  +6.1425084417E-002 -1.4232040545E-001  +1.4093957601E-001 +7.5980834806E-002  +7.0730560324E-002 -1.8766234798E-001 
14400000000.000 +1.0573227240E-001 -3.7127728141E-002  +2.0897805028E-002 +1.8055862637E-001  -1.3381999445E-001 +1.4368994619E-001  -2.8535047518E-002 +1.1554972409E-001 
14600000000.000 +6.4637643599E-002 +5.4398469992E-002  -1.5304677110E-001 -8.9394202745E-002  -1.5626055841E-001 -8.5603269193E-002  -6.8826196841E-002 -2.7852513499E-002 
14800000000.000 -1.3373944406E-001 -9.5963983748E-003  +1.5576014868E-001 -1.4611489332E-002  +4.7209143187E-002 -1.5043649562E-001  +5.7051250290E-002 -6.3386090075E-002 
15000000000.000 +2.4246941672E-002 -1.4120613627E-001  -1.1071165525E-001 +1.2679774754E-001  +1.6546107962E-001 +2.7752831419E-002  +6.7661000941E-002 -3.2664425734E-002 
15200000000.000 +4.1656152393E-002 +1.5496172547E-001  +1.4112054030E-002 -1.7609560600E-001  -1.5248544551E-002 +1.6501965806E-001  -9.0531206554E-002 +6.9493484806E-002 
15400000000.000 -2.6967280042E-002 -2.0507319547E-003  +1.2871549820E-001 +1.1782286613E-001  -1.6233364412E-001 +1.0763241537E-002  -9.6210723916E-003 -2.8734626582E-002 
15600000000.000 -8.5611408919E-003 -1.4547977354E-001  -1.5943196187E-001 -3.9114377280E-002  -4.5015290954E-002 -1.4432453791E-001  +9.3395658546E-002 -1.1311957470E-001 
15800000000.000 +5.8741968251E-002 +9.0794810967E-002  +1.9030767647E-001 -5.2667220226E-002  +1.6284007720E-001 -6.6205209853E-002  +1.5756923144E-002 +1.4734848796E-001 
16000000000.000 -8.4441689582E-002 -1.7121984331E-002  -7.3280420147E-002 +1.5686948281E-001  +5.4364122604E-002 +1.4851384769E-001  -8.4949203534E-002 -1.4050589408E-001 
16200000000.000 -1.6253473799E-002 -2.4979083283E-002  -2.3196030405E-002 -1.6502640068E-001  -1.2858472555E-001 +6.4762671547E-002  +3.8069020101E-002 +1.1957306884E-002 
16400000000.000 +1.3279186531E-001 +1.1294699941E-002  +1.3160958083E-001 +1.0025612978E-001  -8.4117498438E-002 -1.1783632771E-001  +7.3634103489E-002 +4.7066262969E-002 
16600000000.000 -1.0137933842E-001 +1.1700835189E-002  -1.6938581924E-001 -1.3304225490E-002  +9.3743971837E-002 -1.2455531447E-001  -9.1675024770E-002 -2.3716672928E-002 
16800000000.000 -6.2062766516E-004 -2.5695135423E-002  +1.3399318704E-001 -7.2150901609E-002  +1.1990023336E-001 +5.7940890294E-002  +3.5101059695E-002 -1.7506721204E-002 
17000000000.000 +9.5818212719E-002 +1.8202894035E-002  -7.9209353530E-002 +1.2419211248E-001  -7.1436891739E-002 +1.0665267967E-001  +9.9020188906E-002 -5.1829727812E-002 
17200000000.000 -3.1056909966E-002 +5.4932097284E-002  -7.9290135591E-002 -1.4535135387E-001  -1.3679047487E-001 -5.0012213322E-002  -6.6215343823E-002 +1.4171674211E-001 
17400000000.000 -3.0296754878E-002 -2.5053312806E-002  +1.2945745432E-001 +1.6866367273E-002  -1.1336402407E-005 -1.1642344960E-001  -7.6549807417E-002 -1.4427892178E-001 
17600000000.000 +3.0764625446E-002 -8.0420658799E-002  -1.0299163512E-001 +3.9098826973E-002  +9.6506820280E-002 -7.8905135407E-003  +1.4780146791E-001 -2.5606967871E-002 
17800000000.000 +4.5393901533E-003 +1.5760796668E-001  +9.2983597645E-002 -9.4567195759E-002  +1.5439003074E-002 +1.1635519734E-001  -5.8825285790E-003 +1.4096031144E-001 
18000000000.000 -1.8484735123E-002 -3.6041807433E-002  +1.2668692641E-002 +1.5116748857E-001  -1.2301732959E-001 +5.0921957063E-002  -7.1916844460E-002 -1.6352864599E-001 
18200000000.000 +4.7081084589E-002 -1.0779483357E-001  -8.4727404348E-002 -7.1421444435E-002  -5.7437901779E-002 -7.7344468464E-002  +6.8841767659E-002 +3.0119675932E-002 
18400000000.000 -1.0967258181E-002 +1.7545485113E-001  +9.5472201100E-002 +3.6080989433E-002  +8.2689850214E-002 -3.1759318448E-002  +6.7373458754E-002 +9.7238261251E-002 
18600000000.000 -9.3810706506E-002 -5.7585463943E-002  -1.1819354357E-001 +9.0168727146E-002  +6.5978642770E-002 +1.0333549095E-001  -9.6913857673E-002 -3.6098504959E-002 
18800000000.000 +3.7198144526E-002 +1.9575798335E-002  +9.9953065021E-003 -1.3460770340E-001  -6.0496009799E-002 +1.1007722583E-001  +4.5500241387E-002 -8.0113099107E-002 
19000000000.000 +6.2105205605E-002 +6.8837985043E-002  +5.3741689339E-002 +8.6296052824E-002  -8.0618073917E-002 -3.4528473386E-002  +6.0049182003E-002 +2.6229219905E-003 
19200000000.000 -1.4732599364E-001 -1.1643559373E-001  -7.4522051886E-002 -8.0300366492E-002  +6.8542822940E-002 -6.3740535053E-002  -7.9871751534E-002 +1.1156446900E-001 
19400000000.000 +3.3730585938E-002 +5.4579962281E-002  +1.4407625371E-001 -1.4120839635E-002  +1.1463495286E-001 +4.4051577918E-002  +1.1132152531E-001 -1.1145890983E-001 
19600000000.000 +4.4462587148E-002 +1.2830963789E-002  -6.4385581908E-002 +1.0633976566E-001  +2.9271986091E-003 +1.0903925699E-001  +5.5418289441E-004 +1.6108046963E-002 
19800000000.000 -5.7969718052E-002 -2.9827796134E-002  +5.7993898266E-003 -1.1489402890E-001  -1.0118845672E-001 -2.3512460437E-002  +4.6694300545E-002 +5.8281622316E-002 
20000000000.000 +2.6000204891E-002 -5.4484946851E-002  +8.5941618978E-002 +1.0096616966E-001  +4.8513457553E-002 -1.0762352981E-001  -5.4892345166E-002 +1.1574903749E-002 
20200000000.000 +1.8098454423E-002 -1.9834433458E-002  -1.1906090488E-001 -3.3727445022E-002  +8.2332274191E-002 -7.9030462611E-002  -2.3316623302E-003 -9.4433273931E-002 
20400000000.000 -8.1884500236E-002 +7.4060400876E-002  +9.5376634618E-002 -2.7740543051E-002  +6.6236855122E-002 +6.3999928831E-002  +1.0042835754E-001 -2.7631323015E-002 
20600000000.000 +5.4295897387E-002 -7.5587918816E-002  -8.2084802832E-002 +8.8078805963E-002  -8.4538962111E-002 +7.1189891959E-002  -5.2796357826E-002 +1.3397461418E-001 
20800000000.000 +6.3090550597E-002 +2.7275944077E-002  -2.4373121047E-002 -1.2529869671E-001  -8.8081018228E-002 -7.4445213055E-002  -4.0842294763E-002 -1.2099689849E-001 
21000000000.000 -1.1530633942E-001 -4.2627276191E-002  +6.9293063426E-002 +4.0627606778E-002  +5.9803499504E-002 -4.5457571778E-002  +1.2428467407E-001 -5.1902474657E-002 
21200000000.000 +7.6419529780E-002 -3.1575653685E-003  -9.9103996490E-002 -2.1003254127E-002  +3.5569587013E-002 +8.2431194262E-002  -9.8225452847E-002 +9.3888889592E-002 
21400000000.000 +3.2773876319E-002 -5.6945547595E-003  +9.7093271585E-002 -8.1979913012E-002  -6.8939129356E-002 +8.9352298666E-002  +5.4440695365E-002 -2.8188163363E-002 
21600000000.000 -4.1837858000E-002 +4.4394788662E-002  -4.5568217509E-003 +1.0747461001E-001  -9.2612514043E-002 +3.7849924566E-004  +5.9156931332E-003 -4.7814590400E-002 
21800000000.000 +1.0629530326E-005 -7.8741500501E-002  -1.3913288660E-002 -7.4849010447E-002  -3.2206305636E-003 -6.8101793919E-002  +4.4239311518E-002 -1.1685576782E-002 
22000000000.000 +4.4864635042E-002 +1.1315398387E-002  +7.1867636603E-002 +8.5049126253E-002  +9.4986160713E-002 +4.6686681579E-004  -1.9539691070E-002 +4.5480093127E-002 
22200000000.000 +3.0984143008E-002 +1.2056646293E-001  -1.1307973225E-001 +1.2765497996E-002  +3.4532720834E-002 +9.1499910017E-002  -7.5514680897E-003 -1.5179315530E-002 
22400000000.000 -2.7910999154E-002 -1.5595262779E-001  +5.9062247867E-002 -5.6297415957E-002  -5.9874794593E-002 +3.5787840002E-002  +1.6979198933E-001 -6.6254583897E-002 
22600000000.000 +6.1891737688E-002 +6.4952263399E-002  -4.5014946406E-002 +7.8145776508E-002  -2.8167521869E-002 -6.9250536465E-002  -1.2599793712E-001 +7.6917812319E-002 
