!  2-Port S-parameters saved by WinCal
! VAR MeasName=S-Parameters (CALIBRATED_DATA) read from VNA (MS4647B)
! VAR MeasDate=27-Apr-22 16:08:30
! VAR NAME=RAW_stepline_0mm_2
! VAR FILENAME=RAW_stepline_0mm_2.S2P
! VAR DATE=27-Apr-22 16:08:31
! VAR PHYS_PORTS=1,2
! VAR ObjTypeName=DATASET
! VAR IndexType=Frequency
! VAR ChuckHeaterState=Unknown
! VAR ChuckTemp=NaN
! VAR ChuckTempUnits=Unknown
!
# Hz S RI R 50
200000000.000 -2.1194694137E-002 -8.4184259186E-002  -2.4219075952E-001 -6.8935766669E-001  -3.6228994959E-001 -6.4853638237E-001  +2.0380457391E-002 -5.9131101197E-002 
400000000.000 +1.1900510527E-001 -9.0944002428E-002  -4.3975890531E-001 +5.2596300925E-001  -2.7283848729E-001 +6.4337176085E-001  -1.3156366236E-001 +2.0967506992E-006 
600000000.000 +6.7730426998E-002 -6.5804902908E-002  +5.7171531739E-001 +2.2708679545E-001  +5.8001541056E-001 -1.8811399995E-001  -5.4679939319E-002 +5.3362385919E-002 
800000000.000 +7.9990425929E-002 -2.2540993863E-001  -1.9125178880E-001 -6.3495077475E-001  -5.6696529530E-001 -3.1552853970E-001  +1.7798543393E-001 +6.3592280076E-002 
1000000000.000 +9.9277562452E-002 -1.8611073363E-001  -2.7630669513E-001 +6.5289775490E-001  +2.9355799092E-001 +6.1076130276E-001  +1.8491752920E-001 -5.9806476256E-002 
1200000000.000 +9.3203950504E-002 -2.2791180918E-001  +7.2175283955E-001 -1.3559838177E-001  +2.2792716957E-001 -6.4673714693E-001  -1.1018977156E-001 -1.3717572223E-001 
1400000000.000 +9.6264367521E-002 -1.9656935600E-001  -5.7640766485E-001 -4.5274540908E-001  -5.9553037164E-001 +3.1861647621E-001  -4.3638523658E-002 -5.9407962460E-002 
1600000000.000 +1.4415564156E-001 +1.2499760307E-001  +3.1416192422E-002 +6.3050536313E-001  +5.2911478637E-001 +1.6318808672E-001  -1.5919091355E-001 -5.0130922109E-002 
1800000000.000 +7.8188626952E-002 +1.3783695160E-003  +4.1724820786E-001 -3.2402313052E-001  -2.1993602098E-001 -4.0474006250E-001  +3.5176747564E-002 +9.5197107866E-002 
2000000000.000 +1.1182133546E-001 +4.1863674666E-002  -4.3982118438E-001 -1.1148099976E-001  -1.2462617674E-001 +3.6096706144E-001  +1.5162983378E-001 +4.0313151746E-003 
2200000000.000 +8.7930112511E-002 -1.9505474464E-001  +1.1624527453E-001 +3.9822509974E-001  +3.4733600500E-001 -1.1644318892E-001  -2.7646840355E-002 -2.5659977908E-001 
2400000000.000 -1.4902953636E-002 -1.3609806511E-001  +1.0337524328E-001 -4.1730548529E-001  -3.8704805076E-001 -6.7619295739E-002  -1.2418597112E-001 +3.9569003616E-002 
2600000000.000 +2.8537075513E-002 +8.4127985247E-002  -6.7290895564E-001 -3.5372300510E-001  -3.4710097757E-001 +3.9370424706E-001  +3.2367828394E-002 -3.2943550249E-002 
2800000000.000 +2.3959612389E-002 -2.5187557089E-001  +7.1234753130E-001 -5.0207773311E-001  -6.8093754227E-001 -2.3384059650E-001  -1.2172943978E-001 +1.3146321970E-001 
3000000000.000 +1.2280551138E-001 +2.5568439610E-002  -1.0583062863E-002 +8.6281764644E-001  -5.1426816813E-002 -7.5169090997E-001  -5.4858696856E-002 -4.0141810254E-002 
3200000000.000 +2.0342983869E-003 -9.1930415541E-002  -6.5595775321E-001 -4.2931352210E-001  +5.9306637775E-001 -3.5160746551E-001  +5.5477074832E-003 +7.9788371462E-002 
3400000000.000 +2.5320656448E-001 -1.6812474155E-002  +7.6530084454E-001 -2.8499988938E-001  +5.2285976507E-001 +5.3877543179E-001  -1.4230045374E-001 +1.1030864028E-001 
3600000000.000 +8.2293907684E-002 -3.8692156155E-002  -2.8353396896E-001 +7.9458548921E-001  -3.0819682030E-001 +8.0227292027E-001  -8.7629557244E-002 +7.3739881196E-002 
3800000000.000 -3.0810719982E-001 -6.6935523602E-002  -3.4098104567E-001 -8.1214066672E-001  -8.0299930609E-001 -1.5839021793E-001  +1.8148214519E-001 +1.0066266567E-001 
4000000000.000 +2.2235808765E-002 +1.6829745303E-001  +8.4959051974E-001 +2.3267875566E-001  -1.3004269040E-001 -7.5195320570E-001  -4.8003520768E-002 -9.4461762265E-002 
4200000000.000 +8.0689884131E-002 +1.0179541026E-001  -7.8881880501E-001 +4.4461672287E-001  +7.6612137062E-001 -3.6063394752E-001  -1.3278250741E-001 -5.3909824241E-002 
4400000000.000 +2.3139812269E-002 -8.9662011869E-002  +2.2502974301E-001 -8.2782158055E-001  +6.1315660698E-001 +6.5156533061E-001  +5.8250465706E-002 +6.8943502279E-002 
4600000000.000 -2.6518686703E-002 -5.3294995632E-002  +4.4563042918E-001 +7.3152177847E-001  -5.6119698491E-001 +6.3302652207E-001  +7.0857876244E-002 +6.9021982770E-002 
4800000000.000 -1.7691031684E-001 -5.7062721518E-002  -7.9301389523E-001 -2.5635768991E-001  -6.9968018455E-001 -3.5963213610E-001  +1.5827216884E-001 -1.2170316172E-002 
5000000000.000 +2.2286678670E-003 +6.9041425416E-002  +7.2880143120E-001 -3.3052429528E-001  +1.0852132539E-001 -8.5403936353E-001  -7.6905532541E-002 -9.7234544405E-004 
5200000000.000 +2.6025225831E-002 -1.9143316956E-001  -3.3748476778E-001 +7.2180119755E-001  +9.0240008457E-001 +8.9028781600E-002  +7.7409711612E-002 +1.8697843032E-001 
5400000000.000 -2.2663961130E-001 -1.0083365773E-001  -2.3728276383E-001 -7.1662953572E-001  +4.9045009485E-002 +7.9147218457E-001  +2.9283105467E-002 -2.2609341750E-001 
5600000000.000 +6.4693297945E-002 +3.4874342679E-002  +6.2578920212E-001 +3.5222507543E-001  -7.0453469533E-001 +3.1318486252E-001  +4.5877105818E-002 -7.3580248824E-002 
5800000000.000 +8.7471187542E-002 +9.8174946597E-002  -6.6211640925E-001 +1.9660660024E-001  -4.0372559893E-001 -6.8189273121E-001  -4.7941234154E-002 +9.8595489883E-002 
6000000000.000 +7.7272348156E-002 -9.8663326400E-002  +3.3240285676E-001 -5.5994773032E-001  +6.1497423537E-001 -4.4862395015E-001  -1.0860065175E-002 +6.9326896401E-002 
6200000000.000 +1.0093654284E-001 -1.6163421019E-001  +5.8263485174E-002 +6.1918592774E-001  +4.3480759541E-001 +5.2631754063E-001  +2.4857317584E-001 +1.1088594155E-001 
6400000000.000 -1.3473765731E-001 +5.4236877820E-002  -5.3412345481E-001 -3.2244947509E-001  -2.9208403026E-001 +6.2141162898E-001  -9.2561570694E-002 -1.4956498688E-001 
6600000000.000 +9.8879528272E-002 +3.3065980116E-002  +6.3130821063E-001 +2.2736538752E-002  -6.0951502796E-001 -3.2013861640E-001  +8.8458415106E-002 +7.6171319569E-002 
6800000000.000 -7.8809996649E-002 -1.4982201057E-002  -5.0185336204E-001 +3.7584198486E-001  +2.3761565225E-001 -6.4372800909E-001  -2.3729189233E-002 +6.1999366478E-002 
7000000000.000 +2.2834826489E-002 -3.6297561580E-002  +5.9818872834E-002 -6.0660469539E-001  +6.1389672920E-001 -3.4657782238E-002  -1.8119352745E-002 -4.4833876446E-003 
7200000000.000 -4.0002863503E-002 +1.3536847412E-002  +2.9379507503E-001 +5.2523475726E-001  +1.0310203848E-001 +5.7093485936E-001  +6.1369126636E-002 -1.3967949962E-002 
7400000000.000 -4.0234691816E-003 +1.4724299054E-002  -5.3327364312E-001 -2.0809451037E-001  -5.7060460026E-001 +1.5666403584E-001  -1.8327195908E-001 +1.7946240662E-002 
7600000000.000 +3.2239893049E-001 +1.0034523265E-002  +5.3196837672E-001 -1.6830567426E-001  -2.0134725168E-001 -5.0616103823E-001  +2.5796144684E-001 +9.4119081596E-002 
7800000000.000 -1.2785243495E-001 -8.0008825498E-002  -2.6996998926E-001 +4.8094767405E-001  +3.9454820220E-001 -3.0388579706E-001  -1.1877616255E-002 -4.7449302441E-002 
8000000000.000 +7.6934303216E-002 -4.6400783256E-002  -6.3543469947E-002 -5.2998488237E-001  +3.2877142581E-001 +3.9933183688E-001  +2.4925925967E-003 -1.0181200784E-001 
8200000000.000 -1.2770568018E-001 +1.0296090046E-001  +3.8877157224E-001 +3.0849236660E-001  -3.1667677638E-001 +3.6889149532E-001  -3.6491796194E-002 +3.5703204954E-002 
8400000000.000 +9.3052334625E-003 +7.2889617015E-002  -4.4455719586E-001 -7.2608378405E-002  -3.7858613713E-001 -2.2634602470E-001  -1.3406094832E-002 +9.4102288293E-002 
8600000000.000 +6.6380936894E-002 -1.7523378562E-002  +3.2693842102E-001 -2.6184416345E-001  +1.7225155143E-001 -3.7371455535E-001  +1.1379135721E-001 +3.2948462549E-003 
8800000000.000 -7.4762147196E-002 -6.6088066177E-002  -5.6446487820E-002 +4.0881126043E-001  +4.1453529744E-001 +4.2648609391E-002  -1.4527348836E-001 +2.4955433706E-002 
9000000000.000 +5.6877957648E-002 +4.0571903134E-002  -1.8525807279E-001 -3.3236058146E-001  -2.1677229125E-002 +3.9688528626E-001  +1.4855952888E-002 -2.7945146402E-002 
9200000000.000 -3.2510797017E-002 +1.1241359549E-002  +3.6379678195E-001 +1.1905056273E-001  -3.7532977536E-001 +3.3235705456E-002  +1.3734219741E-002 +9.3672756442E-002 
9400000000.000 +1.5052152332E-001 -4.2121547114E-002  -3.1154140295E-001 +1.5099359001E-001  -1.1477665001E-001 -3.2447775855E-001  -3.4868328007E-002 -1.3072839769E-001 
9600000000.000 -3.4211144201E-002 -6.9494463098E-002  +1.5243497574E-001 -3.1828587749E-001  +3.2687644980E-001 -1.4616038038E-001  -3.3126685441E-002 -4.1979201393E-002 
9800000000.000 -1.6975617806E-002 +1.2006285090E-002  +8.6581076455E-002 +3.2571319429E-001  +2.0181496519E-001 +2.8793707800E-001  -4.3220747774E-002 +3.5323289923E-002 
10000000000.000 -4.6280473059E-002 +5.9387898752E-002  -2.6641717133E-001 -1.7918675446E-001  -2.9334714916E-001 +1.4246368738E-001  +1.4918859524E-002 +3.0365886549E-002 
10200000000.000 +1.4804322931E-002 +1.0453022894E-001  +3.0336444737E-001 +1.2533572822E-002  -2.7084429807E-001 -1.2674683282E-001  +8.6821857619E-002 -1.1723964604E-001 
10400000000.000 +8.1892046763E-002 +2.8713015076E-002  -2.4460937121E-001 +1.7094740308E-001  +1.6423067974E-001 -2.8030611810E-001  -1.2272297722E-002 -4.9161953234E-002 
10600000000.000 +1.4363792839E-002 -5.9489826073E-002  +5.4060177800E-002 -2.9195923444E-001  +2.4987039351E-001 +1.6693115046E-001  -7.3203749236E-002 +1.0800147448E-001 
10800000000.000 -4.8343052386E-002 +7.5631714612E-002  +9.0726614066E-002 +2.6194139126E-001  -8.0177168209E-002 +2.7651531649E-001  +3.0642679246E-002 -9.5236271447E-002 
11000000000.000 +4.0251447257E-002 +2.7166128224E-003  -2.3734751643E-001 -1.5952466458E-001  -2.9873590608E-001 +8.3922651894E-003  +9.7480636821E-002 +3.0004296157E-002 
11200000000.000 -2.0886749043E-002 +2.8040255558E-002  +2.6598889243E-001 -2.3801140158E-002  -2.8641220113E-002 -2.9184957930E-001  -1.3991010381E-001 -9.1238920678E-003 
11400000000.000 +1.1551129353E-002 -4.5422198146E-002  -1.9077857030E-001 +1.8501683044E-001  +2.8794329045E-001 -7.1244142110E-002  +8.9824319069E-003 -4.8412869619E-002 
11600000000.000 -5.8321227006E-002 -1.4953087746E-002  -8.7498417867E-003 -2.4216290974E-001  +8.7674194881E-002 +2.4736407304E-001  +7.2619770698E-002 +1.1114666718E-001 
11800000000.000 -9.2374765763E-002 +6.0471537150E-002  +1.8402002291E-001 +1.7160674492E-001  -2.3646914241E-001 +1.4138258120E-001  +3.7582304071E-003 -1.4352366321E-001 
12000000000.000 +1.8801400968E-001 +2.8974526491E-002  -2.1739370469E-001 -5.3141111861E-002  -1.2069658763E-001 -2.1509280224E-001  -7.4464988948E-002 -1.6069514607E-002 
12200000000.000 -4.3913949785E-002 -1.7298291191E-002  +2.2527080124E-001 -5.4650964251E-002  +2.2485893704E-001 -1.2417355177E-001  -2.7688643851E-002 +2.3863455646E-002 
12400000000.000 +1.4505301414E-002 +1.3970419338E-002  -1.4640942201E-001 +1.7921402563E-001  +1.5162106939E-001 +2.0552555103E-001  +5.2742795150E-002 -7.7978916835E-003 
12600000000.000 +2.2640927376E-002 +3.3880373197E-002  -5.7080875894E-002 -2.1407476642E-001  -1.6017275008E-001 +1.9130247635E-001  -7.8042460244E-002 +2.7827221483E-002 
12800000000.000 -2.5464757406E-002 +7.7843617554E-002  +1.8319319246E-001 +9.6792697073E-002  -2.2336278285E-001 -8.2954041331E-002  +3.5996952047E-002 -1.4920329226E-001 
13000000000.000 +3.6881080495E-002 -2.1420067349E-002  -2.1033492268E-001 +1.7327644438E-002  +7.1265090600E-002 -2.2878028301E-001  -1.8209287000E-002 +1.2931616043E-001 
13200000000.000 -1.1346173037E-001 -1.3400270371E-001  +1.9067485643E-001 -9.6814256445E-002  +1.9721529569E-001 +1.0332280949E-001  +5.1751680931E-002 -8.6799658696E-002 
13400000000.000 -4.3464031054E-002 +1.4213570788E-001  -1.1746023039E-001 +1.4569057995E-001  -1.0489789651E-001 +1.8707843136E-001  +7.8599174379E-002 -9.8365293964E-002 
13600000000.000 -5.8134887633E-002 -3.0796979994E-002  -2.0466005490E-002 -2.0408581484E-001  -2.2467362296E-001 -7.2843666880E-002  -5.1587676163E-002 +2.9789573852E-002 
13800000000.000 +7.1671593404E-002 -5.5414484107E-002  +1.6563377621E-001 +1.2995203958E-001  -5.0191331903E-002 -2.1960378295E-001  +3.1986336813E-002 -3.9560949380E-003 
14000000000.000 +8.0564405675E-003 +3.9827529712E-002  -1.9762590296E-001 +2.7542240533E-002  +1.8911689194E-001 -9.3151377935E-002  +3.2234152888E-002 +2.1364907917E-002 
14200000000.000 -1.6359919096E-001 -3.8356562033E-002  +1.3821937682E-001 -1.1893741033E-001  +1.1030252866E-001 +1.5302047841E-001  +6.7631881803E-002 -1.1609310686E-001 
14400000000.000 +1.1203448323E-001 -1.6767200174E-003  -6.7276978820E-002 +1.7629469969E-001  -1.9240087351E-001 +6.8577229778E-002  -4.5000352040E-002 +8.6447629452E-002 
14600000000.000 +2.0544909470E-002 +6.6360116210E-003  -8.3964635105E-002 -1.7531887884E-001  -8.8868026168E-002 -1.7481998300E-001  +7.5911973067E-003 -2.6822012185E-002 
14800000000.000 -8.3501069135E-002 -5.0599861843E-002  +1.6692873829E-001 +6.8222893529E-002  +1.2939033651E-001 -1.2853262791E-001  +8.1769053657E-002 -1.0566944147E-002 
15000000000.000 +4.1419151227E-002 -8.9358652562E-002  -1.7332471928E-001 +6.3447353068E-002  +1.4436825950E-001 +1.1424709151E-001  +1.9127222940E-002 -3.4003490154E-002 
15200000000.000 -1.0121077966E-002 +1.5370917679E-001  +1.0721139066E-001 -1.5778385690E-001  -1.0223020475E-001 +1.4733357387E-001  -6.3193414429E-002 +3.4549400864E-002 
15400000000.000 +1.1129318015E-002 -3.7964790890E-002  +4.9147549400E-002 +1.8672559580E-001  -1.5852075737E-001 -8.7194263959E-002  +3.7735134934E-002 +2.3960438563E-002 
15600000000.000 +2.4423550659E-002 -9.5692059673E-002  -1.3811713121E-001 -1.2293412937E-001  +3.1340722669E-002 -1.6836983267E-001  +6.1306168465E-002 -6.7662457292E-002 
15800000000.000 +9.0442116942E-003 +8.2951964257E-002  +1.9927997063E-001 +5.6262274570E-002  +1.8222328905E-001 +2.9202603232E-002  +1.7645956180E-002 +1.1358939722E-001 
16000000000.000 -3.6928865266E-002 -7.1908246630E-002  -1.6875082658E-001 +1.0107972167E-001  -4.3016128616E-002 +1.7431016367E-001  -2.5523812058E-002 -1.2163372027E-001 
16200000000.000 +2.1643561995E-002 +2.6103439137E-002  +7.2933340186E-002 -1.7311677238E-001  -1.6174659796E-001 -1.0868174043E-002  +1.7598479342E-002 +5.7594672091E-002 
16400000000.000 +8.1449285732E-002 +2.7317043249E-002  +6.6047708564E-002 +1.6857198658E-001  -1.2235865709E-002 -1.5838245898E-001  +4.2551879191E-002 +1.6545513846E-002 
16600000000.000 -9.0659340099E-002 -3.3661346675E-002  -1.4355933093E-001 -1.1384061720E-001  +1.5940862920E-001 -5.5228492505E-002  -3.7766650395E-002 -2.6924499273E-002 
16800000000.000 +4.8827574088E-002 +1.9701220153E-002  +1.8022545098E-001 +2.0442117085E-002  +7.8052772277E-002 +1.3856670368E-001  +3.8132853181E-002 +5.3965516046E-002 
17000000000.000 +3.8129079497E-002 +4.4870139763E-002  -1.4430629151E-001 +7.7438533936E-002  -1.2716081393E-001 +6.4710133113E-002  +6.0140498724E-002 -4.9440921827E-002 
17200000000.000 -2.5617161908E-002 +4.5987118437E-003  +2.1258260387E-002 -1.7577308689E-001  -8.8656419014E-002 -1.2844159841E-001  -2.9779997494E-002 +1.1572473166E-001 
17400000000.000 +3.5683406532E-002 -3.6114870178E-003  +1.1509624551E-001 +1.1419431723E-001  +8.7845570696E-002 -1.1579804177E-001  -1.8812924214E-002 -1.0081092220E-001 
17600000000.000 +6.4785260336E-003 -2.7104469782E-002  -1.3388075496E-001 -1.7304990562E-002  +1.0907207038E-001 +4.7318965373E-002  +1.1949424795E-001 +1.6897159084E-002 
17800000000.000 -2.8988751293E-002 +1.1840197178E-001  +1.3563505177E-001 -3.9437649950E-002  -4.6290216083E-002 +1.1612882795E-001  -2.6525272015E-002 +1.1623486585E-001 
18000000000.000 +1.5377655315E-002 -3.2832123071E-002  -8.5251685278E-002 +1.3736282324E-001  -1.3757371298E-001 -3.4542675119E-002  -3.0545628867E-002 -1.3152331353E-001 
18200000000.000 +1.9452780056E-002 -4.7442791245E-002  -3.7154540608E-002 -1.4547439458E-001  -2.5891354867E-003 -1.3070976696E-001  +6.1514554878E-002 +1.0815998002E-001 
18400000000.000 -5.6728454542E-002 +1.3782397116E-001  +8.1534276850E-002 +8.0715908161E-002  +9.9574324365E-002 +5.1190094449E-003  +3.0650968786E-002 +9.1710490683E-002 
18600000000.000 -6.0824463832E-002 -9.7969972567E-002  -1.5256598147E-001 +9.2428040671E-003  -2.8248022714E-003 +1.2603004474E-001  -8.6348326749E-002 -4.3574283401E-002 
18800000000.000 +1.7179516203E-002 +5.4911745892E-002  +1.0343416700E-001 -1.0823334593E-001  -1.2930376807E-001 +5.1990327792E-002  +6.4826062470E-002 -1.6056349610E-002 
19000000000.000 +1.3163655960E-002 +3.3942046414E-002  +7.7009790776E-004 +1.3238998552E-001  -6.6355408088E-002 -9.3196910808E-002  +1.4834412878E-002 +4.1628279139E-002 
19200000000.000 -1.0224787438E-001 -1.4981095273E-001  -3.1539716262E-002 -1.0981096036E-001  +9.3915890153E-002 -2.7219639612E-002  -8.6908817134E-002 +7.9150784323E-002 
19400000000.000 +6.5011303742E-002 +7.1680567960E-002  +1.3159245802E-001 +7.7701818652E-002  +7.0006294993E-002 +1.0885888534E-001  +1.0516262498E-001 -8.2160604381E-002 
19600000000.000 -4.0707159215E-003 -1.6390076331E-002  -1.4442445094E-001 +5.0107842908E-002  -8.2409132908E-002 +1.0537351535E-001  -5.2023081459E-002 +7.0191282999E-002 
19800000000.000 -4.9420742298E-003 -6.0927080726E-002  +7.0538018023E-002 -1.0920235840E-001  -8.5938902154E-002 -7.9655700922E-002  +7.9057766727E-003 +4.2703099341E-002 
20000000000.000 +3.7762915178E-002 -9.5013480287E-003  +1.2451424274E-002 +1.4140563172E-001  +1.0899867867E-001 -6.4123867352E-002  -2.3687243278E-002 +1.0132352104E-002 
20200000000.000 -1.7153944703E-002 -3.9717644628E-002  -8.2286943928E-002 -1.1452308562E-001  +1.2985929665E-001 -1.1940095976E-002  +1.8708942943E-002 -3.6800562737E-002 
20400000000.000 -4.2252217297E-002 +4.1142053726E-002  +1.1603111331E-001 +3.1124430160E-002  +2.8057288712E-002 +1.0779754277E-001  +5.4923908001E-002 +1.3136055069E-003 
20600000000.000 +7.4721374086E-002 -2.3316818667E-002  -1.2001748685E-001 +2.7956678503E-002  -1.1194258055E-001 +1.1937698719E-002  -6.2108308099E-002 +1.1298510003E-001 
20800000000.000 +4.0077463669E-002 +3.2638954849E-003  +7.0608985885E-002 -1.2264112028E-001  -1.9901793592E-002 -1.2641772533E-001  +7.2430626682E-003 -8.0940270182E-002 
21000000000.000 -7.3128983863E-002 -6.4413487742E-002  +5.0288725216E-002 +8.8462170076E-002  +9.4590291445E-002 -1.2208081958E-002  +1.2000312913E-001 -3.8523651769E-004 
21200000000.000 +8.3217370452E-002 +5.3161056455E-002  -7.3779107501E-002 -6.7071618598E-002  -1.0796203795E-002 +8.7939950921E-002  -1.2645987845E-001 +8.5076840764E-002 
21400000000.000 +4.0016099086E-003 +8.0170614194E-005  +1.3153956940E-001 -1.8707940812E-003  -1.1401637928E-001 +2.6066488570E-002  +7.2789074031E-002 -2.0077915843E-002 
21600000000.000 -2.4573259970E-004 +1.8799081258E-002  -9.3233489373E-002 +9.2857298280E-002  -8.3647866036E-002 -7.6620748583E-002  +1.4914579111E-002 +1.7594341155E-002 
21800000000.000 +1.7882658602E-002 -3.4862189826E-002  +2.6303952938E-002 -8.3811399049E-002  +3.3531386988E-002 -7.1312671639E-002  +1.1255989043E-002 +5.8275433063E-003 
22000000000.000 -1.3385168748E-002 +3.0272044520E-002  +3.7186671128E-003 +1.0718933925E-001  +7.1849364709E-002 +5.7068583221E-002  -2.4903619923E-002 +3.2476412908E-002 
22200000000.000 +4.1378219500E-002 +1.0403209203E-001  -9.8433386052E-002 -7.1808946262E-002  -3.9184130047E-002 +9.7451245937E-002  -5.0410024410E-003 +3.8498816660E-002 
22400000000.000 +4.0061297899E-004 -1.1603298581E-001  +1.0317232886E-001 -1.6955742568E-002  -8.9389567087E-002 -5.2617600587E-003  +1.3178621808E-001 -3.2145230322E-002 
22600000000.000 +1.3610681121E-002 +8.7100974726E-002  -7.9669085916E-002 +4.3425740146E-002  +1.2086690197E-002 -7.4457029946E-002  -1.3933657362E-001 +5.1729279573E-002 
