!  2-Port S-parameters saved by WinCal
! VAR MeasName=S-Parameters (CALIBRATED_DATA) read from VNA (MS4647B)
! VAR MeasDate=27-Apr-22 16:07:20
! VAR NAME=RAW_stepline_0mm_1
! VAR FILENAME=RAW_stepline_0mm_1.S2P
! VAR DATE=27-Apr-22 16:07:20
! VAR PHYS_PORTS=1,2
! VAR ObjTypeName=DATASET
! VAR IndexType=Frequency
! VAR ChuckHeaterState=Unknown
! VAR ChuckTemp=NaN
! VAR ChuckTempUnits=Unknown
!
# Hz S RI R 50
200000000.000 -2.1121446935E-002 -8.4082882066E-002  -2.4165374672E-001 -6.8864667724E-001  -3.6246147544E-001 -6.4835927319E-001  +2.0496055497E-002 -5.9203063372E-002 
400000000.000 +1.1915490295E-001 -9.0974268554E-002  -4.3940871114E-001 +5.2607271526E-001  -2.7311248115E-001 +6.4332612097E-001  -1.3173151441E-001 -5.5833462748E-006 
600000000.000 +6.7609179001E-002 -6.5923285947E-002  +5.7171407696E-001 +2.2718740695E-001  +5.8026209023E-001 -1.8817879257E-001  -5.4466461679E-002 +5.3411199877E-002 
800000000.000 +7.9804204529E-002 -2.2523146918E-001  -1.9142964990E-001 -6.3503366986E-001  -5.6664567626E-001 -3.1560513860E-001  +1.7762124302E-001 +6.3553914096E-002 
1000000000.000 +9.9510462368E-002 -1.8606792601E-001  -2.7545679943E-001 +6.5310446861E-001  +2.9389472268E-001 +6.1055356404E-001  +1.8540428794E-001 -5.9841146940E-002 
1200000000.000 +9.3437127320E-002 -2.2833936489E-001  +7.2162140866E-001 -1.3511781187E-001  +2.2836887760E-001 -6.4660180540E-001  -1.1074895596E-001 -1.3745571328E-001 
1400000000.000 +9.5759698431E-002 -1.9660323430E-001  -5.7669730047E-001 -4.5291939883E-001  -5.9609834111E-001 +3.1837489716E-001  -4.3129785668E-002 -5.9201165759E-002 
1600000000.000 +1.4428230547E-001 +1.2568090473E-001  +3.1721004801E-002 +6.3054420223E-001  +5.2891071929E-001 +1.6298689061E-001  -1.5964755727E-001 -5.0450811837E-002 
1800000000.000 +7.8831501620E-002 +1.1821003439E-003  +4.1743713273E-001 -3.2398586433E-001  -2.1956672104E-001 -4.0487519475E-001  +3.5581706469E-002 +9.5739569617E-002 
2000000000.000 +1.1148968087E-001 +4.1335496126E-002  -4.3936624267E-001 -1.1143290984E-001  -1.2501458139E-001 +3.6094382480E-001  +1.5127054559E-001 +3.4079360639E-003 
2200000000.000 +8.7398501842E-002 -1.9500880595E-001  +1.1615427028E-001 +3.9835690788E-001  +3.4735222897E-001 -1.1651249986E-001  -2.7691639091E-002 -2.5597793569E-001 
2400000000.000 -1.4724663792E-002 -1.3544867838E-001  +1.0323535331E-001 -4.1722656059E-001  -3.8695630021E-001 -6.7743626738E-002  -1.2436127390E-001 +3.8916921533E-002 
2600000000.000 +2.9999705175E-002 +8.4354328799E-002  -6.7260917725E-001 -3.5460659854E-001  -3.4719781390E-001 +3.9341808049E-001  +3.1351275221E-002 -3.2689267151E-002 
2800000000.000 +2.3506440078E-002 -2.5012440925E-001  +7.1291134150E-001 -5.0151283784E-001  -6.8119233904E-001 -2.3423917324E-001  -1.2226169083E-001 +1.3019725017E-001 
3000000000.000 +1.2118441821E-001 +2.4693826329E-002  -1.1064365319E-002 +8.6341277308E-001  -5.1464035385E-002 -7.5236386525E-001  -5.3361070620E-002 -4.0618567624E-002 
3200000000.000 +3.3785586572E-003 -9.3447294103E-002  -6.5576758137E-001 -4.2928055568E-001  +5.9290753712E-001 -3.5163770076E-001  +6.1172160327E-003 +8.1216837709E-002 
3400000000.000 +2.5439928550E-001 -1.4664230388E-002  +7.6535919791E-001 -2.8381586621E-001  +5.2194537371E-001 +5.3933817848E-001  -1.4434843413E-001 +1.1077801767E-001 
3600000000.000 +8.0026328368E-002 -3.7683500811E-002  -2.8420201091E-001 +7.9486287159E-001  -3.0943892432E-001 +8.0195094325E-001  -8.8238632556E-002 +7.1312516290E-002 
3800000000.000 -3.0853104437E-001 -6.9968891470E-002  -3.4034536208E-001 -8.1238240953E-001  -8.0284949949E-001 -1.5904724995E-001  +1.8394764010E-001 +1.0096741755E-001 
4000000000.000 +2.5140854463E-002 +1.6879268485E-001  +8.4961039611E-001 +2.3317448210E-001  -1.2931633934E-001 -7.5204151218E-001  -4.8215125385E-002 -9.1856184070E-002 
4200000000.000 +7.8754297431E-002 +1.0437656399E-001  -7.8903704202E-001 +4.4383685513E-001  +7.6618618717E-001 -3.5918684460E-001  -1.3573864610E-001 -5.4591741441E-002 
4400000000.000 +2.0730202695E-002 -9.1989119963E-002  +2.2561788798E-001 -8.2766591708E-001  +6.1247308497E-001 +6.5224694064E-001  +5.9734454425E-002 +6.5798025079E-002 
4600000000.000 -2.3016055502E-002 -5.4164964781E-002  +4.4501966924E-001 +7.3181934785E-001  -5.6137470047E-001 +6.3228270256E-001  +7.3697931767E-002 +7.1097140932E-002 
4800000000.000 -1.7716884428E-001 -5.3675096495E-002  -7.9322335659E-001 -2.5782585946E-001  -6.9905555362E-001 -3.6095841450E-001  +1.5567187144E-001 -9.3583723069E-003 
5000000000.000 -8.9881114986E-004 +6.6859290173E-002  +7.2905742718E-001 -3.2955367288E-001  +1.0839817240E-001 -8.5387306189E-001  -7.9480652248E-002 -3.8837459491E-003 
5200000000.000 +2.9700028838E-002 -1.9369444721E-001  -3.3859853646E-001 +7.2134184405E-001  +9.0219864390E-001 +9.1340372118E-002  +8.1534149258E-002 +1.8519374641E-001 
5400000000.000 -2.2619952213E-001 -9.7158733670E-002  -2.3648409330E-001 -7.1775460051E-001  +4.8644008147E-002 +7.9186194008E-001  +3.0151269899E-002 -2.2203702493E-001 
5600000000.000 +6.0960878193E-002 +3.3962916547E-002  +6.2593280814E-001 +3.5326542113E-001  -7.0489435495E-001 +3.1353407562E-001  +4.1664960610E-002 -7.3573164478E-002 
5800000000.000 +8.9651013668E-002 +9.4990558791E-002  -6.6208569569E-001 +1.9634163073E-001  -4.0361224884E-001 -6.8145746219E-001  -4.6609778285E-002 +9.4284946806E-002 
6000000000.000 +7.9492972540E-002 -9.5275839612E-002  +3.3322057110E-001 -5.5925641982E-001  +6.1502117700E-001 -4.4778935778E-001  -7.1695004431E-003 +7.2038519616E-002 
6200000000.000 +9.7342544016E-002 -1.6107701383E-001  +5.7686895477E-002 +6.2007042734E-001  +4.3450134869E-001 +5.2695745122E-001  +2.4478701023E-001 +1.1334517060E-001 
6400000000.000 -1.3468677511E-001 +5.0296483532E-002  -5.3406911855E-001 -3.2310560321E-001  -2.9230896615E-001 +6.2156521259E-001  -9.4684520716E-002 -1.5352452479E-001 
6600000000.000 +1.0241425108E-001 +3.5438127637E-002  +6.3095616867E-001 +2.3610771817E-002  -6.0913698386E-001 -3.2075024595E-001  +9.3465093664E-002 +7.6350547853E-002 
6800000000.000 -8.2483559729E-002 -1.2634485934E-002  -5.0214832229E-001 +3.7528836395E-001  +2.3850053008E-001 -6.4302353545E-001  -2.5815817379E-002 +6.6512037172E-002 
7000000000.000 +2.1490185494E-002 -4.0598574337E-002  +6.1361044622E-002 -6.0631471671E-001  +6.1363508476E-001 -3.2951235174E-002  -2.2557496400E-002 -6.6966748202E-003 
7200000000.000 -3.5550229009E-002 +1.4480558353E-002  +2.9308966135E-001 +5.2582915682E-001  +1.0166924249E-001 +5.7096293762E-001  +6.4659177154E-002 -1.7222244245E-002 
7400000000.000 -6.7804429622E-003 +1.8549229929E-002  -5.3277744770E-001 -2.0973081337E-001  -5.7126484074E-001 +1.5534830812E-001  -1.8094836961E-001 +2.2417187097E-002 
7600000000.000 +3.2074683093E-001 +5.9845920422E-003  +5.3290187688E-001 -1.6810979556E-001  -2.0128120927E-001 -5.0687016437E-001  +2.5357486016E-001 +9.5145297414E-002 
7800000000.000 -1.2309102716E-001 -8.0022683950E-002  -2.7047061575E-001 +4.8009878495E-001  +3.9466308594E-001 -3.0300236590E-001  -1.1840811417E-002 -5.1652848801E-002 
8000000000.000 +7.4524082621E-002 -4.2427484086E-002  -6.2229861779E-002 -5.3034698839E-001  +3.2777679279E-001 +4.0069651773E-001  +7.2264783911E-003 -1.0045474055E-001 
8200000000.000 -1.3065155168E-001 +9.9707308566E-002  +3.8845244164E-001 +3.0943247479E-001  -3.1749577743E-001 +3.6832004651E-001  -3.9055835766E-002 +3.9377156190E-002 
8400000000.000 +1.3171296143E-002 +7.1859017110E-002  -4.4526195236E-001 -7.3923026047E-002  -3.7864321365E-001 -2.2719176242E-001  -1.5818243233E-002 +9.0658482906E-002 
8600000000.000 +6.5411107026E-002 -1.3748673045E-002  +3.2702361695E-001 -2.6160162347E-001  +1.7269730610E-001 -3.7384748739E-001  +1.1725510651E-001 +1.7959651363E-003 
8800000000.000 -7.8089559421E-002 -6.8098598703E-002  -5.7390990787E-002 +4.0872225124E-001  +4.1441336600E-001 +4.3080463817E-002  -1.4429280333E-001 +2.9083170027E-002 
9000000000.000 +6.0106888555E-002 +3.8647742871E-002  -1.8464551422E-001 -3.3214008350E-001  -2.2361972287E-002 +3.9631761648E-001  +1.0997559574E-002 -2.8617224450E-002 
9200000000.000 -3.1523191031E-002 +1.5292589364E-002  +3.6348376529E-001 +1.2035889622E-001  -3.7558689532E-001 +3.1701550937E-002  +1.5634788307E-002 +9.0103370379E-002 
9400000000.000 +1.4734746295E-001 -4.3543238482E-002  -3.1222503539E-001 +1.5123910902E-001  -1.1442618146E-001 -3.2521038550E-001  -3.1542094866E-002 -1.2930509238E-001 
9600000000.000 -3.1684025759E-002 -7.2191761464E-002  +1.5280895476E-001 -3.1776657722E-001  +3.2659345166E-001 -1.4602198910E-001  -3.6052473272E-002 -3.9709312620E-002 
9800000000.000 -1.5467388049E-002 +1.5447692914E-002  +8.5775229926E-002 +3.2550971563E-001  +2.0100333667E-001 +2.8809740232E-001  -4.4541610320E-002 +3.1796335527E-002 
10000000000.000 -4.9802191510E-002 +5.8251084579E-002  -2.6567933595E-001 -1.7977353468E-001  -2.9362234956E-001 +1.4128807417E-001  +1.8519289588E-002 +3.0038409779E-002 
10200000000.000 +1.6935859291E-002 +1.0210907307E-001  +3.0391586935E-001 +1.3207914158E-002  -2.7105855595E-001 -1.2768894383E-001  +8.7711025634E-002 -1.1388968252E-001 
10400000000.000 +8.2269827107E-002 +3.2213178947E-002  -2.4495175504E-001 +1.7042146098E-001  +1.6440257029E-001 -2.8015889819E-001  -1.5740452677E-002 -4.9434250628E-002 
10600000000.000 +1.0925693687E-002 -6.0581840407E-002  +5.5060087258E-002 -2.9193951993E-001  +2.4954889104E-001 +1.6788446464E-001  -7.1632411938E-002 +1.0487439446E-001 
10800000000.000 -4.5787342064E-002 +7.3482679514E-002  +9.0452589368E-002 +2.6228146433E-001  -8.0450478286E-002 +2.7659040300E-001  +3.3072284785E-002 -9.3239006243E-002 
11000000000.000 +4.1281343469E-002 +5.8800215499E-003  -2.3703383983E-001 -1.5991762230E-001  -2.9868793893E-001 +7.9504413240E-003  +9.4654972346E-002 +3.2138411303E-002 
11200000000.000 -2.4090551074E-002 +2.7582142502E-002  +2.6608241773E-001 -2.3297506819E-002  -2.7997098403E-002 -2.9188214526E-001  -1.4089533338E-001 -1.2456749026E-002 
11400000000.000 +1.3182427657E-002 -4.8416564356E-002  -1.9173836929E-001 +1.8468438947E-001  +2.8867802043E-001 -7.0178043857E-002  +1.2579880029E-002 -4.8319145041E-002 
11600000000.000 -5.6550715575E-002 -1.2623709301E-002  -8.4292529677E-003 -2.4262611256E-001  +8.7695652543E-002 +2.4801049988E-001  +7.1828883725E-002 +1.1413327371E-001 
11800000000.000 -9.5322102642E-002 +6.1274270094E-002  +1.8404052942E-001 +1.7160323077E-001  -2.3647661000E-001 +1.4124008349E-001  +7.8591856833E-004 -1.4509119242E-001 
12000000000.000 +1.8890028555E-001 +2.6431929341E-002  -2.1739880228E-001 -5.3510163004E-002  -1.2040715497E-001 -2.1539935142E-001  -7.1752394077E-002 -1.7789667565E-002 
12200000000.000 -4.2208421598E-002 -1.4854242092E-002  +2.2530892103E-001 -5.4350162285E-002  +2.2475096967E-001 -1.2369831523E-001  -2.7537593780E-002 +2.6982223711E-002 
12400000000.000 +1.1480189494E-002 +1.4780310135E-002  -1.4695939021E-001 +1.7884588617E-001  +1.5091642535E-001 +2.0613261947E-001  +4.9759243676E-002 -8.8111711936E-003 
12600000000.000 +2.2272154100E-002 +3.1117455537E-002  -5.6756133043E-002 -2.1463146112E-001  -1.6078178634E-001 +1.9132193505E-001  -7.6405488877E-002 +2.5244610630E-002 
12800000000.000 -2.2882499094E-002 +7.8318193454E-002  +1.8322294627E-001 +9.7355284699E-002  -2.2369944836E-001 -8.3156379650E-002  +3.8257134105E-002 -1.4748042770E-001 
13000000000.000 +3.4793763844E-002 -1.9601700061E-002  -2.1015361535E-001 +1.7436016402E-002  +7.1071987473E-002 -2.2864788267E-001  -2.0481602742E-002 +1.3085523620E-001 
13200000000.000 -1.1332007812E-001 -1.3677437613E-001  +1.9057947248E-001 -9.5838161720E-002  +1.9639058658E-001 +1.0384365234E-001  +5.1984570986E-002 -8.9488170193E-002 
13400000000.000 -4.1593327782E-002 +1.4321853847E-001  -1.1818104428E-001 +1.4547720383E-001  -1.0562552908E-001 +1.8691887596E-001  +8.1183955424E-002 -9.6600885165E-002 
13600000000.000 -6.0124394520E-002 -2.9142889341E-002  -2.0185542916E-002 -2.0421885155E-001  -2.2475211678E-001 -7.3415513489E-002  -5.3884161872E-002 +3.1600698928E-002 
13800000000.000 +7.0535305852E-002 -5.7810190983E-002  +1.6573044972E-001 +1.3004184259E-001  -5.0110618566E-002 -2.1978210101E-001  +3.0213106576E-002 -6.1571386699E-003 
14000000000.000 +1.0478468244E-002 +3.9631415862E-002  -1.9759530012E-001 +2.7012918731E-002  +1.8920168950E-001 -9.2664587465E-002  +3.4701353823E-002 +2.0126581536E-002 
14200000000.000 -1.6434348445E-001 -3.6543506663E-002  +1.3835232221E-001 -1.1874717973E-001  +1.1010529286E-001 +1.5319867288E-001  +6.8175014340E-002 -1.1342938274E-001 
14400000000.000 +1.1099132612E-001 -3.7652442019E-003  -6.7571131912E-002 +1.7628100596E-001  -1.9262044480E-001 +6.8313517100E-002  -4.7313115921E-002 +8.5204986043E-002 
14600000000.000 +2.2849861369E-002 +6.3004585317E-003  -8.3477221901E-002 -1.7558525366E-001  -8.8425093422E-002 -1.7494802758E-001  +9.4588625270E-003 -2.8563416548E-002 
14800000000.000 -8.4351847108E-002 -4.8745783223E-002  +1.6694036556E-001 +6.8564051088E-002  +1.2970130983E-001 -1.2839513493E-001  +8.3589311140E-002 -8.8663993654E-003 
15000000000.000 +3.9980553661E-002 -9.0997329352E-002  -1.7344552909E-001 +6.3429252824E-002  +1.4416690718E-001 +1.1444658444E-001  +1.7097265752E-002 -3.2757023753E-002 
15200000000.000 -7.9467858035E-003 +1.5326815003E-001  +1.0728728488E-001 -1.5765904354E-001  -1.0234934821E-001 +1.4710051423E-001  -6.3505810797E-002 +3.2201004233E-002 
15400000000.000 +1.0716120429E-002 -3.5730974466E-002  +4.8620424059E-002 +1.8646035641E-001  -1.5822945461E-001 -8.7503904289E-002  +4.0037118070E-002 +2.4241014373E-002 
15600000000.000 +2.2750870455E-002 -9.6882925607E-002  -1.3800633095E-001 -1.2329664335E-001  +3.1733208195E-002 -1.6830410192E-001  +6.0571304092E-002 -6.5409097276E-002 
15800000000.000 +1.1367453594E-002 +8.2508159467E-002  +1.9918726189E-001 +5.6507121290E-002  +1.8225158022E-001 +2.9592218984E-002  +1.5782432675E-002 +1.1218584150E-001 
16000000000.000 -3.7594631028E-002 -6.9765317380E-002  -1.6892244103E-001 +1.0103887684E-001  -4.3240259753E-002 +1.7424639659E-001  -2.3764870837E-002 -1.2286991599E-001 
16200000000.000 +2.0205192274E-002 +2.4691713481E-002  +7.3103415080E-002 -1.7285219877E-001  -1.6176770457E-001 -1.1130221583E-002  +1.8201992710E-002 +5.9571473086E-002 
16400000000.000 +8.3122752789E-002 +2.6374154410E-002  +6.5814884220E-002 +1.6862410576E-001  -1.2006665978E-002 -1.5817748160E-001  +4.0510917007E-002 +1.6410082745E-002 
16600000000.000 -9.0638064642E-002 -3.1624707288E-002  -1.4320766622E-001 -1.1393002543E-001  +1.5936864007E-001 -5.5110299020E-002  -3.7064521365E-002 -2.8806154449E-002 
16800000000.000 +4.7111681602E-002 +1.8884408109E-002  +1.7995656535E-001 +2.0689773032E-002  +7.7794675848E-002 +1.3847341209E-001  +3.9586856330E-002 +5.5319436385E-002 
17000000000.000 +3.9693498841E-002 +4.4217860547E-002  -1.4446769057E-001 +7.6982401346E-002  -1.2711916703E-001 +6.4577004075E-002  +5.8509447611E-002 -4.8521313754E-002 
17200000000.000 -2.5522077868E-002 +6.5570166939E-003  +2.1355579627E-002 -1.7578884365E-001  -8.8430816844E-002 -1.2841469334E-001  -3.0504525237E-002 +1.1404941585E-001 
17400000000.000 +3.4044838840E-002 -3.9462606732E-003  +1.1489672874E-001 +1.1418375600E-001  +8.7846359067E-002 -1.1561800866E-001  -1.7185773286E-002 -1.0137147170E-001 
17600000000.000 +7.1407405103E-003 -2.8147154274E-002  -1.3357858929E-001 -1.7355034598E-002  +1.0879894472E-001 +4.7316456463E-002  +1.1951405604E-001 +1.8371755595E-002 
17800000000.000 -2.8671554861E-002 +1.1964734515E-001  +1.3531432396E-001 -3.9128347359E-002  -4.6328753258E-002 +1.1580863972E-001  -2.8002762093E-002 +1.1569561508E-001 
18000000000.000 +1.3738515960E-002 -3.3205154449E-002  -8.5276723387E-002 +1.3703328519E-001  -1.3737113920E-001 -3.4610815260E-002  -2.9624392387E-002 -1.3282449187E-001 
18200000000.000 +1.9997002324E-002 -4.8772847437E-002  -3.6958522408E-002 -1.4517851691E-001  -2.4923006277E-003 -1.3037509959E-001  +6.2445120479E-002 +1.0929580355E-001 
18400000000.000 -5.6205098585E-002 +1.3873499787E-001  +8.1207957980E-002 +8.0543566632E-002  +9.9244269303E-002 +5.2042314921E-003  +2.9440396899E-002 +9.1995483249E-002 
18600000000.000 -6.2292476977E-002 -9.8362657118E-002  -1.5221959168E-001 +8.7498483505E-003  -3.1280162253E-003 +1.2566605977E-001  -8.6651599721E-002 -4.5043815535E-002 
18800000000.000 +1.8178089388E-002 +5.3706639202E-002  +1.0331615202E-001 -1.0790886519E-001  -1.2913416577E-001 +5.1817160582E-002  +6.6355556759E-002 -1.6532977248E-002 
19000000000.000 +1.3872020422E-002 +3.4923156187E-002  +7.2960577243E-004 +1.3189244643E-001  -6.6140845321E-002 -9.2865633423E-002  +1.4837763263E-002 +4.2959380773E-002 
19200000000.000 -1.0316927936E-001 -1.4996185809E-001  -3.1132383700E-002 -1.0933964400E-001  +9.3527520689E-002 -2.6903076417E-002  -8.7651009075E-002 +7.8105846625E-002 
19400000000.000 +6.5877457602E-002 +7.0162369637E-002  +1.3101540623E-001 +7.7907731826E-002  +6.9506609788E-002 +1.0880372165E-001  +1.0653760772E-001 -8.2816775964E-002 
19600000000.000 -3.0450642643E-003 -1.5279891963E-002  -1.4406977667E-001 +4.9826457613E-002  -8.2267963178E-002 +1.0508312948E-001  -5.1329128964E-002 +7.1690889757E-002 
19800000000.000 -6.0061919566E-003 -6.1224405755E-002  +7.0436352750E-002 -1.0855878910E-001  -8.5438604909E-002 -7.9459177965E-002  +6.5465091865E-003 +4.3275811707E-002 
20000000000.000 +3.8986477662E-002 -1.0320398721E-002  +1.1922397567E-002 +1.4099130326E-001  +1.0881578552E-001 -6.3523583724E-002  -2.3486863792E-002 +8.6066537730E-003 
20200000000.000 -1.6699441805E-002 -3.8385490775E-002  -8.1919852602E-002 -1.1432564055E-001  +1.2950682088E-001 -1.1741364501E-002  +2.0161521249E-002 -3.7239158312E-002 
20400000000.000 -4.3276047258E-002 +4.1050154303E-002  +1.1536395131E-001 +3.1132978998E-002  +2.7799158492E-002 +1.0717190618E-001  +5.4772137896E-002 +2.6051698347E-003 
20600000000.000 +7.5723070115E-002 -2.3879043417E-002  -1.1945013296E-001 +2.7317476436E-002  -1.1144109363E-001 +1.1439305764E-002  -6.3484055305E-002 +1.1231484201E-001 
20800000000.000 +4.0125401494E-002 +4.8062334218E-003  +7.0630590064E-002 -1.2220429139E-001  -1.9592305564E-002 -1.2606519085E-001  +7.9214693664E-003 -8.2275974694E-002 
21000000000.000 -7.3990831922E-002 -6.4652435082E-002  +4.9885416527E-002 +8.7913157594E-002  +9.3987383687E-002 -1.2114740701E-002  +1.2080232513E-001 +2.5608253149E-004 
21200000000.000 +8.4100014873E-002 +5.3139581234E-002  -7.2917644861E-002 -6.6851963724E-002  -1.1106590018E-002 +8.7223585638E-002  -1.2768079694E-001 +8.5347696196E-002 
21400000000.000 +3.7306459106E-003 +1.7708679593E-003  +1.3118049571E-001 -9.8730709295E-004  -1.1384154034E-001 +2.5308232533E-002  +7.2388095429E-002 -2.1715467527E-002 
21600000000.000 -1.5816592212E-003 +1.8588274486E-002  -9.2965435457E-002 +9.2503333725E-002  -8.3350862890E-002 -7.6318242370E-002  +1.6370727949E-002 +1.7318020399E-002 
21800000000.000 +1.8379430003E-002 -3.5350345429E-002  +2.6292039103E-002 -8.3123562263E-002  +3.3391761381E-002 -7.0702650577E-002  +1.1013531138E-002 +6.7488893279E-003 
22000000000.000 -1.3895052519E-002 +3.1385157646E-002  +2.9144177621E-003 +1.0635828360E-001  +7.0840978753E-002 +5.7103750992E-002  -2.5823415479E-002 +3.1299595505E-002 
22200000000.000 +3.9904456366E-002 +1.0364958109E-001  -9.7993226926E-002 -7.2068563859E-002  -3.9408435517E-002 +9.7153635959E-002  -3.9613327303E-003 +3.7569218669E-002 
22400000000.000 +8.3845547968E-004 -1.1701906602E-001  +1.0256171206E-001 -1.6827772751E-002  -8.8776389999E-002 -5.2780248630E-003  +1.3223528955E-001 -3.1205002689E-002 
22600000000.000 +1.3595312772E-002 +8.7999117243E-002  -7.9166553145E-002 +4.2664088969E-002  +1.2275274862E-002 -7.3637247166E-002  -1.4023466429E-001 +5.1360292492E-002 
