!  2-Port S-parameters saved by WinCal
! VAR MeasName=S-Parameters (CALIBRATED_DATA) read from VNA (MS4647B)
! VAR MeasDate=27-Apr-22 17:16:32
! VAR NAME=RAW_stepline_5mm_1
! VAR FILENAME=RAW_stepline_5mm_1.S2P
! VAR DATE=27-Apr-22 17:16:32
! VAR PHYS_PORTS=1,2
! VAR ObjTypeName=DATASET
! VAR IndexType=Frequency
! VAR ChuckHeaterState=Unknown
! VAR ChuckTemp=NaN
! VAR ChuckTempUnits=Unknown
!
# Hz S RI R 50
200000000.000 -3.8622992246E-002 -8.3886784792E-002  -2.6870982238E-001 -6.7931730710E-001  -3.8783236957E-001 -6.3375610769E-001  +1.0214594751E-002 -5.2211642418E-002 
400000000.000 +1.1779266100E-001 -7.7212391594E-002  -4.0169223254E-001 +5.5600044701E-001  -2.2563962360E-001 +6.6132720588E-001  -1.1689556501E-001 -5.2309789033E-003 
600000000.000 +1.1133759810E-001 -6.5104494541E-002  +5.9260588711E-001 +1.5240288862E-001  +5.4746130587E-001 -2.5774078095E-001  -9.8705415631E-002 +6.6405675939E-002 
800000000.000 +6.3477874460E-002 -2.5692518525E-001  -2.7636045804E-001 -5.9650937069E-001  -6.0041919611E-001 -2.3107746621E-001  +2.0082369726E-001 +5.3894089613E-002 
1000000000.000 +6.7698696121E-002 -1.6318980585E-001  -1.5561263113E-001 +6.8890216881E-001  +3.9624725007E-001 +5.4837917517E-001  +1.5575926386E-001 -7.1024396920E-002 
1200000000.000 +1.2373638748E-001 -1.4735583488E-001  +6.6765603147E-001 -3.0428353898E-001  +6.3981023175E-002 -6.8677082666E-001  -2.0509180986E-002 -9.6378449869E-002 
1400000000.000 +1.1010855981E-001 -2.4155141521E-001  -6.6098526907E-001 -2.9435694200E-001  -4.9070124061E-001 +4.5205228876E-001  -9.9603434464E-002 -9.3729749664E-002 
1600000000.000 +1.1524278786E-001 +4.0903071243E-002  +2.1803988118E-001 +6.0184855656E-001  +5.6098617741E-001 -1.7198342680E-003  -1.1322585929E-001 +1.8470837135E-002 
1800000000.000 +3.5327569688E-002 +1.0086211493E-001  +2.7007251882E-001 -4.3549600641E-001  -3.3783544103E-001 -2.9269063622E-001  -3.4891880189E-002 +3.1176863598E-002 
2000000000.000 +2.1266381978E-001 +3.8079837590E-002  -4.2191437744E-001 +5.6218135687E-002  +1.9659293843E-002 +3.5802351006E-001  +2.2357129984E-001 +7.0062579892E-002 
2200000000.000 +5.3661104914E-002 -2.3155852470E-001  +2.4647383092E-001 +3.2435869696E-001  +2.7634453844E-001 -2.2881173398E-001  -5.6367021582E-002 -2.8507933953E-001 
2400000000.000 -6.9381919707E-002 -1.6906481939E-001  -8.0780215877E-002 -4.2986372078E-001  -3.8352840040E-001 +1.0273411861E-001  -1.3225530567E-001 +1.0133718028E-001 
2600000000.000 -6.5337299135E-002 +2.3057172079E-001  -7.3894491280E-001 +9.8947080082E-003  -1.1344895979E-001 +4.9944160641E-001  +1.4615966736E-001 -6.2228765328E-002 
2800000000.000 -1.5464867346E-001 -3.4188256734E-001  +3.5946722117E-001 -7.4965446851E-001  -6.7575065361E-001 +1.2873676444E-001  -4.7956412845E-002 +2.6462388828E-001 
3000000000.000 +1.4591349934E-001 -1.5022645416E-001  +3.9333797088E-001 +7.3596562094E-001  -3.9547949682E-001 -6.0671786884E-001  -1.3216271626E-001 +2.7305069085E-002 
3200000000.000 -3.4675960578E-002 -2.9504733028E-002  -7.8912456246E-001 -3.1992636447E-002  +3.2703884855E-001 -6.1020045119E-001  +7.9437950245E-002 -1.1740839960E-002 
3400000000.000 -6.1979494396E-002 +2.1567991810E-002  +3.9792943972E-001 -7.0589389294E-001  +7.2883512503E-001 +7.7211522322E-002  +1.4276603819E-001 +4.6319835215E-002 
3600000000.000 -4.9675596317E-004 -2.3442041325E-001  +2.3476932819E-001 +7.7204684012E-001  +2.0939074362E-001 +7.9266184049E-001  +2.6499660534E-002 +2.1935459438E-001 
3800000000.000 +6.7868142713E-002 -3.0167521309E-002  -7.8325758155E-001 -3.5559084838E-001  -6.8464095305E-001 +4.0065956813E-001  -3.0058102277E-002 +5.6574145719E-002 
4000000000.000 +3.5116241568E-002 +4.1829902008E-001  +7.5213173130E-001 -3.6152255172E-001  -5.5760504417E-001 -4.6596914615E-001  -5.7160363815E-002 -2.7181990026E-001 
4200000000.000 -9.4590314762E-002 -9.7348571464E-002  -2.4393053176E-001 +8.5414186109E-001  +2.9000627979E-001 -7.8492116880E-001  +9.9521382579E-002 +4.8105308226E-002 
4400000000.000 +1.7611425560E-001 -3.5703174589E-001  -3.9569092409E-001 -6.8801916830E-001  +8.3073037476E-001 +9.6227436390E-003  -4.5113174855E-002 +3.1542425267E-001 
4600000000.000 +5.2938280890E-002 +2.3778554976E-001  +8.0456221371E-001 +1.2993900242E-001  +1.2534273859E-001 +7.9293921661E-001  -1.7818517763E-001 -1.4683776390E-001 
4800000000.000 -4.5327628438E-001 +9.0573532930E-002  -6.4382122146E-001 +3.4677909437E-001  -6.4504611233E-001 +2.1913182551E-001  +2.6141631144E-001 -3.2715948515E-001 
5000000000.000 +1.3800937545E-001 -4.8189764355E-002  +2.0664827857E-001 -7.5956290914E-001  -5.6994952538E-001 -6.1653458958E-001  +7.2848082760E-002 +1.0992468689E-001 
5200000000.000 +3.2160238070E-001 +1.7138254185E-001  +3.7503195836E-001 +6.0832313850E-001  +5.2571225720E-001 -6.1780989868E-001  -1.7571478465E-001 +3.7229004230E-001 
5400000000.000 -4.3564815867E-001 +1.3717993842E-001  -6.4857532536E-001 -2.4233541170E-001  +5.9804591062E-001 +4.2876841993E-001  -1.0816748911E-001 -3.7042156773E-001 
5600000000.000 -3.6907825607E-002 -2.4786043313E-001  +5.8754889420E-001 -3.0445910742E-001  -1.1764238608E-001 +7.1151272169E-001  +2.5678911143E-001 -6.4755968917E-002 
5800000000.000 +2.3817905929E-001 +4.9693155758E-002  -1.8807419015E-001 +6.3224579956E-001  -7.6430741651E-001 -3.1559473489E-002  -1.3229999231E-001 +2.6351750771E-001 
6000000000.000 -1.2391677787E-001 +1.6839772959E-001  -3.3200080347E-001 -4.8404132750E-001  -1.3738836259E-001 -6.8673313107E-001  -3.0419345008E-001 -1.3608251881E-001 
6200000000.000 -1.5583135271E-001 -2.7872148151E-001  +4.9299219122E-001 +2.5314916445E-001  +6.0460495594E-001 -8.1113332594E-002  +3.8779619019E-001 -1.2515236596E-001 
6400000000.000 +2.7269224473E-002 -2.7464362978E-002  -5.0825148351E-001 +3.2943517699E-001  +4.2397427647E-001 +5.1734797108E-001  -6.2951608482E-002 +4.1694376559E-002 
6600000000.000 +1.4926820798E-001 +3.1591780254E-001  +2.3045681623E-001 -4.9792605725E-001  -4.5503885984E-001 +3.8981655774E-001  -2.7825949853E-001 +1.0332126300E-001 
6800000000.000 -2.6098631889E-001 -4.5676367170E-002  +1.4180823922E-001 +5.6220909061E-001  -4.7094384737E-001 -4.2663104568E-001  +6.1147770737E-002 -2.3382106039E-001 
7000000000.000 +1.6514334283E-001 -2.7623706350E-001  -4.6710509878E-001 -2.2665051353E-001  +1.4421793431E-001 -4.9894948129E-001  +3.3635639290E-001 +7.9355789399E-003 
7200000000.000 +3.8530671868E-002 +1.9322869462E-001  +5.5557182032E-001 -9.9633688463E-002  +5.3351761443E-001 +7.7637839518E-002  -2.1093316680E-002 +1.7758322240E-001 
7400000000.000 -3.7644835062E-001 +5.7358153194E-002  -2.7776917640E-001 +3.7535531408E-001  +7.9756478098E-003 +4.7379405139E-001  -4.1023448334E-001 -1.8108476364E-001 
7600000000.000 +2.2579819868E-001 -2.3919087491E-001  +2.7644335114E-002 -5.2537128702E-001  -5.0837420043E-001 +1.1099479793E-002  +3.6388314912E-001 -6.0750908549E-002 
7800000000.000 -7.0298790352E-003 +7.8400807002E-002  +3.9558677004E-001 +3.3175274091E-001  -2.1214046605E-001 -4.1293613314E-001  +7.9380908105E-003 +1.5894747370E-001 
8000000000.000 -1.6343388275E-001 +6.0757631264E-002  -4.5733156291E-001 -5.1220400909E-002  +3.9759808486E-001 -1.9274375252E-001  -2.3514260798E-001 -1.1246260622E-002 
8200000000.000 -1.3853893443E-001 -1.5730309489E-001  +3.2023289106E-001 -3.0343210227E-001  +2.7867282753E-001 +3.2300178457E-001  +1.0695340504E-002 -1.5000468279E-001 
8400000000.000 +2.9509670350E-001 +7.0721994558E-002  -1.4915915315E-001 +3.6685828261E-001  -2.6738810300E-001 +2.7528449137E-001  +1.5018202581E-001 +1.4864269190E-001 
8600000000.000 +1.0206576097E-002 +9.9910283714E-002  -2.1475604915E-001 -3.3258541755E-001  -3.3523452958E-001 -1.9680557699E-001  +1.0619785968E-002 +3.4197502733E-002 
8800000000.000 -2.0192867877E-001 -2.2664793125E-001  +3.3707472847E-001 +7.0734507503E-002  +5.9220732586E-002 -3.4263011307E-001  -2.6382831031E-001 -1.6383478525E-001 
9000000000.000 +1.6400989856E-001 +3.0815280120E-002  -3.1147107057E-001 +1.6060221447E-001  +3.6432133491E-001 +3.3041002499E-002  +1.8773672199E-001 -6.1085375603E-002 
9200000000.000 -1.1248262167E-001 +2.5782934461E-001  +9.6100377066E-002 -2.7928032914E-001  +1.8224973520E-002 +2.8942226255E-001  +3.4408712546E-002 +3.0501251333E-001 
9400000000.000 -4.6700543533E-002 -9.6792642843E-002  +1.1572973823E-001 +2.9930551305E-001  -3.0867574113E-001 +7.9942074512E-002  -1.5040666159E-001 -7.6547336940E-002 
9600000000.000 +7.1549896397E-002 -1.5009260263E-001  -2.9363368864E-001 -1.1655582470E-001  -1.5018767694E-001 -2.8168681466E-001  +8.3545005451E-002 -1.5828644816E-001 
9800000000.000 +1.1618685351E-002 +1.4110197462E-001  +2.7750107315E-001 -9.3348085728E-002  +2.3830886394E-001 -1.9031446024E-001  +1.0858001508E-001 +1.5922461873E-001 
10000000000.000 -1.7981961417E-001 -5.6968338319E-002  -1.1871414112E-001 +2.3022084276E-001  +1.4072666471E-001 +2.2190395827E-001  -1.3068543100E-001 +1.5283981957E-001 
10200000000.000 +1.3690022541E-001 -7.2981454145E-002  +2.1825367110E-002 -2.7716477371E-001  -1.2532337854E-001 +2.4353752920E-001  -6.1985464390E-002 -1.6202430816E-001 
10400000000.000 +7.5858581322E-002 +1.3070228629E-001  +1.9821914090E-001 +1.9386656235E-001  -2.8437515639E-001 -1.0152938844E-001  +8.4185268075E-002 -8.3090777528E-002 
10600000000.000 -1.6902817346E-001 -1.3974489743E-001  -2.4210727365E-001 -1.2089288113E-002  +1.0877663607E-001 -2.2063798704E-001  -4.4381520828E-002 +2.5508782357E-001 
10800000000.000 +2.6561748286E-002 -4.7314588784E-002  +2.2348435090E-001 -1.2392356723E-001  +2.6378076881E-001 +3.0256445526E-002  -7.9369826137E-002 -8.4756729477E-002 
11000000000.000 +1.0726315402E-001 +1.2332437913E-001  -9.5466673617E-002 +2.3261172343E-001  +5.8564146710E-002 +2.5498784487E-001  +1.3490125263E-001 -1.2271109180E-001 
11200000000.000 -1.1397514063E-001 +3.4784783349E-002  -8.7390819466E-002 -2.3502545036E-001  -2.5642525569E-001 +9.7846941172E-002  -2.9766426778E-002 +3.1029016286E-002 
11400000000.000 +1.0976602409E-001 -1.8583537640E-001  +1.9762201542E-001 +1.1173485300E-001  -1.2834122946E-001 -2.1872468459E-001  -7.6343171428E-002 +3.5767279932E-002 
11600000000.000 +8.3447767728E-002 +4.5834575368E-002  -2.1439219746E-001 +7.6318900251E-002  +1.9786803355E-001 -1.4904608478E-001  +3.1031396435E-002 +5.1197735689E-002 
11800000000.000 -1.9534666312E-001 +1.2701511932E-001  +7.7300986356E-002 -1.9911727189E-001  +1.8546514922E-001 +1.4414891030E-001  +1.4552141750E-001 -1.3034780589E-001 
12000000000.000 +1.4463471788E-001 -9.3229751734E-002  +6.8516655876E-003 +2.1232420573E-001  -1.6719459965E-001 +1.6400307355E-001  -7.6688140816E-002 +1.3483432206E-001 
12200000000.000 -1.3311786043E-003 +9.7034009240E-003  -1.4454681640E-001 -1.6765596952E-001  -2.0279625445E-001 -1.3695228499E-001  -8.5773554168E-002 -2.9854319086E-002 
12400000000.000 -1.1520227809E-001 +5.9307979889E-002  +1.8700131877E-001 +4.3896416649E-002  +9.7360687434E-002 -1.8856136351E-001  +1.5861613413E-001 -5.7737786425E-002 
12600000000.000 -6.5076717634E-002 -9.1819335252E-002  -1.5190877392E-001 +1.2103609256E-001  +2.1116586793E-001 +6.1218823792E-002  -5.0330339627E-002 +1.2976645642E-001 
12800000000.000 +9.5144615980E-002 -1.8330830179E-002  +1.6855069237E-002 -1.9923309260E-001  +1.0731809346E-002 +2.3048585316E-001  -6.4128255505E-002 -1.1179034939E-001 
13000000000.000 +6.6965377859E-002 +3.3965706544E-002  +1.2651518537E-001 +1.6117074131E-001  -2.2362300380E-001 +6.4454879998E-002  +7.3807624809E-003 +6.9993512766E-002 
13200000000.000 -1.2426492919E-001 -2.3165940901E-001  -1.4891093636E-001 -8.0821249534E-002  -2.1722911976E-002 -1.7508999204E-001  +1.3944905566E-001 +2.4577368188E-002 
13400000000.000 +8.6402414420E-002 +1.1744026765E-001  +1.8366411458E-001 +4.9295335248E-002  +2.1686735366E-001 +2.0085337297E-002  -3.1678046882E-002 +6.9125400599E-005 
13600000000.000 -3.9922679890E-002 +5.1948733722E-002  -1.4632689334E-001 +1.4055404633E-001  +8.0192454247E-002 +2.1954444937E-001  -7.0646581331E-002 -2.6736866748E-002 
13800000000.000 -2.4694263635E-002 -7.8680669342E-002  +5.2011630326E-004 -1.9347855325E-001  -1.3088877714E-001 +1.6007612827E-001  +1.1506349408E-001 +9.3833369026E-003 
14000000000.000 +6.5018273480E-002 -3.1380857551E-002  +1.2435179208E-001 +1.2841671375E-001  -1.6714795428E-001 -8.7215498587E-002  +4.5915704633E-003 +1.3883413350E-001 
14200000000.000 -8.8403985271E-002 +3.9921895237E-002  -1.9356340012E-001 -4.8780786261E-002  +6.7384659156E-002 -1.9488466175E-001  -5.8420285096E-002 -1.0423193686E-001 
14400000000.000 +6.9435224562E-002 +2.6108694810E-002  +1.6948446918E-001 -8.6088369186E-002  +1.8998988906E-001 +7.9572043495E-002  -1.6793602143E-002 +5.3983258370E-002 
14600000000.000 +6.9416017977E-002 -5.6145398253E-002  -6.0433465346E-002 +1.6412758526E-001  -5.7449636559E-002 +1.6613239472E-001  +1.8287036866E-002 +6.5656427336E-002 
14800000000.000 -4.0297151881E-003 +2.8179214022E-003  -7.4209346719E-002 -1.7822823944E-001  -1.9421339590E-001 -2.0102546592E-003  +1.8349850431E-002 +4.4542402020E-002 
15000000000.000 -1.1138691191E-002 -4.4947279718E-002  +1.7927911795E-001 +6.2850291208E-002  -3.9928570901E-002 -1.8480486417E-001  -7.5006071084E-004 -8.9944625668E-002 
15200000000.000 -3.2697099432E-002 +9.8792212898E-002  -1.8192145158E-001 +6.4092331010E-002  +1.7185794268E-001 -5.8565954504E-002  -1.5541398891E-002 +4.6918576795E-002 
15400000000.000 +5.8680300306E-002 -1.2636181145E-002  +6.9485406416E-002 -1.7459163931E-001  +7.3025212169E-002 +1.6095821997E-001  +1.7525812512E-003 +8.9467664515E-002 
15600000000.000 -6.7976303096E-003 -3.8456827554E-002  +5.2676360625E-002 +1.9125482692E-001  -1.2724688727E-001 +1.3283741275E-001  -7.0238643285E-004 -7.4414378812E-002 
15800000000.000 -5.2594808999E-003 +4.2470241581E-002  -1.4677273594E-001 -1.4317254928E-001  -1.4411968318E-001 -1.1195685627E-001  +4.2146609023E-002 +1.0034116816E-001 
16000000000.000 +2.2791511741E-002 -5.1517983580E-002  +1.9448994016E-001 -2.2245070966E-004  +1.2442927100E-001 -1.2627506987E-001  -1.8815229643E-002 -6.8194894942E-002 
16200000000.000 +3.2756043247E-004 +7.3484234719E-002  -1.4720202427E-001 +1.2593119753E-001  +1.4442230708E-001 +8.4826503997E-002  -2.3673773252E-002 +6.4191113153E-002 
16400000000.000 +5.2939100793E-002 +2.5268355539E-003  +6.1399606779E-003 -1.8374657185E-001  -5.2391735255E-002 +1.5286610997E-001  +4.6568682031E-002 -1.4971285959E-002 
16600000000.000 -6.3565706888E-002 -4.1140873144E-002  +9.1052988393E-002 +1.5618508119E-001  -1.6639892686E-001 -7.0590356374E-003  -1.7104748237E-002 -1.0609340387E-003 
16800000000.000 +3.7315508381E-002 +5.9801150883E-002  -1.6112131705E-001 -8.8472187668E-002  -1.9666453901E-002 -1.5971894880E-001  +2.6566255741E-004 +8.0017505394E-002 
17000000000.000 +9.0395969810E-003 +3.0400814494E-002  +1.6589953524E-001 -3.5715114246E-002  +1.4495564263E-001 -2.8144921961E-002  +4.3205758202E-002 -6.3658830479E-002 
17200000000.000 -7.0742853764E-003 -3.3751715410E-003  -6.3946438249E-002 +1.6168941175E-001  +5.2050953383E-002 +1.4424966240E-001  -1.2419513220E-002 +1.1960159550E-001 
17400000000.000 +4.0248932780E-002 +2.4829406707E-002  -8.0500962651E-002 -1.4159177927E-001  -1.1667369369E-001 +8.8121650593E-002  -1.9258054384E-002 -6.9868916242E-002 
17600000000.000 -1.2472989167E-002 -2.1705584404E-002  +1.3411509010E-001 +4.3453605176E-002  -1.0286388543E-001 -6.9855627717E-002  +1.0046957953E-001 +2.2658533715E-002 
17800000000.000 -2.7332042709E-002 +1.0795383503E-001  -1.3955065252E-001 +2.2661607521E-002  +6.0378468862E-002 -1.0987013903E-001  -2.7788298125E-002 +1.0707793482E-001 
18000000000.000 +1.5949466033E-002 -2.7482302357E-002  +9.6604582259E-002 -1.2497517916E-001  +1.3048777134E-001 +4.7640912283E-002  -2.8528194346E-002 -1.2398237609E-001 
18200000000.000 +1.0277026132E-002 -4.8767080507E-002  +2.3318947174E-002 +1.4763768247E-001  -9.7278308929E-003 +1.2998014279E-001  +5.1453539460E-002 +1.1534161658E-001 
18400000000.000 -5.4954881459E-002 +1.3535322306E-001  -7.8785249004E-002 -8.2629226869E-002  -9.8834803230E-002 -8.0297298054E-003  +2.8122653753E-002 +8.9279912112E-002 
18600000000.000 -6.2836090480E-002 -9.4996670895E-002  +1.4949443311E-001 -1.0310828271E-002  +1.8483838448E-003 -1.2352837169E-001  -8.5414129329E-002 -4.5166315104E-002 
18800000000.000 +1.9150700241E-002 +5.0313535599E-002  -9.5326581537E-002 +1.0977236773E-001  +1.2314286653E-001 -5.6188601431E-002  +6.6373469436E-002 -2.0817874049E-002 
19000000000.000 +2.1364871277E-002 +4.1444342422E-002  -9.6298928382E-003 -1.2442790668E-001  +6.8530298971E-002 +8.3325748901E-002  +2.2278207061E-002 +3.8508213295E-002 
19200000000.000 -1.1282640124E-001 -1.4480610831E-001  +3.8972328538E-002 +1.0351852360E-001  -8.8502768513E-002 +3.3449495934E-002  -8.7007778075E-002 +8.4061380373E-002 
19400000000.000 +5.7677217719E-002 +6.4051359346E-002  -1.3673281448E-001 -5.5861268192E-002  -8.2136503503E-002 -9.4479132384E-002  +1.1087686313E-001 -8.7527077137E-002 
19600000000.000 +9.2679126008E-003 -2.2251235055E-003  +1.2184029568E-001 -7.3132179418E-002  +5.5138512812E-002 -1.1161689329E-001  -3.0198247887E-002 +6.1426024518E-002 
19800000000.000 -2.7218932666E-002 -5.3864313707E-002  -4.6816898768E-002 +1.1185812280E-001  +9.1777999812E-002 +5.9310958773E-002  +1.8812324022E-002 +5.1268168837E-002 
20000000000.000 +3.8060016199E-002 -2.9485472383E-002  -4.2843475911E-002 -1.2822968847E-001  -8.6917593449E-002 +8.3273183497E-002  -3.4760415551E-002 +6.3644794461E-003 
20200000000.000 -3.1065710045E-003 -2.6172980712E-002  +1.0398517328E-001 +7.9682236343E-002  -1.1207473214E-001 +4.5375053474E-002  +1.8510599510E-002 -6.4726931036E-002 
20400000000.000 -6.6504588114E-002 +5.4528074490E-002  -1.0613695138E-001 +7.9662892357E-004  -4.9212570962E-002 -8.5214502160E-002  +8.0659245821E-002 -7.7533728525E-003 
20600000000.000 +7.0475319959E-002 -5.3534893203E-002  +1.0218658386E-001 -5.9957170215E-002  +9.9627368543E-002 -4.2883146005E-002  -6.0269459186E-002 +1.2432228182E-001 
20800000000.000 +5.0567331559E-002 +2.0654267815E-002  -1.5360685337E-002 +1.3081126826E-001  +6.3201543807E-002 +1.0078410386E-001  -1.3655413511E-002 -1.1144443186E-001 
21000000000.000 -1.0314596692E-001 -5.4028913319E-002  -6.3469710316E-002 -5.5999263318E-002  -7.1110339171E-002 +3.4974396081E-002  +1.2775935273E-001 -3.3097978716E-002 
21200000000.000 +8.4773188227E-002 +1.6617008370E-002  +8.9221199896E-002 +3.8337339737E-002  -1.7865467621E-002 -8.4329392466E-002  -1.0976406299E-001 +9.3318136881E-002 
21400000000.000 +2.5006638311E-002 -1.1145508982E-004  -1.1172737416E-001 +5.8492072634E-002  +8.6287808566E-002 -7.1708891156E-002  +6.1298562065E-002 -2.7577970063E-002 
21600000000.000 -3.5518793448E-002 +3.3720907426E-002  +2.5335225317E-002 -1.0883835672E-001  +9.4638992386E-002 +1.7638931993E-002  +1.5177391335E-002 -3.3797305659E-002 
21800000000.000 +6.7731169506E-003 -7.0594011701E-002  +5.4885562218E-003 +7.5614000821E-002  -4.4103861363E-003 +6.7819936287E-002  +3.8536250604E-002 -6.0704809304E-003 
22000000000.000 +3.4553842416E-002 +2.1165665958E-002  -5.7531476399E-002 -9.1797848213E-002  -9.1428887416E-002 -1.3568415302E-002  -2.1914647354E-002 +4.4205853718E-002 
22200000000.000 +3.1013094264E-002 +1.1724400502E-001  +1.1342966741E-001 +2.8652960522E-004  -2.3587410963E-002 -9.4538698571E-002  -4.0818769587E-003 -7.5226766937E-003 
22400000000.000 -2.3409059735E-002 -1.5369485020E-001  -6.2852508400E-002 +5.2567518544E-002  +6.2393654419E-002 -3.1885561283E-002  +1.6792123136E-001 -6.2299543714E-002 
22600000000.000 +5.7798179039E-002 +6.9379569682E-002  +4.7844887202E-002 -7.4137077047E-002  +2.4040439789E-002 +6.9024033249E-002  -1.2798568411E-001 +7.5776666042E-002 
