!  2-Port S-parameters saved by WinCal
! VAR NAME=RAW_stepline_0.5mm_2
! VAR DATE=08/08/2022 23:06:16
! VAR FILENAME=RAW_stepline_0.5mm_2.S2P
! VAR MeasName=S-Parameters (CALIBRATED_DATA) read from VNA (MS4647B)
! VAR MeasDate=27-Apr-22 16:21:21
! VAR PHYS_PORTS=1,2
! VAR ObjTypeName=DATASET
! VAR IndexType=Frequency
! VAR ChuckHeaterState=Unknown
! VAR ChuckTemp=NaN
! VAR ChuckTempUnits=Unknown
!
# Hz S RI R 50
200000000.000 -2.2739608239E-002 -8.4707589013E-002  -2.4268445803E-001 -6.8859083527E-001  -3.6415546356E-001 -6.4706096211E-001  +1.9144204625E-002 -5.8728492147E-002 
400000000.000 +1.1856971958E-001 -8.9813542156E-002  -4.3662447092E-001 +5.2858770959E-001  -2.6800495391E-001 +6.4530246996E-001  -1.3025720943E-001 -9.9559551994E-005 
600000000.000 +7.1539070127E-002 -6.4854200644E-002  +5.7430619071E-001 +2.2100501284E-001  +5.7781393877E-001 -1.9497183029E-001  -5.8729325737E-002 +5.3672785320E-002 
800000000.000 +7.9360631187E-002 -2.2761412548E-001  -1.9851415357E-001 -6.3229127689E-001  -5.7086595976E-001 -3.0762622516E-001  +1.7907512805E-001 +6.3160086588E-002 
1000000000.000 +9.6331260019E-002 -1.8470150410E-001  -2.6561808675E-001 +6.5761263321E-001  +3.0496248828E-001 +6.0593946147E-001  +1.8328115411E-001 -6.1083473381E-002 
1200000000.000 +9.3380319877E-002 -2.2027297785E-001  +7.1968751392E-001 -1.5140411553E-001  +2.1277320303E-001 -6.5331206675E-001  -1.0373360525E-001 -1.3193995040E-001 
1400000000.000 +9.7308089981E-002 -1.9974827634E-001  -5.8664687121E-001 -4.3870260329E-001  -5.8721075359E-001 +3.3409479791E-001  -4.6752651206E-002 -6.2699877416E-002 
1600000000.000 +1.4462537644E-001 +1.1621440576E-001  +4.9310350767E-002 +6.3071983799E-001  +5.3524617037E-001 +1.4716466359E-001  -1.5708983711E-001 -4.3658725635E-002 
1800000000.000 +7.0841265445E-002 +8.3741653570E-003  +4.0572103208E-001 -3.3777469839E-001  -2.3472407863E-001 -3.9584380152E-001  +3.0693364097E-002 +8.7989423564E-002 
2000000000.000 +1.2122936159E-001 +4.5106387105E-002  -4.4191159524E-001 -9.4559853331E-002  -1.0955807738E-001 +3.6461763005E-001  +1.5680020316E-001 +1.2273752966E-002 
2200000000.000 +8.5764729713E-002 -1.9855718282E-001  +1.3018188694E-001 +3.9340481485E-001  +3.4204518104E-001 -1.2969909788E-001  -2.9776745724E-002 -2.5924257633E-001 
2400000000.000 -1.6958788680E-002 -1.4172159819E-001  +8.6624282148E-002 -4.2199029242E-001  -3.9044746310E-001 -5.0762880678E-002  -1.2725926762E-001 +4.3185014860E-002 
2600000000.000 +1.3938124693E-002 +9.1327091058E-002  -6.8973084561E-001 -3.1987710749E-001  -3.2725367263E-001 +4.0999478978E-001  +4.2643195335E-002 -3.1278689371E-002 
2800000000.000 +1.4085935062E-002 -2.6752044276E-001  +6.8331744842E-001 -5.3802662003E-001  -6.9137020129E-001 -1.9578212620E-001  -1.1995877546E-001 +1.4485396306E-001 
3000000000.000 +1.3066472011E-001 +1.2642256406E-002  +3.4326015653E-002 +8.6011498447E-001  -9.0759677174E-002 -7.4567329735E-001  -6.2180472023E-002 -3.5513553895E-002 
3200000000.000 -7.8267078686E-003 -9.1159381209E-002  -6.7887332362E-001 -3.9162642160E-001  +5.7232820018E-001 -3.8361126375E-001  +1.5777487384E-002 +7.8192689609E-002 
3400000000.000 +2.2706644031E-001 -3.5387004105E-002  +7.4886735304E-001 -3.3807468696E-001  +5.6151549750E-001 +5.0360049774E-001  -1.1634460192E-001 +1.2058814396E-001 
3600000000.000 +8.8162114100E-002 -5.7606461050E-002  -2.2907251426E-001 +8.1007602665E-001  -2.5429192723E-001 +8.1844631366E-001  -8.2180012927E-002 +9.0428578545E-002 
3800000000.000 -2.8354454465E-001 -3.7486281961E-002  -4.0261173593E-001 -7.8754035257E-001  -8.1410096421E-001 -9.9210319596E-002  +1.6808991742E-001 +8.6917862806E-002 
4000000000.000 +7.6688540197E-003 +1.8729333564E-001  +8.6327217340E-001 +1.6823570146E-001  -1.8470928720E-001 -7.3833685215E-001  -4.1287828474E-002 -1.0912048516E-001 
4200000000.000 +8.4996390677E-002 +7.5310835410E-002  -7.5282650397E-001 +5.0727739077E-001  +7.3759759101E-001 -4.2088697743E-001  -1.2233464622E-001 -3.4170634605E-002 
4400000000.000 +5.4192538256E-002 -9.8331131743E-002  +1.5411807139E-001 -8.4106328562E-001  +6.6541607287E-001 +5.9599828833E-001  +3.5869070159E-002 +8.3007565886E-002 
4600000000.000 -4.5886882904E-002 -2.7466627580E-002  +5.1063004767E-001 +6.9009007838E-001  -5.0311657405E-001 +6.8401449658E-001  +6.7028201234E-002 +3.6241522274E-002 
4800000000.000 -2.1094099957E-001 -6.6127568212E-002  -8.0487563423E-001 -1.8090856339E-001  -7.2060508281E-001 -2.9104522746E-001  +1.8981626631E-001 -3.6964915019E-002 
5000000000.000 +2.0883866066E-002 +7.6776398032E-002  +6.9633653816E-001 -3.9579784196E-001  +3.0520274814E-002 -8.6024486018E-001  -7.0090447370E-002 +1.4486315230E-002 
5200000000.000 +1.0865601245E-002 -1.3673468547E-001  -2.5875516426E-001 +7.5417888460E-001  +9.0494804034E-001 -4.8992071346E-003  +4.1970803453E-002 +1.8373019064E-001 
5400000000.000 -2.6156712234E-001 -1.0050745401E-001  -3.0368453549E-001 -6.8451612282E-001  +1.2360870436E-001 +7.7734259587E-001  +2.4326319058E-002 -2.4856257581E-001 
5600000000.000 +8.4232692353E-002 +7.5343922228E-003  +6.5849554173E-001 +2.8328779668E-001  -6.6725186703E-001 +3.8448451442E-001  +6.0195673130E-002 -5.8785118788E-002 
5800000000.000 +9.9009211630E-002 +1.0749896328E-001  -6.3672975669E-001 +2.6430149813E-001  -4.7111389617E-001 -6.3569649565E-001  -6.3470875430E-002 +1.0395794445E-001 
6000000000.000 +3.5205806259E-002 -1.0679946360E-001  +2.6328642597E-001 -5.9919300078E-001  +5.6104465040E-001 -5.2160445961E-001  -1.1466542366E-002 +2.7951070910E-002 
6200000000.000 +9.3770714446E-002 -1.9496645154E-001  +1.2676210786E-001 +6.0156160267E-001  +4.8677343497E-001 +4.6822558083E-001  +2.8180481584E-001 +1.0075309518E-001 
6400000000.000 -1.1972808657E-001 +6.8377567512E-002  -5.6848968928E-001 -2.5930831128E-001  -2.1943966657E-001 +6.5196051781E-001  -1.0524710918E-001 -1.3699127461E-001 
6600000000.000 +6.8086766322E-002 +5.5354358607E-002  +6.2705850965E-001 -6.0178682069E-002  -6.4633759187E-001 -2.3621565623E-001  +5.8820203042E-002 +3.8643291569E-002 
6800000000.000 -8.2765496748E-002 -3.6447477840E-002  -4.4954843180E-001 +4.3538228549E-001  +1.5451646274E-001 -6.6857768274E-001  +1.1632438134E-002 +4.9511861900E-002 
7000000000.000 +6.1636832625E-002 -3.0828841766E-002  -2.5949742770E-002 -6.0556832680E-001  +5.9984281763E-001 -1.2076767946E-001  +8.1424147762E-003 +3.9209895293E-002 
7200000000.000 -5.9621835036E-002 +2.9675592422E-002  +3.6055834657E-001 +4.8082958000E-001  +1.7830691669E-001 +5.5164231769E-001  +3.5676572605E-002 -7.8246764832E-003 
7400000000.000 -3.0615714561E-002 -3.7250298256E-002  -5.5570363134E-001 -1.2206905485E-001  -5.3564520621E-001 +2.4378995175E-001  -1.7342489300E-001 -2.8263755165E-002 
7600000000.000 +3.4473258690E-001 -1.4644007328E-002  +4.9931890866E-001 -2.3506965982E-001  -2.6423362281E-001 -4.6903028486E-001  +2.8469701680E-001 +9.2179887607E-002 
7800000000.000 -1.4748711383E-001 -5.9628454129E-002  -1.9816559810E-001 +5.1766011346E-001  +3.4763648832E-001 -3.5981973793E-001  -3.5087093796E-002 -3.4070682488E-002 
8000000000.000 +5.0820285264E-002 -7.6232596350E-002  -1.4423045812E-001 -5.0868558205E-001  +3.8295561492E-001 +3.3923144484E-001  -2.8334861280E-002 -1.2724936574E-001 
8200000000.000 -8.9161287117E-002 +9.2847772642E-002  +4.3274692780E-001 +2.4281473551E-001  -2.5332920763E-001 +4.1372008477E-001  -8.8571862767E-003 +3.0137422986E-002 
8400000000.000 +2.4259391758E-002 +1.1390868509E-001  -4.4303279591E-001 -1.7820931704E-003  -4.0155547367E-001 -1.6071632471E-001  -7.5809162054E-003 +1.2113047014E-001 
8600000000.000 +5.0047843310E-002 -2.2692346919E-002  +2.8214442836E-001 -3.0954134420E-001  +1.1233357445E-001 -3.9574406180E-001  +1.0594352923E-001 -7.0048331375E-003 
8800000000.000 -5.1916384099E-002 -9.2741057956E-002  +1.7197988181E-002 +4.1052400038E-001  +4.1320811391E-001 -3.1299981765E-002  -1.2167295912E-001 -4.7099519460E-003 
9000000000.000 +5.8907631652E-002 +5.7166299380E-002  -2.3835737114E-001 -2.9675156965E-001  +4.4603303214E-002 +3.9465531108E-001  +2.8078384943E-002 -3.9677982947E-003 
9200000000.000 -8.3525375694E-002 +3.8526205343E-003  +3.7651437131E-001 +4.3085746157E-002  -3.5685216515E-001 +1.0632634205E-001  -2.4956185775E-002 +1.1033875162E-001 
9400000000.000 +1.5232228306E-001 -7.4464377748E-002  -2.7648667277E-001 +1.9772876825E-001  -1.6411183525E-001 -2.9511671663E-001  -5.0851032277E-002 -1.4526394850E-001 
9600000000.000 -1.9843756364E-002 -5.1974472210E-002  +9.2104241712E-002 -3.4095418657E-001  +2.9466860917E-001 -2.0342649229E-001  -1.0059023726E-002 -2.6410796531E-002 
9800000000.000 -4.0439089696E-002 +1.8144130842E-002  +1.4620186580E-001 +3.0135943768E-001  +2.5112123863E-001 +2.4273792439E-001  -5.9995963727E-002 +6.7792454372E-002 
10000000000.000 -2.3215906354E-002 +3.0537066790E-002  -2.9685707078E-001 -1.1860489967E-001  -2.5571073893E-001 +1.9967721788E-001  -1.5390085067E-002 +5.0112673874E-003 
10200000000.000 +5.0143981386E-002 +1.1965969165E-001  +2.8960823959E-001 -4.2120202088E-002  -2.7904115252E-001 -7.2698988186E-002  +8.6402716437E-002 -1.4672745551E-001 
10400000000.000 +6.3287949685E-002 +2.5882936260E-002  -2.0707266569E-001 +2.1429948144E-001  +1.0783283421E-001 -3.0608934972E-001  -3.9001193514E-003 -3.2885805065E-002 
10600000000.000 +2.9675905646E-002 -1.0068843261E-001  -1.1134055334E-002 -2.9065172022E-001  +2.7444974236E-001 +1.0629290507E-001  -1.0428086858E-001 +1.1945811654E-001 
10800000000.000 -2.4849585085E-002 +9.0135901222E-002  +1.3874112067E-001 +2.3435195476E-001  -2.3161868005E-002 +2.8185297999E-001  +2.5678599657E-002 -1.1670632256E-001 
11000000000.000 +1.4566172332E-002 +1.6465501238E-002  -2.6125215837E-001 -1.0331249715E-001  -2.8465511818E-001 +7.0574898675E-002  +1.3112461815E-001 +3.5293507343E-002 
11200000000.000 -1.9963816043E-002 +9.4170808418E-003  +2.5251409807E-001 -7.7232319143E-002  -8.6899494338E-002 -2.7653067700E-001  -1.4741386566E-001 +1.4197285621E-002 
11400000000.000 +4.3026531466E-002 -1.9453544042E-002  -1.4111114870E-001 +2.2069547428E-001  +2.6045284505E-001 -1.3308287251E-001  -1.1349323503E-002 -6.7962327800E-002 
11600000000.000 -7.4756547496E-002 +1.4321113701E-002  -5.8957318374E-002 -2.3049658597E-001  +1.3532246815E-001 +2.1932885767E-001  +8.5235476168E-002 +1.0189935230E-001 
11800000000.000 -1.0517496970E-001 +3.2235285229E-002  +2.1850868109E-001 +1.2176695275E-001  -1.9460634982E-001 +1.9186692607E-001  -1.8928386256E-003 -1.0849148920E-001 
12000000000.000 +2.1619415499E-001 +2.0716803123E-002  -2.1464350843E-001 -3.5965937839E-003  -1.5805261225E-001 -1.7545590922E-001  -1.0954787787E-001 -1.6242703108E-002 
12200000000.000 -5.2875654083E-002 -1.0204045372E-002  +2.0701268480E-001 -1.0261815088E-001  +1.9160604969E-001 -1.6984571121E-001  -1.2814032899E-002 +1.2240863906E-002 
12400000000.000 +9.0268685602E-003 -2.5636935771E-002  -9.3281985688E-002 +2.0925524172E-001  +1.9838258288E-001 +1.5722695898E-001  +6.2802378729E-002 +2.4766078608E-002 
12600000000.000 +6.0661634433E-002 +1.5222822110E-002  -1.0617118110E-001 -1.8623213605E-001  -1.0343512563E-001 +2.1840255208E-001  -1.0717994305E-001 +3.2316764887E-002 
12800000000.000 -5.6853982671E-003 +1.1223783157E-001  +1.9129446058E-001 +4.8286472339E-002  -2.2545896215E-001 -2.6677166144E-002  +2.9703261985E-002 -1.7618973783E-001 
13000000000.000 +2.0582261333E-002 -1.8066660536E-002  -1.9802594323E-001 +6.5153696287E-002  +1.6286660816E-002 -2.3632258316E-001  -5.4921666859E-003 +1.4070532911E-001 
13200000000.000 -7.8797789963E-002 -1.2794428754E-001  +1.5396987434E-001 -1.4982246925E-001  +2.2028162055E-001 +4.0489144317E-002  +4.5809775411E-003 -6.7161141113E-002 
13400000000.000 -4.2313894523E-002 +1.7801565194E-001  -7.2307480890E-002 +1.5688514187E-001  -5.2088007231E-002 +1.9120082054E-001  +5.6221446118E-002 -1.3188539076E-001 
13600000000.000 -8.3562190681E-002 -3.5506689278E-002  -6.7627797502E-002 -1.8931818131E-001  -2.3087964685E-001 -1.6879344328E-002  -3.3838808478E-002 +3.0259209561E-002 
13800000000.000 +9.1072928024E-002 -8.3543671388E-002  +1.9033169304E-001 +7.8053216940E-002  -1.0519549948E-001 -1.9359181057E-001  +1.7816033241E-002 +2.1172247360E-002 
14000000000.000 +2.6483277193E-002 +6.7397032359E-002  -1.7343660709E-001 +8.0642316020E-002  +1.4757974065E-001 -1.3837612370E-001  -5.8000664149E-003 -1.1192644182E-003 
14200000000.000 -1.9368393958E-001 -2.4950142234E-002  +9.6739890000E-002 -1.3738989814E-001  +1.3285022223E-001 +1.1216862920E-001  +7.7273626373E-002 -1.5359113127E-001 
14400000000.000 +1.1094480092E-001 -1.9944570758E-002  -2.1381408579E-002 +1.8467612924E-001  -1.6703364499E-001 +1.1193494012E-001  -4.0682460467E-002 +1.0105749693E-001 
14600000000.000 +3.6732555103E-002 +3.6572820080E-002  -1.2979203708E-001 -1.3689836257E-001  -1.3423574328E-001 -1.3472332763E-001  -3.0482416825E-002 -3.9314022856E-002 
14800000000.000 -1.1471745226E-001 -3.3382313819E-002  +1.6695021153E-001 +2.1427159082E-002  +8.5778040496E-002 -1.4687205015E-001  +7.4933656238E-002 -4.0421551189E-002 
15000000000.000 +3.7396820908E-002 -1.1829250290E-001  -1.4439186181E-001 +1.0247314867E-001  +1.6239978217E-001 +6.9646728596E-002  +4.2971504452E-002 -2.7783036180E-002 
15200000000.000 +1.6561547141E-002 +1.5923258582E-001  +5.8721045521E-002 -1.7485630130E-001  -5.7211361305E-002 +1.6359613508E-001  -8.0760928473E-002 +4.7688633785E-002 
15400000000.000 -1.2004455363E-002 -2.4050059432E-002  +9.8634321647E-002 +1.5716200572E-001  -1.6990418386E-001 -3.4883612511E-002  +2.1221055001E-002 -9.2374188844E-003 
15600000000.000 +1.1763390982E-002 -1.2517590636E-001  -1.5587527723E-001 -7.8319123367E-002  -1.2144732071E-002 -1.6076780481E-001  +8.2902475003E-002 -8.7943190621E-002 
15800000000.000 +3.3051194221E-002 +9.1361918590E-002  +2.0329991415E-001 -2.0549595036E-003  +1.8002540217E-001 -2.2398288718E-002  +1.1973813072E-002 +1.2869915718E-001 
16000000000.000 -6.8544262549E-002 -4.9202581869E-002  -1.2197518970E-001 +1.4136939039E-001  +1.2654525459E-002 +1.7016984017E-001  -5.2426341907E-002 -1.4035995058E-001 
16200000000.000 +6.4734030758E-003 -4.9205810309E-003  +1.9404653948E-002 -1.7658624242E-001  -1.4980681796E-001 +3.3076764725E-002  +3.3277793499E-002 +3.7171858361E-002 
16400000000.000 +1.1001586782E-001 +2.4228754083E-002  +1.0709087293E-001 +1.3711277232E-001  -5.4293756980E-002 -1.4256650785E-001  +5.4349145415E-002 +3.5466053699E-002 
16600000000.000 -1.0106030440E-001 -1.2044233769E-002  -1.6681378243E-001 -6.2320108376E-002  +1.3103834363E-001 -9.8293355539E-002  -6.4558424135E-002 -3.3690638159E-002 
16800000000.000 +2.8183933116E-002 -1.1071259234E-002  +1.6365043014E-001 -3.6570497701E-002  +1.0990512867E-001 +9.7736055603E-002  +4.7010553856E-002 +1.5830437503E-002 
17000000000.000 +7.1514269356E-002 +3.6456209843E-002  -1.1185363094E-001 +1.0766253948E-001  -9.9713112582E-002 +9.1662113854E-002  +8.0708974400E-002 -4.6894726477E-002 
17200000000.000 -3.4355637823E-002 +2.9195994084E-002  -3.5233525364E-002 -1.6937432854E-001  -1.2185519040E-001 -9.1603789352E-002  -5.2127817774E-002 +1.2254111282E-001 
17400000000.000 +2.1770315013E-003 -2.4960686592E-002  +1.3446387204E-001 +5.9815366789E-002  +3.7514713978E-002 -1.2626205078E-001  -4.2869737120E-002 -1.3432183559E-001 
17600000000.000 +2.5666887038E-002 -5.4854618916E-002  -1.1972477529E-001 +1.7513940028E-002  +1.0548370151E-001 +1.4638395180E-002  +1.3984617731E-001 -2.7136658810E-003 
17800000000.000 -1.4959014765E-002 +1.4305665687E-001  +1.1628878045E-001 -7.1818222722E-002  -1.3283583338E-002 +1.2028630100E-001  -1.8779168800E-002 +1.3066148359E-001 
18000000000.000 -1.0810452077E-003 -3.8173107268E-002  -3.4437394213E-002 +1.5441204659E-001  -1.3828898702E-001 +1.2102282564E-002  -4.4770860675E-002 -1.5468725579E-001 
18200000000.000 +4.4287049098E-002 -7.8770273037E-002  -7.3753134378E-002 -1.0567992192E-001  -4.1138254501E-002 -1.0424428235E-001  +7.7034110896E-002 +6.4799958381E-002 
18400000000.000 -3.5812770772E-002 +1.6280528311E-001  +9.0743235520E-002 +5.6324830891E-002  +9.1341008419E-002 -1.5884367476E-002  +4.9762346391E-002 +9.7940526285E-002 
18600000000.000 -8.2837934983E-002 -8.0063798368E-002  -1.4108310505E-001 +5.4900433293E-002  +3.5226108606E-002 +1.1983639298E-001  -9.0901338120E-002 -4.1791049861E-002 
18800000000.000 +3.2052212746E-002 +3.9898441058E-002  +5.5614855773E-002 -1.3309999252E-001  -9.8597342818E-002 +9.1197684475E-002  +6.6537057964E-002 -5.1920944962E-002 
19000000000.000 +3.7350962097E-002 +5.9854842128E-002  +3.6243021135E-002 +1.0874194377E-001  -7.9399510255E-002 -5.9166744894E-002  +4.5511863585E-002 +2.5240680604E-002 
19200000000.000 -1.2947078834E-001 -1.3684003440E-001  -5.5625494777E-002 -9.5794940861E-002  +8.1921939089E-002 -4.7593062624E-002  -8.6462439491E-002 +9.6918652146E-002 
19400000000.000 +4.8759854529E-002 +5.9219549693E-002  +1.4607301065E-001 +2.9336679475E-002  +9.9304190750E-002 +7.8029506574E-002  +1.1397030382E-001 -9.4485294489E-002 
19600000000.000 +1.8625873966E-002 +7.1605298575E-003  -1.0452014608E-001 +9.1795387872E-002  -3.3694782930E-002 +1.1716016387E-001  -1.4326992199E-002 +4.9234839173E-002 
19800000000.000 -3.7764967399E-002 -4.9849978444E-002  +3.4481210775E-002 -1.1605406252E-001  -9.7414254473E-002 -4.9196043312E-002  +2.6973717571E-002 +5.5487721813E-002 
20000000000.000 +3.6808940509E-002 -3.5500460736E-002  +5.5673663547E-002 +1.2538004560E-001  +7.9881099531E-002 -9.2451545507E-002  -3.9332789251E-002 +6.6123569339E-003 
20200000000.000 -7.7339914935E-004 -2.4413833114E-002  -1.1093667940E-001 -7.3036537049E-002  +1.0996891540E-001 -5.3923171468E-002  +1.7386197905E-002 -7.0630391442E-002 
20400000000.000 -6.8794975504E-002 +5.5283295517E-002  +1.0754801764E-001 -4.6370451510E-003  +5.2864679953E-002 +8.4633930138E-002  +8.3788917035E-002 -8.8883314796E-003 
20600000000.000 +7.0603156968E-002 -5.4028849124E-002  -1.0411180181E-001 +6.2513202160E-002  -1.0176041190E-001 +4.4908009017E-002  -5.9835998846E-002 +1.2477475982E-001 
20800000000.000 +4.8920985329E-002 +1.9169692366E-002  +1.8722075533E-002 -1.3432851925E-001  -6.2747004756E-002 -1.0523910936E-001  -1.0022351011E-002 -1.1075392363E-001 
21000000000.000 -1.0032532382E-001 -5.7025486944E-002  +6.4262377574E-002 +6.0523844683E-002  +7.5288117896E-002 -3.4017970930E-002  +1.2891387440E-001 -2.8932960331E-002 
21200000000.000 +8.6524741219E-002 +2.2798911436E-002  -8.8750310244E-002 -4.4457287950E-002  +1.3127049897E-002 +8.7162615605E-002  -1.1318553325E-001 +9.2315132547E-002 
21400000000.000 +2.0974258153E-002 +4.4822997504E-004  +1.2049808005E-001 -4.7746896053E-002  -9.5905559304E-002 +6.3742360825E-002  +6.6258017363E-002 -2.6644587969E-002 
21600000000.000 -2.8232772845E-002 +2.6059045515E-002  -4.3072296147E-002 +1.1174556703E-001  -9.7832547508E-002 -3.2847543401E-002  +2.2123766387E-002 -2.0554682233E-002 
21800000000.000 +1.2848597727E-002 -6.1624143519E-002  +2.8210274620E-003 -7.9503453117E-002  +1.2330947214E-002 -7.0294721578E-002  +3.1442167090E-002 -1.4765312559E-004 
22000000000.000 +2.0459208963E-002 +2.9448602560E-002  +4.0374500080E-002 +1.0168827722E-001  +8.8448778738E-002 +3.0256898102E-002  -2.3354131836E-002 +4.0137690438E-002 
22200000000.000 +3.3786756288E-002 +1.1191896214E-001  -1.1516870150E-001 -2.7587898898E-002  +1.1979042377E-003 +1.0183159824E-001  +4.0389278474E-003 +1.0456723408E-002 
22400000000.000 -1.0548668347E-002 -1.4405280130E-001  +7.8774163993E-002 -4.3869916252E-002  -7.3992879053E-002 +2.1532054253E-002  +1.5912117535E-001 -4.5949092304E-002 
22600000000.000 +4.2322402077E-002 +8.1954571170E-002  -6.2783329583E-002 +6.2777772300E-002  -8.9699672450E-003 -7.3022368784E-002  -1.3600861672E-001 +6.6015943358E-002 
