!  2-Port S-parameters saved by WinCal
! VAR NAME=RAW_stepline_1mm_1
! VAR DATE=08/08/2022 23:07:25
! VAR FILENAME=RAW_stepline_1mm_1.S2P
! VAR MeasName=S-Parameters (CALIBRATED_DATA) read from VNA (MS4647B)
! VAR MeasDate=27-Apr-22 16:46:35
! VAR PHYS_PORTS=1,2
! VAR ObjTypeName=DATASET
! VAR IndexType=Frequency
! VAR ChuckHeaterState=Unknown
! VAR ChuckTemp=NaN
! VAR ChuckTempUnits=Unknown
!
# Hz S RI R 50
200000000.000 -2.3849998226E-002 -8.4264752304E-002  -2.4724526890E-001 -6.8651452802E-001  -3.6718620495E-001 -6.4516078970E-001  +1.8544615372E-002 -5.8517258844E-002 
400000000.000 +1.1850679424E-001 -8.9642523932E-002  -4.3147766004E-001 +5.3237544287E-001  -2.6265182684E-001 +6.4704419571E-001  -1.2950165065E-001 -1.2826910743E-004 
600000000.000 +7.4582717757E-002 -6.4830099987E-002  +5.7627760200E-001 +2.1249257712E-001  +5.7444614118E-001 -2.0243370697E-001  -6.2003616368E-002 +5.4965788154E-002 
800000000.000 +7.7544555757E-002 -2.2919853222E-001  -2.0992814698E-001 -6.2746694665E-001  -5.7490629841E-001 -2.9838796091E-001  +1.8022713549E-001 +6.1502478076E-002 
1000000000.000 +9.5614674830E-002 -1.8381622846E-001  -2.5092320445E-001 +6.6174026595E-001  +3.1554176747E-001 +5.9868840998E-001  +1.8288262377E-001 -6.2404116761E-002 
1200000000.000 +9.4031804840E-002 -2.1468574454E-001  +7.1395965471E-001 -1.7065404248E-001  +1.9725131219E-001 -6.5745551749E-001  -9.7608864963E-002 -1.2743950179E-001 
1400000000.000 +9.6536611503E-002 -2.0193537488E-001  -5.9746874322E-001 -4.2116544628E-001  -5.7696839947E-001 +3.4812825366E-001  -4.9589223072E-002 -6.5668957639E-002 
1600000000.000 +1.4602416970E-001 +1.1025581950E-001  +6.9734954381E-002 +6.2845904740E-001  +5.3879686120E-001 +1.3183975986E-001  -1.5622266058E-001 -3.8064049740E-002 
1800000000.000 +6.6303066708E-002 +1.5207696163E-002  +3.9085150808E-001 -3.5220299473E-001  -2.4724256044E-001 -3.8671389737E-001  +2.6365426228E-002 +8.2122503706E-002 
2000000000.000 +1.2934836334E-001 +4.5557246378E-002  -4.4289214358E-001 -7.5118159731E-002  -9.5123151711E-002 +3.6646341625E-001  +1.6121463639E-001 +1.8447160283E-002 
2200000000.000 +8.0302507263E-002 -2.0078669235E-001  +1.4722080404E-001 +3.8660325644E-001  +3.3612550494E-001 -1.4253975323E-001  -3.2797715285E-002 -2.5969559436E-001 
2400000000.000 -1.8844601631E-002 -1.4530319381E-001  +6.6813432283E-002 -4.2527284882E-001  -3.9190152566E-001 -3.3930169988E-002  -1.3018694216E-001 +4.6190803515E-002 
2600000000.000 +5.4044460228E-003 +9.9283864561E-002  -7.0398072869E-001 -2.8334810277E-001  -3.0497767841E-001 +4.2646528118E-001  +5.1143730368E-002 -2.9764131068E-002 
2800000000.000 +1.9186283135E-003 -2.7521931411E-001  +6.5132311566E-001 -5.7178739170E-001  -6.9858446079E-001 -1.5813249608E-001  -1.1823223160E-001 +1.5575872640E-001 
3000000000.000 +1.3072095699E-001 -3.2061441933E-003  +8.1377694450E-002 +8.5446944235E-001  -1.3201280868E-001 -7.3748552691E-001  -6.6575572411E-002 -3.1724902162E-002 
3200000000.000 -1.4820270649E-002 -9.5106859368E-002  -6.9839068565E-001 -3.5147868340E-001  +5.4743136237E-001 -4.1574471674E-001  +2.8086245632E-002 +7.7634432936E-002 
3400000000.000 +2.0284760428E-001 -4.5401605665E-002  +7.2521720286E-001 -3.9111046966E-001  +5.9599210729E-001 +4.6390422062E-001  -9.1628174436E-002 +1.2988319683E-001 
3600000000.000 +8.4725158652E-002 -7.3138245114E-002  -1.7340738579E-001 +8.2127935032E-001  -1.9781671187E-001 +8.3084234921E-001  -7.7069031958E-002 +1.0256036627E-001 
3800000000.000 -2.5596022140E-001 -1.9281770550E-002  -4.6132595132E-001 -7.5579926084E-001  -8.1896317538E-001 -3.7910424945E-002  +1.5670740291E-001 +7.3321680319E-002 
4000000000.000 +4.1416968691E-003 +2.0818304909E-001  +8.7061855861E-001 +1.0162149197E-001  -2.3869168815E-001 -7.1989822015E-001  -3.5002820327E-002 -1.1999400388E-001 
4200000000.000 +8.0848542233E-002 +5.5668970944E-002  -7.1028897735E-001 +5.6507985585E-001  +7.0237531250E-001 -4.7788883808E-001  -1.1347847840E-001 -1.3830488599E-002 
4400000000.000 +7.5415428375E-002 -1.1711432461E-001  +8.2049023746E-002 -8.4693875823E-001  +7.1093037172E-001 +5.3462356295E-001  +1.5311527374E-002 +9.3730501300E-002 
4600000000.000 -5.1425839404E-002 -2.0003882546E-003  +5.6984460325E-001 +6.4118899265E-001  -4.3812215517E-001 +7.2685414034E-001  +6.4153102671E-002 +4.0822779516E-003 
4800000000.000 -2.4436969072E-001 -5.9504362480E-002  -8.0844983944E-001 -1.0682644541E-001  -7.3421712500E-001 -2.2105180125E-001  +2.1413388544E-001 -5.9319669289E-002 
5000000000.000 +3.2056151986E-002 +7.5699673002E-002  +6.5646865676E-001 -4.5739491862E-001  -4.9110027249E-002 -8.5789599312E-001  -6.7875118376E-002 +2.7017049781E-002 
5200000000.000 +1.5155143829E-002 -8.5313434826E-002  -1.7663407255E-001 +7.7512561021E-001  +8.9533859538E-001 -1.0022430563E-001  +1.1593879777E-002 +1.7923083343E-001 
5400000000.000 -2.9351029992E-001 -8.3809029343E-002  -3.6680521629E-001 -6.4628275807E-001  +1.9780021741E-001 +7.5606684823E-001  +2.0142987639E-002 -2.6370577216E-001 
5600000000.000 +8.8777455298E-002 -2.5696374482E-002  +6.8189886329E-001 +2.1006101973E-001  -6.1974918008E-001 +4.5272320878E-001  +7.1492902426E-002 -4.1486508832E-002 
5800000000.000 +1.1659213896E-001 +1.0581124596E-001  -6.0236559342E-001 +3.2958393551E-001  -5.3486851503E-001 -5.7941677944E-001  -8.1159883563E-002 +1.0423170395E-001 
6000000000.000 -2.4359962888E-003 -9.6549263868E-002  +1.8793433724E-001 -6.2637585952E-001  +4.9369702212E-001 -5.8695905731E-001  -1.2215487021E-002 -1.4543510384E-002 
6200000000.000 +7.0414029167E-002 -2.2332616202E-001  +1.9120223541E-001 +5.7528333963E-001  +5.2965576532E-001 +4.0470739641E-001  +3.0889579740E-001 +9.1796821457E-002 
6400000000.000 -1.0093986328E-001 +6.8868207384E-002  -5.9470561210E-001 -1.8969241607E-001  -1.3975591108E-001 +6.7377827897E-001  -1.2490176054E-001 -1.2362019643E-001 
6600000000.000 +5.2065782382E-002 +9.0098664097E-002  +6.0833410333E-001 -1.4156381134E-001  -6.6766702900E-001 -1.4646332748E-001  +2.7409340591E-002 +2.1555251817E-003 
6800000000.000 -1.0104215608E-001 -5.0625398991E-002  -3.8770422661E-001 +4.8657679824E-001  +6.6388170461E-002 -6.7949177117E-001  +4.7140123913E-002 +3.7596242006E-002 
7000000000.000 +9.7494695624E-002 -4.6082304819E-002  -1.0856750833E-001 -5.8888145767E-001  +5.7001865494E-001 -2.0266951019E-001  +3.6557262429E-002 +7.7449223670E-002 
7200000000.000 -6.3998889600E-002 +5.3492586487E-002  +4.1940265305E-001 +4.2658136126E-001  +2.4994615764E-001 +5.2005921655E-001  +1.1504547742E-002 -4.7863120686E-003 
7400000000.000 -7.8080194004E-002 -7.0859645634E-002  -5.6067934638E-001 -3.4427701518E-002  -4.8408210530E-001 +3.2153811244E-001  -1.6828871829E-001 -7.2905990885E-002 
7600000000.000 +3.5658183814E-001 -5.4388848460E-002  +4.5792784413E-001 -2.9557864271E-001  -3.2044427004E-001 -4.2379280707E-001  +3.0503858377E-001 +9.0508687171E-002 
7800000000.000 -1.4957564121E-001 -3.2129062480E-002  -1.1917704975E-001 +5.4111216038E-001  +2.9015272226E-001 -4.0784140269E-001  -6.1386542214E-002 -1.8994604624E-002 
8000000000.000 +1.0538927501E-002 -8.8442097506E-002  -2.1742131101E-001 -4.7260173471E-001  +4.2358028417E-001 +2.7117285353E-001  -5.7589946782E-002 -1.4754513908E-001 
8200000000.000 -5.9860012890E-002 +6.2684651615E-002  +4.6342814521E-001 +1.6942543076E-001  -1.8164283686E-001 +4.4590323397E-001  +1.9762739632E-002 +2.4711810675E-002 
8400000000.000 +5.8920915246E-002 +1.4668314458E-001  -4.2891486262E-001 +6.5610774672E-002  -4.1269872953E-001 -9.3866101101E-002  -1.9352840916E-003 +1.4398363972E-001 
8600000000.000 +2.8162494592E-002 -1.5051643842E-002  +2.2821767935E-001 -3.4860425508E-001  +4.6924358695E-002 -4.0734847978E-001  +9.5654560486E-002 -2.2848184477E-002 
8800000000.000 -4.5716916927E-002 -1.3032577433E-001  +8.8844027980E-002 +3.9401557440E-001  +3.9466614861E-001 -1.0370009800E-001  -1.0147419664E-001 -3.7961302260E-002 
9000000000.000 +7.4090710164E-002 +6.9267642450E-002  -2.8292076291E-001 -2.4992168955E-001  +1.0985891643E-001 +3.7855019591E-001  +4.3355355421E-002 +2.0676735145E-002 
9200000000.000 -1.3181014409E-001 +2.4826655473E-002  +3.6802300578E-001 -3.1646345508E-002  -3.1988259550E-001 +1.6994436766E-001  -5.7841173058E-002 +1.3343618970E-001 
9400000000.000 +1.3679772278E-001 -1.0941348829E-001  -2.3424293061E-001 +2.3573818912E-001  -2.0660696275E-001 -2.5739155102E-001  -6.5045501011E-002 -1.5743351513E-001 
9600000000.000 +6.6591495202E-003 -4.4414917390E-002  +2.6638001106E-002 -3.4863202244E-001  +2.4876319985E-001 -2.5267074199E-001  +1.9177953554E-002 -1.2064131896E-002 
9800000000.000 -5.7923122544E-002 +3.9987522537E-002  +1.9698857520E-001 +2.6257923615E-001  +2.8724019726E-001 +1.8609471966E-001  -7.0649453129E-002 +1.0325030663E-001 
10000000000.000 -2.0072651285E-002 -8.9368640392E-003  -3.0774242291E-001 -5.2523067551E-002  -2.0352030404E-001 +2.4308310087E-001  -5.0996192787E-002 -1.2848488966E-002 
10200000000.000 +9.1761787800E-002 +1.1732737386E-001  +2.6684101731E-001 -8.8196614265E-002  -2.7613837513E-001 -2.1330905840E-002  +8.2009686516E-002 -1.7093449361E-001 
10400000000.000 +4.3142854467E-002 +3.7534392442E-002  -1.6077481934E-001 +2.4803083960E-001  +4.6347837512E-002 -3.1849164500E-001  +6.4680913567E-003 -1.3852811352E-002 
10600000000.000 +2.0295340216E-002 -1.4634211235E-001  -7.0305381115E-002 -2.7142132742E-001  +2.8020581709E-001 +4.3505388411E-002  -1.3061702274E-001 +1.3723358320E-001 
10800000000.000 +8.4800653045E-003 +9.1407030654E-002  +1.7738096311E-001 +1.9770746570E-001  +3.1670149616E-002 +2.7344408672E-001  +1.8301722662E-002 -1.3713094867E-001 
11000000000.000 -2.7543937043E-003 +4.5296698998E-002  -2.6836046903E-001 -4.5117211277E-002  -2.5495181042E-001 +1.2445694151E-001  +1.6491531701E-001 +3.2746654228E-002 
11200000000.000 -3.2373001348E-002 -1.0981450724E-002  +2.2737205002E-001 -1.2331779228E-001  -1.3796302843E-001 -2.4822769194E-001  -1.5212982785E-001 +3.8233504221E-002 
11400000000.000 +8.6513127154E-002 -1.4446470920E-002  -8.5549747153E-002 +2.3940240893E-001  +2.1762949295E-001 -1.8278976484E-001  -3.5477709442E-002 -8.3330805358E-002 
11600000000.000 -7.5417736837E-002 +5.2587134230E-002  -1.0291523461E-001 -2.0753820917E-001  +1.7324881685E-001 +1.8160927421E-001  +9.8136895157E-002 +9.1789577410E-002 
11800000000.000 -1.3495096078E-001 +1.2729477131E-002  +2.3468677423E-001 +6.4322093906E-002  -1.3916133556E-001 +2.2605637398E-001  +3.7841329987E-003 -6.9952942189E-002 
12000000000.000 +2.3939467694E-001 -8.5295980379E-004  -1.9990644718E-001 +3.8460601269E-002  -1.8055087009E-001 -1.3202132196E-001  -1.3979775023E-001 -8.0788565104E-003 
12200000000.000 -5.6196844171E-002 +6.4860526185E-003  +1.7749281770E-001 -1.4298517323E-001  +1.4808197875E-001 -2.0472351227E-001  +2.0915761425E-003 -3.0053310528E-003 
12400000000.000 -2.0735393810E-002 -5.6705609276E-002  -3.5351699084E-002 +2.1791079863E-001  +2.2392156714E-001 +9.8184772136E-002  +8.3844514126E-002 +5.2361896820E-002 
12600000000.000 +8.4678672655E-002 -2.2583436237E-002  -1.4039295552E-001 -1.4702128270E-001  -4.5275414637E-002 +2.2483621628E-001  -1.3248630981E-001 +4.5492748539E-002 
12800000000.000 +2.8341196347E-002 +1.3460369086E-001  +1.8585629545E-001 +5.0097508133E-003  -2.1287015195E-001 +2.1820104508E-002  +1.6897709401E-002 -1.9823873143E-001 
13000000000.000 +2.2376740886E-003 -6.7713343552E-003  -1.7441296854E-001 +1.0556434842E-001  -3.6784912482E-002 -2.2867707002E-001  +1.3255275324E-002 +1.4980388211E-001 
13200000000.000 -4.5430098044E-002 -1.4610183087E-001  +9.9008088533E-002 -1.8083910363E-001  +2.1371080045E-001 -2.5111575875E-002  -2.8313523149E-002 -2.5565915125E-002 
13400000000.000 -2.5436938742E-002 +2.0710681571E-001  -3.4448330802E-002 +1.5481553236E-001  -9.4855926674E-003 +1.8195096661E-001  +2.9382321208E-002 -1.5149593018E-001 
13600000000.000 -1.1166509024E-001 -2.6661500794E-002  -1.0628838725E-001 -1.6357099308E-001  -2.2181820988E-001 +3.6044419669E-002  -1.5641510855E-002 +2.8205935416E-002 
13800000000.000 +9.2358576666E-002 -1.2038456004E-001  +1.9493515261E-001 +2.5031064301E-002  -1.4544753783E-001 -1.5229949033E-001  +1.4054711199E-002 +5.0783582320E-002 
14000000000.000 +5.7993818494E-002 +8.0362042168E-002  -1.3541327271E-001 +1.1533844571E-001  +9.7640616525E-002 -1.6098914303E-001  -4.7111951021E-002 -3.8681989276E-003 
14200000000.000 -2.1354203067E-001 -1.0359267863E-003  +6.0861214939E-002 -1.4262508638E-001  +1.4134194376E-001 +7.5464182746E-002  +7.3329245392E-002 -1.8496348262E-001 
14400000000.000 +1.0175637474E-001 -3.9740022832E-002  +2.2132626801E-002 +1.8042698008E-001  -1.3273593816E-001 +1.4462995133E-001  -3.3110382513E-002 +1.1501878468E-001 
14600000000.000 +6.8099550175E-002 +5.1945782948E-002  -1.5345688072E-001 -8.8716916550E-002  -1.5640081588E-001 -8.4983051103E-002  -6.8212409687E-002 -3.1761986484E-002 
14800000000.000 -1.3372611781E-001 -5.6304384824E-003  +1.5598335172E-001 -1.5498542399E-002  +4.6455663263E-002 -1.5099128204E-001  +5.9952752353E-002 -6.2399445143E-002 
15000000000.000 +2.0421984900E-002 -1.4237339584E-001  -1.1001345820E-001 +1.2761665514E-001  +1.6576694217E-001 +2.7075064345E-002  +6.5695129797E-002 -3.0134651566E-002 
15200000000.000 +4.4062308888E-002 +1.5192104926E-001  +1.2920432124E-002 -1.7627483521E-001  -1.4124834480E-002 +1.6514981744E-001  -9.1822940907E-002 +6.6616956200E-002 
15400000000.000 -2.5198700308E-002 +7.4696542827E-004  +1.2909109261E-001 +1.1745778446E-001  -1.6237175992E-001 +1.1281906448E-002  -6.9010521435E-003 -2.9385903015E-002 
15600000000.000 -1.1676761279E-002 -1.4539060464E-001  -1.6022982025E-001 -3.8554893530E-002  -4.5879082421E-002 -1.4469561071E-001  +9.3034360598E-002 -1.1088185109E-001 
15800000000.000 +6.0299349347E-002 +8.7744555738E-002  +1.9029771597E-001 -5.3937423788E-002  +1.6272492982E-001 -6.7420227615E-002  +1.3386372786E-002 +1.4577443791E-001 
16000000000.000 -8.2789120370E-002 -1.4744894609E-002  -7.2598386352E-002 +1.5754712890E-001  +5.5226947491E-002 +1.4859040344E-001  -8.3289862100E-002 -1.4186367101E-001 
16200000000.000 -1.8895526080E-002 -2.4459806988E-002  -2.4144682459E-002 -1.6548230506E-001  -1.2859157641E-001 +6.5690293591E-002  +3.8323688822E-002 +1.3667445907E-002 
16400000000.000 +1.3278776233E-001 +8.9588506435E-003  +1.3264427223E-001 +9.9952745073E-002  -8.5070186756E-002 -1.1782653019E-001  +7.2013961059E-002 +4.6482279690E-002 
16600000000.000 -9.9311394521E-002 +1.2157073260E-002  -1.6978693004E-001 -1.2527057377E-002  +9.3260079879E-002 -1.2526856182E-001  -9.0523168676E-002 -2.5041824551E-002 
16800000000.000 -1.6890376058E-003 -2.4494070142E-002  +1.3434331397E-001 -7.2879631943E-002  +1.2062554732E-001 +5.7845140543E-002  +3.5602656708E-002 -1.6289604552E-002 
17000000000.000 +9.5603590056E-002 +1.6391032784E-002  -7.9024008550E-002 +1.2550588590E-001  -7.1247636227E-002 +1.0772641838E-001  +9.7904229947E-002 -5.2333875908E-002 
17200000000.000 -2.9409297582E-002 +5.4423545989E-002  -8.0229723700E-002 -1.4545693326E-001  -1.3750494344E-001 -4.9522636211E-002  -6.5609374827E-002 +1.4038985096E-001 
17400000000.000 -3.0234150593E-002 -2.4022685659E-002  +1.3030051627E-001 +1.6635444412E-002  -3.1762787866E-004 -1.1704971169E-001  -7.5632659235E-002 -1.4364080328E-001 
17600000000.000 +2.9987580033E-002 -8.0918355355E-002  -1.0372664423E-001 +3.9856085337E-002  +9.7313554492E-002 -8.3478047157E-003  +1.4691984446E-001 -2.5529872528E-002 
17800000000.000 +5.8039136399E-003 +1.5683003158E-001  +9.3048226779E-002 -9.6088254072E-002  +1.6489880360E-002 +1.1721633840E-001  -5.0832792476E-003 +1.3960239064E-001 
18000000000.000 -1.7265846128E-002 -3.5026830437E-002  +1.3420510767E-002 +1.5175987638E-001  -1.2330544839E-001 +5.1652055993E-002  -7.0410971017E-002 -1.6260689234E-001 
18200000000.000 +4.6542902759E-002 -1.0737745363E-001  -8.5720864064E-002 -7.1947135385E-002  -5.8142067366E-002 -7.7976109408E-002  +6.7807489669E-002 +3.0579180649E-002 
18400000000.000 -1.0539165467E-002 +1.7479622519E-001  +9.6953372151E-002 +3.6030681814E-002  +8.3582837797E-002 -3.2653911615E-002  +6.8105771792E-002 +9.5942404477E-002 
18600000000.000 -9.1721535600E-002 -5.6448357619E-002  -1.1818384830E-001 +9.2077458873E-002  +6.7521964965E-002 +1.0349992728E-001  -9.4673407590E-002 -3.5431851094E-002 
18800000000.000 +3.6298037965E-002 +2.1128907459E-002  +9.6087792678E-003 -1.3570461920E-001  -6.0559940031E-002 +1.1117856055E-001  +4.5070490969E-002 -7.8029576314E-002 
19000000000.000 +6.1546936839E-002 +6.8048482783E-002  +5.4732348061E-002 +8.7214020670E-002  -8.1800237700E-002 -3.4709167049E-002  +5.8999340775E-002 +1.3761448096E-003 
19200000000.000 -1.4614740234E-001 -1.1561194196E-001  -7.6470018407E-002 -8.0833172542E-002  +6.9009249644E-002 -6.5366439988E-002  -7.7540455084E-002 +1.1232866159E-001 
19400000000.000 +3.3342683038E-002 +5.7540402222E-002  +1.4506442007E-001 -1.5593112766E-002  +1.1582188006E-001 +4.3298622453E-002  +1.1025264408E-001 -1.0880460974E-001 
19600000000.000 +4.2642389086E-002 +1.2304770650E-002  -6.4756547326E-002 +1.0785424533E-001  +3.3829503071E-003 +1.1036112075E-001  -1.8114593320E-003 +1.5007617244E-002 
19800000000.000 -5.6233418739E-002 -2.9654033502E-002  +5.0827737673E-003 -1.1669780651E-001  -1.0299541084E-001 -2.3115219116E-002  +4.8522236668E-002 +5.5994671593E-002 
20000000000.000 +2.4661037334E-002 -5.1995876498E-002  +8.7982720618E-002 +1.0137795387E-001  +4.8102786590E-002 -1.0935522769E-001  -5.3489351344E-002 +1.4627810490E-002 
20200000000.000 +1.5980855326E-002 -2.1172643996E-002  -1.2083689182E-001 -3.3377332129E-002  +8.2834857233E-002 -8.0642648135E-002  -4.6421407805E-003 -9.2082298813E-002 
20400000000.000 -8.0444259038E-002 +7.3453745547E-002  +9.6908307667E-002 -2.8916340779E-002  +6.7785697744E-002 +6.4615647799E-002  +9.9503424735E-002 -3.0575586955E-002 
20600000000.000 +5.2987153208E-002 -7.3117632470E-002  -8.2297042744E-002 +9.0575067739E-002  -8.4895113369E-002 +7.3299641905E-002  -4.8835701909E-002 +1.3380682879E-001 
20800000000.000 +6.0581655603E-002 +2.5408540059E-002  -2.5593275915E-002 -1.2685562245E-001  -8.9817420179E-002 -7.4855727755E-002  -4.1013266797E-002 -1.1722165516E-001 
21000000000.000 -1.1390802975E-001 -4.3058309860E-002  +7.1005429852E-002 +4.0952605110E-002  +6.0711241484E-002 -4.6822976989E-002  +1.2181903681E-001 -5.3359375144E-002 
21200000000.000 +7.4401944670E-002 -1.8491362625E-003  -1.0175842104E-001 -1.9913314000E-002  +3.7673086266E-002 +8.3719427415E-002  -9.4689458462E-002 +9.1807904318E-002 
21400000000.000 +2.9637128604E-002 -8.4358691799E-003  +9.7005666696E-002 -8.4304149417E-002  -6.8366181532E-002 +9.1333793509E-002  +5.6699286499E-002 -2.4389027631E-002 
21600000000.000 -4.0193463435E-002 +4.2225455361E-002  -3.9344872636E-003 +1.0936144087E-001  -9.4237562358E-002 +9.4407024503E-004  +2.5372528343E-003 -4.6280528608E-002 
21800000000.000 -1.7602953689E-004 -7.7188240569E-002  -1.4972936959E-002 -7.6519642084E-002  -3.9639257294E-003 -6.9757154048E-002  +4.4707459722E-002 -1.4886397413E-002 
22000000000.000 +4.2442653496E-002 +8.2461420601E-003  +7.5082704664E-002 +8.5194081448E-002  +9.6975942203E-002 -1.4685259377E-003  -1.5499920056E-002 +4.7583905715E-002 
22200000000.000 +3.3125643598E-002 +1.1751599586E-001  -1.1467386866E-001 +1.4165469055E-002  +3.6038869984E-002 +9.2568767611E-002  -1.0280217730E-002 -1.2068937666E-002 
22400000000.000 -2.6926288322E-002 -1.5424964958E-001  +5.9937040234E-002 -5.8146885688E-002  -6.1036544124E-002 +3.7168209356E-002  +1.6855400778E-001 -6.9167872596E-002 
22600000000.000 +5.9988059569E-002 +6.3319040590E-002  -4.4889589912E-002 +8.1323584675E-002  -3.0291439816E-002 -7.0819317134E-002  -1.2196281234E-001 +7.7774703025E-002 
