!  2-Port S-parameters saved by WinCal
! VAR MeasName=S-Parameters (CALIBRATED_DATA) read from VNA (MS4647B)
! VAR MeasDate=27-Apr-22 16:53:09
! VAR NAME=RAW_stepline_3mm_1
! VAR FILENAME=RAW_stepline_3mm_1.S2P
! VAR DATE=27-Apr-22 16:53:09
! VAR PHYS_PORTS=1,2
! VAR ObjTypeName=DATASET
! VAR IndexType=Frequency
! VAR ChuckHeaterState=Unknown
! VAR ChuckTemp=NaN
! VAR ChuckTempUnits=Unknown
!
# Hz S RI R 50
200000000.000 -3.0149021160E-002 -8.4228329099E-002  -2.5849630125E-001 -6.8190472691E-001  -3.7821870014E-001 -6.3876938653E-001  +1.4277016327E-002 -5.6476842006E-002 
400000000.000 +1.1699128884E-001 -8.5075964200E-002  -4.1433561395E-001 +5.4458761171E-001  -2.4314448931E-001 +6.5339089840E-001  -1.2326176576E-001 -9.5586997696E-004 
600000000.000 +9.1600170888E-002 -6.3705346587E-002  +5.8496625247E-001 +1.8045971742E-001  +5.6024984164E-001 -2.3098837089E-001  -7.9929945302E-002 +5.9040736302E-002 
800000000.000 +7.1911601139E-002 -2.4156943651E-001  -2.4589649455E-001 -6.0996067462E-001  -5.8759465742E-001 -2.6274427007E-001  +1.8939555599E-001 +5.9217295841E-002 
1000000000.000 +8.2992650482E-002 -1.7656234596E-001  -2.0027056337E-001 +6.7525264194E-001  +3.5665551571E-001 +5.7212692596E-001  +1.7102953259E-001 -6.9642443529E-002 
1200000000.000 +1.0434175042E-001 -1.8139150832E-001  +6.9252297800E-001 -2.3976947206E-001  +1.3142252791E-001 -6.7471937103E-001  -6.1883755122E-002 -1.0701372147E-001 
1400000000.000 +1.0345490047E-001 -2.1847863171E-001  -6.3219872059E-001 -3.5573018478E-001  -5.3470498456E-001 +4.0190070510E-001  -7.1313526683E-002 -8.3622066783E-002 
1600000000.000 +1.3700031418E-001 +7.5260266255E-002  +1.4509162014E-001 +6.1777379489E-001  +5.5268583612E-001 +6.6830747295E-002  -1.4034342086E-001 -6.7284132522E-003 
1800000000.000 +4.5952469429E-002 +5.4815663292E-002  +3.3122573233E-001 -3.9989948095E-001  -2.9678205750E-001 -3.4238682280E-001  +5.3228262451E-004 +5.1989416891E-002 
2000000000.000 +1.7088535805E-001 +4.6549961079E-002  -4.3699163574E-001 -3.9199406895E-003  -3.4773043638E-002 +3.6686306293E-001  +1.8771560060E-001 +4.9011435792E-002 
2200000000.000 +6.7039130559E-002 -2.1582869065E-001  +2.0098818897E-001 +3.5622009077E-001  +3.0764668865E-001 -1.8863202209E-001  -4.1897794753E-002 -2.7279327520E-001 
2400000000.000 -4.0272428618E-002 -1.6052076571E-001  -7.4527482204E-003 -4.3293465928E-001  -3.9325684678E-001 +3.4749924573E-002  -1.3799136650E-001 +7.3157550696E-002 
2600000000.000 -3.9023377542E-002 +1.5685795252E-001  -7.3805253063E-001 -1.3381826688E-001  -2.1006008404E-001 +4.7499792038E-001  +1.0202553820E-001 -3.4481742260E-002 
2800000000.000 -7.0201226467E-002 -3.1916711710E-001  +5.0807289493E-001 -6.8005621363E-001  -7.0270093221E-001 -7.1791956661E-003  -9.6546108663E-002 +2.1842812801E-001 
3000000000.000 +1.4612236957E-001 -7.6206030689E-002  +2.4981032317E-001 +8.0619787618E-001  -2.7630366234E-001 -6.8093701663E-001  -1.0503248998E-001 -1.1946531107E-002 
3200000000.000 -3.1874809718E-002 -6.9785240836E-002  -7.5760642765E-001 -1.9428697542E-001  +4.4458537109E-001 -5.2388293937E-001  +6.7895874761E-002 +3.8049475325E-002 
3400000000.000 +6.4138624012E-002 -4.6258052343E-002  +5.8656614235E-001 -5.8201733648E-001  +6.9848109498E-001 +2.7691781590E-001  +4.0279286395E-002 +1.2426982854E-001 
3600000000.000 +5.6701987930E-002 -1.6171480528E-001  +4.2870174929E-002 +8.2200690465E-001  +1.7571421964E-002 +8.3554359772E-001  -4.3431782601E-002 +1.7446101945E-001 
3800000000.000 -9.1948480631E-002 +1.7966880674E-002  -6.6458935441E-001 -5.7871534208E-001  -7.8657741109E-001 +2.0106069713E-001  +6.5190041464E-002 +3.2248279541E-002 
4000000000.000 -2.1687718625E-003 +3.1965038270E-001  +8.4248204720E-001 -1.5113215862E-001  -4.2377342106E-001 -6.0922856810E-001  -2.0245532424E-002 -1.9953262124E-001 
4200000000.000 +1.3268127189E-002 -4.2668617417E-002  -4.9572435500E-001 +7.5434618500E-001  +5.1811257605E-001 -6.7091555946E-001  -1.6951192080E-002 +5.7766737450E-002 
4400000000.000 +1.5800998787E-001 -2.3095078825E-001  -1.8609520903E-001 -8.0113308971E-001  +8.2098086290E-001 +2.6407151153E-001  -5.7787864288E-002 +1.9636016975E-001 
4600000000.000 -3.1855704161E-002 +1.3645498480E-001  +7.4374783270E-001 +3.9558282734E-001  -1.4754944552E-001 +8.2031044600E-001  -3.1002000288E-002 -1.2413973195E-001 
4800000000.000 -3.7826998560E-001 -3.6588155746E-003  -7.4999889448E-001 +1.5418649808E-001  -7.1563490228E-001 +2.9663651139E-002  +2.8510657901E-001 -1.9106525352E-001 
5000000000.000 +1.0034640432E-001 +2.8057924361E-002  +4.5309587522E-001 -6.5301706785E-001  -3.3946081815E-001 -7.7939312992E-001  -1.6942598357E-002 +9.9541256290E-002 
5200000000.000 +1.3538944829E-001 +1.0851295747E-001  +1.4524108393E-001 +7.4782259616E-001  +7.4888467501E-001 -4.2417284816E-001  -1.3031199720E-001 +2.3892523606E-001 
5400000000.000 -4.0519700729E-001 +1.6324354765E-002  -5.4945019196E-001 -4.5078890858E-001  +4.3608537100E-001 +6.1149749033E-001  -2.0780062883E-002 -3.4348054785E-001 
5600000000.000 +5.7982852845E-002 -1.6930778167E-001  +6.8265977776E-001 -7.6347140280E-002  -3.7728689015E-001 +6.4193844251E-001  +1.7495802843E-001 -8.1823986716E-003 
5800000000.000 +1.9449041715E-001 +9.3344033558E-002  -4.1366445343E-001 +5.2714371857E-001  -7.0737653444E-001 -3.1598127459E-001  -1.4936163177E-001 +1.7462576417E-001 
6000000000.000 -1.2456758673E-001 +2.5192475490E-002  -1.1727779111E-001 -6.1658340458E-001  +1.6332468788E-001 -7.2648766051E-001  -1.3752097283E-001 -1.5785625300E-001 
6200000000.000 -4.7551735447E-002 -2.9614815506E-001  +3.8076194597E-001 +4.2285714843E-001  +6.1010105468E-001 +1.4635313141E-001  +4.0027662728E-001 -2.0900807501E-003 
6400000000.000 -1.2191150864E-002 +3.9832964848E-002  -6.0943679527E-001 +9.0902367415E-002  +1.7213815136E-001 +6.5903108643E-001  -1.3901342924E-001 -1.6397851775E-002 
6600000000.000 +5.9317324736E-002 +2.4165281164E-001  +4.3765413523E-001 -3.8482275222E-001  -6.1345912072E-001 +1.8099203622E-001  -1.6861393162E-001 -2.4734623551E-002 
6800000000.000 -1.9515110949E-001 -8.1551988226E-002  -1.1226423126E-001 +5.8675508402E-001  -2.5247782065E-001 -6.0664929929E-001  +1.3108673741E-001 -1.0319657697E-001 
7000000000.000 +1.8901575110E-001 -1.6545426242E-001  -3.5230063756E-001 -4.2408138432E-001  +3.6223429832E-001 -4.2177602409E-001  +2.2132899538E-001 +1.2175939155E-001 
7200000000.000 -3.6689907258E-002 +1.5651605223E-001  +5.5547190067E-001 +1.6343481307E-001  +4.5648217794E-001 +3.1813628809E-001  -6.2161989220E-002 +8.0679862212E-002 
7400000000.000 -2.8690873879E-001 -6.9069933825E-002  -4.4454263076E-001 +2.3974230297E-001  -2.1071569248E-001 +4.7324898506E-001  -2.7549521054E-001 -2.0604464470E-001 
7600000000.000 +3.3216887480E-001 -1.9231860143E-001  +2.5471821397E-001 -4.5437753613E-001  -4.5917361737E-001 -2.1220096262E-001  +3.7849763338E-001 +3.2619753783E-002 
7800000000.000 -9.6200423166E-002 +7.0174373893E-002  +1.8854984777E-001 +5.0363843910E-001  +1.9018490236E-002 -4.8480307307E-001  -8.4270078765E-002 +1.0238469034E-001 
8000000000.000 -1.3203188909E-001 -4.7327923069E-002  -3.9821030589E-001 -2.6330104868E-001  +4.5908261239E-001 +7.0035453365E-003  -1.9562651597E-001 -1.2820349176E-001 
8200000000.000 -4.1124665013E-002 -8.9337975299E-002  +4.4870561608E-001 -1.1341410236E-001  +9.3063085092E-002 +4.3854641239E-001  +7.5070038318E-002 -7.5366008296E-002 
8400000000.000 +2.1528844272E-001 +1.7043429184E-001  -3.0440109814E-001 +2.5675811413E-001  -3.6642778806E-001 +1.2252175589E-001  +7.7029009351E-002 +1.9433053153E-001 
8600000000.000 -2.1683613829E-002 +4.7512967412E-002  -9.0553279825E-003 -4.0252796868E-001  -1.8627325488E-001 -3.4959261681E-001  +2.5272400252E-002 -2.3027222553E-002 
8800000000.000 -1.0974326333E-001 -2.3746519772E-001  +2.7245791800E-001 +2.3800294046E-001  +2.3042274838E-001 -2.8417924672E-001  -1.5099557847E-001 -1.6552829897E-001 
9000000000.000 +1.4240172758E-001 +7.5973877142E-002  -3.5722875959E-001 -3.2615264844E-002  +2.9670583464E-001 +2.2857044955E-001  +1.5297008696E-001 +3.0615287227E-002 
9200000000.000 -1.9223955344E-001 +1.7454697304E-001  +2.3104708853E-001 -2.1251301524E-001  -1.2810058840E-001 +2.7948821567E-001  -6.1204720603E-002 +2.6539747591E-001 
9400000000.000 +3.1764270159E-002 -1.6575327069E-001  -5.8828054074E-002 +3.0502642159E-001  -2.9421033890E-001 -9.2501719503E-002  -1.3766397957E-001 -1.4747214632E-001 
9600000000.000 +8.5741673212E-002 -8.2979480510E-002  -1.8494129009E-001 -2.6754485907E-001  +3.1754219705E-002 -3.2771237260E-001  +1.1359870251E-001 -6.9677563021E-002 
9800000000.000 -5.3788202026E-002 +1.2671810819E-001  +2.8833306169E-001 +7.5024000452E-002  +3.0870253817E-001 -3.0469589833E-002  +8.2494791493E-003 +2.0292132067E-001 
10000000000.000 -1.0058055834E-001 -9.6315472633E-002  -2.3189200367E-001 +1.3817482256E-001  +2.7313935797E-003 +2.7382017419E-001  -1.6066316191E-001 +5.3641059513E-002 
10200000000.000 +1.8190653564E-001 +3.2363366270E-002  +1.5705082085E-001 -2.0248132751E-001  -2.1979782498E-001 +1.2457205696E-001  +6.9577112401E-003 -2.1754762165E-001 
10400000000.000 +2.1743479357E-002 +1.0678554154E-001  +3.9703696399E-002 +2.7734097562E-001  -1.6597553086E-001 -2.5622763110E-001  +8.1068675019E-002 -1.6910968448E-002 
10600000000.000 -9.2974193756E-002 -2.1313576401E-001  -1.9449930698E-001 -1.4061303997E-001  +2.0916822890E-001 -1.2424392766E-001  -1.2694735505E-001 +2.3733606904E-001 
10800000000.000 +7.7864424613E-002 +2.4329677549E-002  +2.4318264072E-001 +3.6407947648E-002  +1.8343301964E-001 +1.7677090974E-001  -5.5642093247E-002 -1.5182980790E-001 
11000000000.000 +2.5394594971E-002 +1.3534287823E-001  -2.0860637207E-001 +1.2559124098E-001  -1.0077947688E-001 +2.3219466850E-001  +2.1337549362E-001 -6.4943582368E-002 
11200000000.000 -9.8720902785E-002 -2.5061506875E-002  +8.1826404814E-002 -2.2892029879E-001  -2.5192648131E-001 -8.6754205637E-002  -8.4737401287E-002 +9.1810942500E-002 
11400000000.000 +1.7376479622E-001 -1.0239577702E-001  +8.8048108942E-002 +2.0401266717E-001  +2.9195427508E-002 -2.4716786965E-001  -1.1143839470E-001 -3.4493709408E-002 
11600000000.000 +9.8988258300E-003 +1.2337056449E-001  -2.0062308100E-001 -7.8999010563E-002  +2.3379275238E-001 +1.7172954415E-002  +8.3211076733E-002 +3.7985344886E-002 
11800000000.000 -2.2286634338E-001 +4.9730762325E-002  +1.8259079664E-001 -1.0651368641E-001  +5.4415214270E-002 +2.2451498394E-001  +1.1323757169E-001 -4.0393731140E-002 
12000000000.000 +2.3488973927E-001 -8.7701164825E-002  -1.1913635400E-001 +1.4311725904E-001  -2.0433097097E-001 +1.0786757695E-002  -1.7125625034E-001 +8.9707071995E-002 
12200000000.000 -2.9103891665E-002 +4.0825477208E-002  +1.6386913856E-002 -2.1723106254E-001  -4.6795545031E-002 -2.3665150241E-001  -3.1195646740E-002 -6.5685269017E-002 
12400000000.000 -1.3055811574E-001 -3.5039572729E-002  +1.1303868293E-001 +1.4678501006E-001  +1.8858872556E-001 -8.1545456613E-002  +1.7994407795E-001 +2.3054479854E-002 
12600000000.000 +3.9554361324E-002 -1.2910864132E-001  -1.7529548547E-001 -8.4434651790E-003  +1.0632197394E-001 +1.6805658641E-001  -1.2786553602E-001 +1.3012338076E-001 
12800000000.000 +1.3225013897E-001 +9.6662409059E-002  +1.3097714430E-001 -1.0880997963E-001  -1.3366012749E-001 +1.4381828561E-001  -6.4390834457E-002 -1.9630570863E-001 
13000000000.000 +8.0937889254E-003 +4.9359173846E-002  -3.5796108807E-002 +1.9271082178E-001  -1.8773880154E-001 -1.1975143404E-001  +5.6817614801E-002 +1.0323383328E-001 
13200000000.000 -4.9305171467E-002 -2.3710584397E-001  -6.0997234722E-002 -1.5078588890E-001  +9.0782989332E-002 -1.4357479624E-001  +5.0720648147E-002 +8.7947722680E-002 
13400000000.000 +6.2768364340E-002 +2.2402294405E-001  +6.4031920032E-002 +1.3122942198E-001  +9.8152436029E-002 +1.3584568825E-001  -7.0018043642E-002 -1.1618989720E-001 
13600000000.000 -1.2765680546E-001 +5.2773897420E-002  -1.8650390999E-001 -2.6482076409E-002  -1.1428306702E-001 +1.8425456585E-001  -8.9050984310E-003 -3.4557043409E-002 
13800000000.000 +1.0942197057E-002 -1.6734507821E-001  +1.3065744904E-001 -1.1597568729E-001  -1.8642778384E-001 +8.8187126414E-003  +9.2500292085E-002 +8.5543369012E-002 
14000000000.000 +1.2159387240E-001 +3.0774699989E-002  -7.9354798285E-003 +1.5133175320E-001  -4.2872563393E-002 -1.5412294760E-001  -9.6077603676E-002 +9.8676730380E-002 
14200000000.000 -1.9402318392E-001 +8.2515751222E-002  -4.6131527362E-002 -1.4431642030E-001  +1.5218450966E-001 -3.5100984991E-002  -2.2852589008E-002 -2.3066873349E-001 
14400000000.000 +4.3032125278E-002 -3.4404900127E-002  +1.5684177418E-001 +9.1225015828E-002  +3.5056208530E-002 +1.9230705692E-001  +2.1144980673E-002 +9.5325308958E-002 
14600000000.000 +1.3311456123E-001 +6.7540539223E-004  -1.4069294405E-001 +5.1462841025E-002  -1.3897407291E-001 +5.4923333347E-002  -7.8748445270E-002 +7.1576862369E-002 
14800000000.000 -9.5434501445E-002 +8.0152122330E-002  +9.7789952071E-002 -1.1999439565E-001  -7.2888513334E-002 -1.3654091919E-001  -2.7697396864E-002 -4.8593514943E-002 
15000000000.000 -5.9885338186E-002 -1.2757264418E-001  +2.7863562029E-002 +1.6411426891E-001  +1.2391505966E-001 -1.0920964485E-001  +7.9753584084E-002 -1.0679165684E-001 
15200000000.000 +5.2377636827E-002 +7.5053803779E-002  -1.2979530346E-001 -1.1502753505E-001  +1.2060568021E-001 +1.0926097653E-001  -3.9415508538E-002 +1.1601031454E-001 
15400000000.000 +1.7511483396E-002 +5.3773172762E-002  +1.5742836335E-001 -2.7096681977E-002  -8.3750842629E-002 +1.2309964409E-001  -8.8271928285E-002 +3.3852345568E-002 
15600000000.000 -9.3785510651E-002 -1.0918319390E-001  -1.3784138146E-001 +1.0272463616E-001  -1.4579389532E-001 -6.0107058411E-002  +2.8015696599E-002 -1.7684973455E-001 
15800000000.000 +6.9814527747E-002 +1.5803772667E-002  +5.4601234648E-002 -1.8520356234E-001  +2.8572536227E-002 -1.6858825256E-001  +6.9288883565E-002 +1.4452294919E-001 
16000000000.000 -1.6237012685E-002 +5.0022819685E-002  +7.2786299953E-002 +1.4172624954E-001  +1.3882360782E-001 +4.3260082242E-002  -1.1163691704E-001 -5.7552941233E-002 
16200000000.000 -9.4204329139E-002 +2.3665904497E-002  -1.4812833866E-001 -8.0344905760E-002  -2.4075275828E-002 +1.4395596530E-001  -3.3034758671E-002 -2.2529053628E-002 
16400000000.000 +1.0984470300E-001 -6.4294650449E-002  +1.5777441307E-001 -5.6272953543E-002  -1.4676271664E-001 +6.3152255354E-003  +1.2068706893E-001 -6.8296372120E-003 
16600000000.000 -3.8763623152E-002 +2.3013562481E-002  -9.4646678246E-002 +1.3219144329E-001  -5.5416513651E-002 -1.3806115821E-001  -7.5711911498E-002 +5.6139388704E-002 
16800000000.000 -6.1205476454E-002 +3.1940042762E-002  +2.5140237879E-002 -1.4241769763E-001  +1.1328485396E-001 -5.5365935867E-002  -6.3699140477E-002 -1.3451889701E-002 
17000000000.000 +5.6064914263E-002 -7.3377000699E-002  +7.0862932305E-002 +1.4827315921E-001  +5.9444651830E-002 +1.3001787299E-001  +9.1641967736E-002 -1.2356840116E-001 
17200000000.000 +3.5861143656E-002 +5.3425848931E-002  -1.5776978287E-001 +1.0727661234E-003  -1.0350224069E-001 +9.2601443789E-002  -1.4706663085E-002 +1.8487909311E-001 
17400000000.000 -5.7698882646E-002 +5.0814771931E-002  +8.8589988699E-002 -8.4576345077E-002  -8.5045378300E-002 -6.8825653871E-002  -1.3086338457E-001 -6.7439521180E-002 
17600000000.000 -4.3325982633E-002 -1.2880676663E-001  -3.8738664478E-002 +1.2558906770E-001  +6.3465614723E-002 -9.6423746663E-002  +8.0123447132E-002 -8.3492973559E-002 
17800000000.000 +6.1590518170E-002 +9.0228397330E-002  -5.9375592475E-002 -1.4342045105E-001  +1.3226745768E-001 +3.6443661044E-002  +3.6768619469E-002 +8.8402805948E-002 
18000000000.000 -1.3131823719E-002 +5.6736721253E-003  +1.3824119755E-001 +4.8865255546E-002  -3.8646426074E-003 +1.2877706976E-001  -9.7005020027E-002 -8.8822305296E-002 
18200000000.000 -1.7717931417E-002 -1.4691148645E-001  -1.1248006849E-001 +1.5784103975E-002  -9.8435336268E-002 -9.1877059292E-003  -3.2644134350E-002 +1.3590128075E-002 
18400000000.000 +6.4685060637E-002 +8.2185511568E-002  +1.0749722353E-001 -1.0580711474E-001  +8.7840562695E-003 -1.3073958534E-001  +7.8927549697E-002 +7.2752318744E-003 
18600000000.000 -1.6422259868E-002 -3.4042108826E-002  +5.4726211449E-002 +1.4682907203E-001  +1.2442241146E-001 -3.5087453912E-002  -6.9539927071E-002 -2.5548369557E-002 
18800000000.000 -8.4882205367E-003 +6.6608761877E-003  -1.1332047591E-001 -6.2268183408E-002  +7.2224665543E-002 +9.6607668321E-002  -3.1506588292E-002 -2.1705826796E-002 
19000000000.000 +1.1320672668E-001 +4.6963426505E-003  +1.2292294483E-001 +7.7782487094E-003  -9.1302989350E-002 +5.5450449603E-002  -2.2724681177E-003 -7.2900642185E-002 
19200000000.000 -5.6374784699E-002 -5.3099314463E-002  -1.2613077776E-001 +7.9386791513E-002  -6.7995572156E-002 -1.0813036283E-001  -8.3315469781E-003 +7.0675239198E-002 
19400000000.000 +3.6163956832E-002 +1.0619120769E-001  +2.6960811576E-002 -1.4915610124E-001  +7.6783119851E-002 -1.0268838908E-001  +6.7746546473E-002 -9.3588937419E-002 
19600000000.000 +6.7666944926E-002 -4.8928710908E-002  +6.4289000447E-002 +1.1073855070E-001  +1.0015297563E-001 +5.0753714782E-002  -9.3977433883E-002 -3.6318620941E-002 
19800000000.000 +1.6230412406E-002 +4.3128456352E-002  -1.4297090706E-001 -5.1726009035E-002  -6.8350586949E-002 +1.1984774153E-001  +5.5304261190E-002 -3.2031848521E-002 
20000000000.000 -2.4099047061E-002 -8.6270939138E-003  +1.3069042305E-001 -6.6749497819E-002  -1.0385477793E-001 -7.9822511867E-002  -2.1757450725E-002 +6.1089869802E-002 
20200000000.000 +2.5161929940E-002 -6.9154833405E-002  -7.5546401918E-002 +1.0865654739E-001  -5.0891686857E-002 -1.1085949895E-001  -7.1582815844E-002 -2.5565915024E-002 
20400000000.000 -1.7296091817E-002 +1.2287817061E-001  +8.9357753323E-003 -1.3364166335E-001  +1.1110775189E-001 -5.4108709179E-002  +2.3976349807E-002 -1.0001866337E-001 
20600000000.000 +1.7068630186E-003 -2.4462615979E-003  +9.2096877435E-002 +1.0196968871E-001  +7.2538821960E-002 +1.0223315024E-001  -2.2977627909E-002 +9.1114031077E-002 
20800000000.000 +7.5146491839E-002 -8.4380093337E-003  -1.3068391175E-001 -8.9885313578E-003  -9.7387510364E-002 +6.7913881599E-002  -5.4222284786E-002 -2.6144772488E-002 
21000000000.000 -6.6591138542E-002 +1.8703583155E-002  +9.1646031578E-002 -7.6078548514E-002  -3.3062004510E-002 -1.0698943707E-001  +2.0422227831E-002 -3.9372807974E-002 
21200000000.000 +5.8569580766E-003 +7.0238213872E-002  -1.2396546697E-002 +1.2367433228E-001  +9.6125154352E-002 -5.4071534154E-002  -1.1851090935E-001 +2.9804918102E-002 
21400000000.000 -1.7447966547E-003 -2.7410479866E-002  -7.4579927138E-002 -1.0853324600E-001  +8.4863847066E-002 +8.0407873650E-002  +7.0364760497E-002 +1.8200825923E-003 
21600000000.000 +5.6461974141E-003 +7.7578532238E-002  +1.0978418646E-001 +4.2847944399E-002  -3.2467569653E-002 +9.6254830571E-002  -7.2843738624E-002 +8.8785491633E-003 
21800000000.000 -5.8838148553E-002 -1.0500118674E-002  -1.1866116732E-001 +1.6820127359E-002  -1.0764297435E-001 +5.3992203844E-004  -2.6850029266E-002 -6.2705840177E-002 
22000000000.000 -3.8387745091E-002 -2.9088400498E-002  +8.0915360713E-002 -7.9210921197E-002  -6.3926630826E-003 -9.6591041504E-002  -2.6367846431E-003 +1.9808955200E-002 
22200000000.000 +5.0706583874E-002 +1.1579156020E-001  +1.4804954118E-003 +1.1721558284E-001  +9.7541885400E-002 -2.6009613642E-002  -6.3969463364E-002 +4.2073944085E-002 
22400000000.000 -6.7081907737E-002 -9.1515102457E-002  -6.1781502851E-002 -1.0099203349E-001  +3.2534847170E-002 +9.6237238759E-002  +8.2886923386E-002 -1.0531912931E-001 
22600000000.000 -2.4287632795E-002 +3.5196771271E-002  +1.0694130539E-001 +3.3083473085E-002  -7.6391096784E-002 +5.3567721944E-002  -1.0595372355E-001 +1.9953512166E-002 
