!  2-Port S-parameters saved by WinCal
! VAR MeasName=S-Parameters (CALIBRATED_DATA) read from VNA (MS4647B)
! VAR MeasDate=27-Apr-22 16:12:27
! VAR NAME=RAW_stepline_0.5mm_1
! VAR FILENAME=RAW_stepline_0.5mm_1.S2P
! VAR DATE=27-Apr-22 16:12:27
! VAR PHYS_PORTS=1,2
! VAR ObjTypeName=DATASET
! VAR IndexType=Frequency
! VAR ChuckHeaterState=Unknown
! VAR ChuckTemp=NaN
! VAR ChuckTempUnits=Unknown
!
# Hz S RI R 50
200000000.000 -2.2319023757E-002 -8.4095337137E-002  -2.4372581979E-001 -6.8844894116E-001  -3.6509290797E-001 -6.4707655881E-001  +1.9820176889E-002 -5.8896459003E-002 
400000000.000 +1.1916659993E-001 -9.0712534058E-002  -4.3683008905E-001 +5.2875392038E-001  -2.6883753397E-001 +6.4534553444E-001  -1.3118317618E-001 -5.5890082582E-005 
600000000.000 +7.0291683768E-002 -6.5426475428E-002  +5.7414532208E-001 +2.2068691688E-001  +5.7819394715E-001 -1.9480855043E-001  -5.7572648085E-002 +5.3980101846E-002 
800000000.000 +7.8852332299E-002 -2.2618463446E-001  -1.9901087987E-001 -6.3235467059E-001  -5.7139075765E-001 -3.0733499910E-001  +1.7814648257E-001 +6.2255881441E-002 
1000000000.000 +9.8588605874E-002 -1.8509095926E-001  -2.6475026958E-001 +6.5788066841E-001  +3.0502124629E-001 +6.0539248049E-001  +1.8496756142E-001 -6.0570761399E-002 
1200000000.000 +9.3349046561E-002 -2.2304459202E-001  +7.1923301494E-001 -1.5065496667E-001  +2.1362436110E-001 -6.5262273747E-001  -1.0569802981E-001 -1.3318736742E-001 
1400000000.000 +9.5007897777E-002 -1.9874850276E-001  -5.8732519108E-001 -4.3932424463E-001  -5.8779508217E-001 +3.3355203386E-001  -4.5137232950E-002 -6.1151001852E-002 
1600000000.000 +1.4624237841E-001 +1.1926940984E-001  +4.9187292258E-002 +6.3037637159E-001  +5.3423836256E-001 +1.4769964958E-001  -1.5862446611E-001 -4.5625100788E-002 
1800000000.000 +7.3245279267E-002 +6.5391722524E-003  +4.0630628443E-001 -3.3749219434E-001  -2.3365154557E-001 -3.9663605457E-001  +3.1728980217E-002 +9.0227969548E-002 
2000000000.000 +1.1920251432E-001 +4.3241424937E-002  -4.4238839744E-001 -9.5298782160E-002  -1.1079251936E-001 +3.6467126245E-001  +1.5590346521E-001 +9.8225603568E-003 
2200000000.000 +8.3646987907E-002 -1.9719482666E-001  +1.3077651538E-001 +3.9384812501E-001  +3.4263965089E-001 -1.2965684011E-001  -3.0489339005E-002 -2.5712303734E-001 
2400000000.000 -1.4889726372E-002 -1.4010495869E-001  +8.6673473764E-002 -4.2139488694E-001  -3.9001502227E-001 -5.1160632237E-002  -1.2707242736E-001 +4.0802439559E-002 
2600000000.000 +1.9816559510E-002 +8.9192722375E-002  -6.8915063733E-001 -3.2167423664E-001  -3.2815613157E-001 +4.0943219724E-001  +3.9129009596E-002 -3.1349556052E-002 
2800000000.000 +1.5780976871E-002 -2.6035234271E-001  +6.8549319286E-001 -5.3670877736E-001  -6.9122815880E-001 -1.9831814480E-001  -1.2039079442E-001 +1.4000571748E-001 
3000000000.000 +1.2360868639E-001 +1.3136592103E-002  +3.3605909883E-002 +8.6185391249E-001  -9.0424419121E-002 -7.4740501143E-001  -5.7503655487E-002 -3.5580927152E-002 
3200000000.000 -6.6571025904E-003 -9.8176179539E-002  -6.7818466141E-001 -3.9183729936E-001  +5.7174101955E-001 -3.8328245593E-001  +1.5947810344E-002 +8.2693226039E-002 
3400000000.000 +2.3488036326E-001 -3.1230785126E-002  +7.4904895275E-001 -3.3468892272E-001  +5.5852372971E-001 +5.0586501360E-001  -1.2283336735E-001 +1.2041774993E-001 
3600000000.000 +8.3440949054E-002 -5.0701023389E-002  -2.3197926453E-001 +8.1023357462E-001  -2.5671869435E-001 +8.1911283180E-001  -8.1984796659E-002 +8.3692742326E-002 
3800000000.000 -2.8987090033E-001 -4.5064282205E-002  -3.9839045288E-001 -7.8881388535E-001  -8.1326924598E-001 -1.0219945499E-001  +1.7405594767E-001 +8.9855946496E-002 
4000000000.000 +1.6045423355E-002 +1.8370585938E-001  +8.6328325310E-001 +1.7122232930E-001  -1.8259691788E-001 -7.3990684851E-001  -4.3543474496E-002 -1.0289267687E-001 
4200000000.000 +8.4282440961E-002 +8.5189957121E-002  -7.5438094292E-001 +5.0391386455E-001  +7.3874138431E-001 -4.1737622746E-001  -1.2878167778E-001 -3.8078098726E-002 
4400000000.000 +4.4317725243E-002 -9.9988163728E-002  +1.5791713003E-001 -8.4149030044E-001  +6.6290940812E-001 +5.9965590771E-001  +4.1344516999E-002 +7.6779881819E-002 
4600000000.000 -3.8864603347E-002 -3.4931795828E-002  +5.0712395912E-001 +6.9273340804E-001  -5.0613380758E-001 +6.8066953591E-001  +7.2368866991E-002 +4.3066842749E-002 
4800000000.000 -2.0604796677E-001 -5.8253753472E-002  -8.0656073819E-001 -1.8536086480E-001  -7.2139743164E-001 -2.9532184037E-001  +1.8291272160E-001 -3.1808828241E-002 
5000000000.000 +1.1395729720E-002 +7.5980327541E-002  +6.9761899285E-001 -3.9318821197E-001  +3.3050902588E-002 -8.6067722746E-001  -7.3880013011E-002 +7.3199754647E-003 
5200000000.000 +1.5541559878E-002 -1.4699191147E-001  -2.6387349127E-001 +7.5324041941E-001  +9.0616016198E-001 +1.5461248950E-004  +5.1692135096E-002 +1.8174300747E-001 
5400000000.000 -2.5588105856E-001 -9.3833907419E-002  -3.0204561784E-001 -6.8763152223E-001  +1.2176349642E-001 +7.8038367952E-001  +2.4146009319E-002 -2.4072025459E-001 
5600000000.000 +7.6329350330E-002 +1.0532449077E-002  +6.5777304153E-001 +2.8665629687E-001  -6.6917824447E-001 +3.8276282030E-001  +5.2443811296E-002 -6.0466584308E-002 
5800000000.000 +9.9272871413E-002 +9.9543462313E-002  -6.3789274740E-001 +2.6260462450E-001  -4.7007639233E-001 -6.3690630122E-001  -5.9494689499E-002 +9.7012535565E-002 
6000000000.000 +4.3444086132E-002 -1.0295271939E-001  +2.6700278883E-001 -5.9714475909E-001  +5.6376284639E-001 -5.1796381398E-001  -5.4732617325E-003 +3.4533036863E-002 
6200000000.000 +8.8592976274E-002 -1.9011108046E-001  +1.2456111150E-001 +6.0387764786E-001  +4.8583516003E-001 +4.7165342449E-001  +2.7474752881E-001 +1.0420700907E-001 
6400000000.000 -1.2307036441E-001 +6.1676349546E-002  -5.6768638529E-001 -2.6105715948E-001  -2.2082567065E-001 +6.5127316125E-001  -1.0784572984E-001 -1.4371376319E-001 
6600000000.000 +7.5986714046E-002 +5.5579840862E-002  +6.2758296130E-001 -5.6666862117E-002  -6.4489702332E-001 -2.4011203961E-001  +6.7439735265E-002 +4.0047122085E-002 
6800000000.000 -8.6668783080E-002 -2.9740889895E-002  -4.5171845357E-001 +4.3367999965E-001  +1.5761799702E-001 -6.6764391715E-001  +7.6539193469E-003 +5.6543046923E-002 
7000000000.000 +5.5970433432E-002 -3.6213007798E-002  -2.1674778244E-002 -6.0629840299E-001  +6.0125065485E-001 -1.1703797522E-001  +8.3875808075E-004 +3.5269892104E-002 
7200000000.000 -5.2279726889E-002 +2.8230063680E-002  +3.5822653665E-001 +4.8308043127E-001  +1.7552098774E-001 +5.5279819407E-001  +4.0496155765E-002 -1.2770973533E-002 
7400000000.000 -3.1286323552E-002 -2.9399928912E-002  -5.5568891176E-001 -1.2657885631E-001  -5.3876056182E-001 +2.3981133307E-001  -1.6983471299E-001 -2.1273171516E-002 
7600000000.000 +3.4033241142E-001 -1.8964383887E-002  +5.0159587735E-001 -2.3353524664E-001  -2.6289520074E-001 -4.7139335445E-001  +2.7887218950E-001 +9.4008124664E-002 
7800000000.000 -1.4093722782E-001 -6.1850185325E-002  -2.0089187141E-001 +5.1640348541E-001  +3.4974396298E-001 -3.5779315533E-001  -3.5287424604E-002 -3.9652457151E-002 
8000000000.000 +4.9833732774E-002 -6.9913858778E-002  -1.4089861783E-001 -5.1050517159E-001  +3.8147998709E-001 +3.4237104804E-001  -2.1746875141E-002 -1.2648703867E-001 
8200000000.000 -9.4446375716E-002 +9.0082564754E-002  +4.3169394701E-001 +2.4579931505E-001  -2.5612295383E-001 +4.1287017633E-001  -1.1289059240E-002 +3.5338875927E-002 
8400000000.000 +2.8074067002E-002 +1.1100093207E-001  -4.4425377399E-001 -4.1366394497E-003  -4.0203336062E-001 -1.6322432750E-001  -1.1328301547E-002 +1.1760132644E-001 
8600000000.000 +4.9538185754E-002 -1.8160676541E-002  +2.8366849203E-001 -3.0816774479E-001  +1.1401263929E-001 -3.9584559410E-001  +1.0920924944E-001 -9.7152846539E-003 
8800000000.000 -5.6275022935E-002 -9.3604980182E-002  +1.4584350483E-002 +4.1066485933E-001  +4.1393220515E-001 -2.9208236761E-002  -1.1950724424E-001 +2.6375019486E-005 
9000000000.000 +6.2505735733E-002 +5.4431975962E-002  -2.3654411672E-001 -2.9781617069E-001  +4.2324284622E-002 +3.9485215914E-001  +2.3474488386E-002 -3.5091122311E-003 
9200000000.000 -8.0879179948E-002 +7.8277613991E-003  +3.7682009108E-001 +4.6366157309E-002  -3.5832182355E-001 +1.0381507658E-001  -2.3893220173E-002 +1.0547412830E-001 
9400000000.000 +1.4910139383E-001 -7.5533865782E-002  -2.7786445050E-001 +1.9670876732E-001  -1.6320643117E-001 -2.9633059631E-001  -4.6942098792E-002 -1.4541726167E-001 
9600000000.000 -1.7445296708E-002 -5.4742967589E-002  +9.3704019673E-002 -3.4025684802E-001  +2.9568680619E-001 -2.0175003451E-001  -1.2098342495E-002 -2.3074656912E-002 
9800000000.000 -3.8769585504E-002 +2.1632540131E-002  +1.4410937997E-001 +3.0198760067E-001  +2.4962290384E-001 +2.4391200846E-001  -6.2823375341E-002 +6.4785620951E-002 
10000000000.000 -2.6739011489E-002 +2.9687637662E-002  -2.9572795606E-001 -1.2097350046E-001  -2.5705864758E-001 +1.9794500742E-001  -1.1755006654E-002 +2.8798359949E-003 
10200000000.000 +5.1893840746E-002 +1.1775816051E-001  +2.9028030089E-001 -4.0118805652E-002  -2.7906906159E-001 -7.4148034599E-002  +8.9188658660E-002 -1.4417220739E-001 
10400000000.000 +6.2841885283E-002 +2.9263930613E-002  -2.0884111473E-001 +2.1278240388E-001  +1.0972699801E-001 -3.0541328166E-001  -7.0145525913E-003 -3.0901334325E-002 
10600000000.000 +2.6840248804E-002 -1.0163569114E-001  -9.1489603787E-003 -2.9102875585E-001  +2.7406244883E-001 +1.0815957166E-001  -1.0457617946E-001 +1.1597219392E-001 
10800000000.000 -2.2215751047E-002 +8.9123338696E-002  +1.3721280906E-001 +2.3543992360E-001  -2.4792649300E-002 +2.8167650919E-001  +2.8945619760E-002 -1.1682470308E-001 
11000000000.000 +1.4564779713E-002 +1.9084368692E-002  -2.6041943192E-001 -1.0518126472E-001  -2.8487343467E-001 +6.8805231970E-002  +1.3025602145E-001 +3.8667185007E-002 
11200000000.000 -2.2429147930E-002 +7.7457016759E-003  +2.5297376558E-001 -7.4935922035E-002  -8.4673371810E-002 -2.7711315310E-001  -1.5079237278E-001 +1.2593297261E-002 
11400000000.000 +4.4872899232E-002 -2.1448917477E-002  -1.4309224576E-001 +2.1995093653E-001  +2.6172322244E-001 -1.3141732614E-001  -8.7575276003E-003 -7.0616362508E-002 
11600000000.000 -7.4516062984E-002 +1.6536919656E-002  -5.7243367598E-002 -2.3092225964E-001  +1.3395690520E-001 +2.2015475269E-001  +8.7386141430E-002 +1.0434782796E-001 
11800000000.000 -1.0735633441E-001 +3.1589773619E-002  +2.1771408518E-001 +1.2314223099E-001  -1.9554464884E-001 +1.9072678673E-001  -5.0021511146E-003 -1.0742486255E-001 
12000000000.000 +2.1762008101E-001 +1.9635473264E-002  -2.1397876640E-001 -5.0803559486E-003  -1.5651670188E-001 -1.7616061106E-001  -1.0889845750E-001 -1.9327496899E-002 
12200000000.000 -5.3211147129E-002 -6.9652335445E-003  +2.0786416541E-001 -1.0025284888E-001  +1.9281538571E-001 -1.6797957578E-001  -9.8726949036E-003 +1.3815507789E-002 
12400000000.000 +6.7027339161E-003 -2.6193556496E-002  -9.4918821109E-002 +2.0851238184E-001  +1.9705602896E-001 +1.5908347658E-001  +6.0306007577E-002 +2.6502093952E-002 
12600000000.000 +6.1862403142E-002 +1.3576895204E-002  -1.0480875262E-001 -1.8681164399E-001  -1.0468382639E-001 +2.1755207124E-001  -1.0840570217E-001 +2.9740877651E-002 
12800000000.000 -4.9768062981E-003 +1.1390386223E-001  +1.9046559666E-001 +4.9427560608E-002  -2.2465736590E-001 -2.8184911236E-002  +3.2222871143E-002 -1.7709352025E-001 
13000000000.000 +1.7576319375E-002 -1.9294315102E-002  -1.9834823536E-001 +6.2696596488E-002  +1.8627853817E-002 -2.3564344507E-001  -4.5235871484E-003 +1.4343782990E-001 
13200000000.000 -7.7380977078E-002 -1.2947752589E-001  +1.5484070564E-001 -1.4843663503E-001  +2.1979014696E-001 +4.1986804081E-002  +2.5546019615E-003 -6.8694201261E-002 
13400000000.000 -4.2320876584E-002 +1.7928557759E-001  -7.2994448882E-002 +1.5581102375E-001  -5.3026712950E-002 +1.9014617612E-001  +5.9067231323E-002 -1.3290440780E-001 
13600000000.000 -8.5742041561E-002 -3.6567398885E-002  -6.5420413767E-002 -1.8950351232E-001  -2.3002351342E-001 -1.9062408031E-002  -3.2601762741E-002 +3.3736941156E-002 
13800000000.000 +9.2410223290E-002 -8.5399629238E-002  +1.8933122863E-001 +7.9716409252E-002  -1.0355160974E-001 -1.9387778824E-001  +1.5243271057E-002 +2.2136019614E-002 
14000000000.000 +2.7509566552E-002 +6.9060058274E-002  -1.7367700526E-001 +7.8941316691E-002  +1.4822175158E-001 -1.3714458166E-001  -5.8011114277E-003 -3.6080694627E-003 
14200000000.000 -1.9506574146E-001 -2.5270857374E-002  +9.7366953243E-002 -1.3576735872E-001  +1.3120564472E-001 +1.1243409001E-001  +7.9533817137E-002 -1.5245891234E-001 
14400000000.000 +1.1328075421E-001 -2.2050139667E-002  -2.3798471385E-002 +1.8345217043E-001  -1.6769251225E-001 +1.0924544380E-001  -4.2929585348E-002 +1.0360836554E-001 
14600000000.000 +3.7725262070E-002 +3.8334180522E-002  -1.2829478368E-001 -1.3773147527E-001  -1.3286577724E-001 -1.3546413871E-001  -3.1557866254E-002 -4.1383319234E-002 
14800000000.000 -1.1636455054E-001 -3.4269505564E-002  +1.6563007244E-001 +2.2838266188E-002  +8.6450111060E-002 -1.4524420219E-001  +7.7300891567E-002 -4.1430710023E-002 
15000000000.000 +3.9109337470E-002 -1.1987353584E-001  -1.4484445556E-001 +1.0004409353E-001  +1.6069795571E-001 +7.1027275305E-002  +4.3503017294E-002 -2.5233303192E-002 
15200000000.000 +1.7579409174E-002 +1.6196960114E-001  +6.0629359809E-002 -1.7327856348E-001  -5.8841640250E-002 +1.6206023894E-001  -8.3289305135E-002 +4.7722436721E-002 
15400000000.000 -1.4744796993E-002 -2.4091358013E-002  +9.6329247259E-002 +1.5762008276E-001  -1.6890942791E-001 -3.6553392202E-002  +2.2148921483E-002 -1.1273883419E-002 
15600000000.000 +1.3243174293E-002 -1.2695563970E-001  -1.5367725323E-001 -7.9637797290E-002  -1.0402412147E-002 -1.5959689246E-001  +8.4673910588E-002 -8.6069685005E-002 
15800000000.000 +3.4212624892E-002 +9.4792907350E-002  +2.0265728205E-001 +1.2410121395E-003  +1.7961372707E-001 -1.9692071934E-002  +1.0371244716E-002 +1.3102688119E-001 
16000000000.000 -7.1380985298E-002 -5.0045261292E-002  -1.2326157093E-001 +1.3927204971E-001  +1.0859405824E-002 +1.6950343920E-001  -5.3671888804E-002 -1.4205701019E-001 
16200000000.000 +9.2064512092E-003 -6.8414357775E-003  +2.1736255472E-002 -1.7515823880E-001  -1.4916595723E-001 +3.1131012872E-002  +3.5590933359E-002 +3.7001480074E-002 
16400000000.000 +1.1120610721E-001 +2.6963649745E-002  +1.0430312218E-001 +1.3787466491E-001  -5.1942553371E-002 -1.4237892207E-001  +5.3763281246E-002 +3.7601666257E-002 
16600000000.000 -1.0444609941E-001 -1.1670118470E-002  -1.6530109912E-001 -6.4761212316E-002  +1.3197845551E-001 -9.6054238710E-002  -6.6642960608E-002 -3.4132866674E-002 
16800000000.000 +2.9760027632E-002 -1.3343109689E-002  +1.6317658320E-001 -3.4431318926E-002  +1.0833396105E-001 +9.8286582979E-002  +4.8387308503E-002 +1.4751985475E-002 
17000000000.000 +7.1873826607E-002 +3.9726928114E-002  -1.1250152949E-001 +1.0481109349E-001  -1.0006150048E-001 +8.9099909758E-002  +8.0928505485E-002 -4.4731048600E-002 
17200000000.000 -3.7901528340E-002 +2.9483333740E-002  -3.2090302464E-002 -1.6951230898E-001  -1.2003871718E-001 -9.3341525746E-002  -5.3359956689E-002 +1.2377924221E-001 
17400000000.000 +3.3714683303E-003 -2.7484231232E-002  +1.3317806905E-001 +6.1159915422E-002  +3.8737546245E-002 -1.2531804778E-001  -4.3422027740E-002 -1.3506857936E-001 
17600000000.000 +2.6921432988E-002 -5.2260177479E-002  -1.1875615441E-001 +1.5805588017E-002  +1.0428960326E-001 +1.5682872576E-002  +1.4094015646E-001 -2.4640913736E-003 
17800000000.000 -1.8817468027E-002 +1.4287739342E-001  +1.1637318316E-001 -6.8594134557E-002  -1.5421266031E-002 +1.1860930735E-001  -1.9777893245E-002 +1.3241212316E-001 
18000000000.000 -9.1145113607E-004 -4.1864926170E-002  -3.7565512728E-002 +1.5362116400E-001  -1.3850398682E-001 +9.5543413016E-003  -4.7059280840E-002 -1.5473997803E-001 
18200000000.000 +4.5740050901E-002 -7.6762747832E-002  -7.2249053080E-002 -1.0598900725E-001  -3.9987236362E-002 -1.0413397065E-001  +7.7990333530E-002 +6.4342861633E-002 
18400000000.000 -3.8785541706E-002 +1.6238339447E-001  +8.8515321979E-002 +5.6742731657E-002  +9.0141029089E-002 -1.4407189857E-002  +4.9393290347E-002 +9.9110137272E-002 
18600000000.000 -8.2822750162E-002 -8.5768333400E-002  -1.4162284840E-001 +5.0327662797E-002  +3.1576157604E-002 +1.1981918126E-001  -9.3821144874E-002 -4.0963450265E-002 
18800000000.000 +3.5089702023E-002 +4.1750298184E-002  +5.8128771204E-002 -1.3205175687E-001  -1.0017652368E-001 +8.9392783085E-002  +6.5249736879E-002 -5.2989812373E-002 
19000000000.000 +3.4102885111E-002 +6.0434518815E-002  +3.4471968769E-002 +1.0859533850E-001  -7.8175002806E-002 -5.9738881332E-002  +4.6165663463E-002 +2.5484416543E-002 
19200000000.000 -1.2781551064E-001 -1.4054546952E-001  -5.2723075072E-002 -9.5380373323E-002  +8.1476552687E-002 -4.5223628637E-002  -8.7824094010E-002 +9.7120214181E-002 
19400000000.000 +5.4694377488E-002 +5.8791243925E-002  +1.4541821992E-001 +3.3712128803E-002  +9.7275292539E-002 +8.0992178411E-002  +1.1164595038E-001 -9.6692783782E-002 
19600000000.000 +1.5570291857E-002 +9.2403355774E-003  -1.0585886989E-001 +8.9868472672E-002  -3.5409180154E-002 +1.1642732363E-001  -1.3631924279E-002 +4.8741992653E-002 
19800000000.000 -3.5572423891E-002 -5.3997775741E-002  +3.6478519001E-002 -1.1416608447E-001  -9.5473292388E-002 -5.0479192807E-002  +2.7195191504E-002 +5.6677846661E-002 
20000000000.000 +4.0857357987E-002 -3.2124872893E-002  +5.2017920795E-002 +1.2644074326E-001  +8.1851251466E-002 -8.9962010402E-002  -4.1283998472E-002 +6.7823969336E-003 
20200000000.000 -4.4483589912E-003 -2.2374325123E-002  -1.0924107494E-001 -7.5348126123E-002  +1.1111979698E-001 -5.1799840076E-002  +1.6188682634E-002 -7.1562996980E-002 
20400000000.000 -6.7658762521E-002 +5.1497610824E-002  +1.0687076190E-001 -2.6856963966E-003  +5.1198633281E-002 +8.4882155124E-002  +8.4539550138E-002 -8.8410669903E-003 
20600000000.000 +7.4566535647E-002 -4.9955660159E-002  -1.0482720920E-001 +5.8675179162E-002  -1.0181852377E-001 +4.1461960047E-002  -6.0707460278E-002 +1.2654096520E-001 
20800000000.000 +4.4890578717E-002 +2.0177553190E-002  +2.1891204826E-002 -1.3416941792E-001  -6.0573445694E-002 -1.0685972970E-001  -1.1947030172E-002 -1.0986471603E-001 
21000000000.000 -9.8534909382E-002 -5.9710756636E-002  +6.2953258694E-002 +6.1202955059E-002  +7.5357788276E-002 -3.2723421706E-002  +1.2906264499E-001 -2.9497641469E-002 
21200000000.000 +8.8406013353E-002 +2.7770614937E-002  -8.6113193475E-002 -4.6173145340E-002  +1.0657413234E-002 +8.6089075888E-002  -1.1323472578E-001 +9.4128602530E-002 
21400000000.000 +1.6428575825E-002 +2.9514944467E-003  +1.2208285599E-001 -4.3820249787E-002  -9.8019983828E-002 +6.0856357110E-002  +6.3613591334E-002 -2.5318268139E-002 
21600000000.000 -2.7571870173E-002 +2.2102267330E-002  -4.5664680616E-002 +1.1105173626E-001  -9.7332811358E-002 -3.5000176512E-002  +2.0857498142E-002 -2.0876537000E-002 
21800000000.000 +1.5311423088E-002 -5.8759413053E-002  +4.2633503159E-003 -7.8818937705E-002  +1.3402226287E-002 -6.9387920762E-002  +3.1990497031E-002 +6.0366376748E-005 
22000000000.000 +1.4309181209E-002 +3.2318573398E-002  +3.5993884156E-002 +1.0210768716E-001  +8.6342561673E-002 +3.3216100907E-002  -2.5246031677E-002 +4.1665159264E-002 
22200000000.000 +3.3021272138E-002 +1.0785569668E-001  -1.1513497267E-001 -3.0998931784E-002  -1.5391899754E-003 +1.0260572914E-001  +1.6986316989E-003 +1.0633147218E-002 
22400000000.000 -7.1982207088E-003 -1.4191145693E-001  +7.9664483355E-002 -4.2295880810E-002  -7.4517795476E-002 +2.0233560426E-002  +1.5915700904E-001 -4.6906574584E-002 
22600000000.000 +3.7989610666E-002 +8.4634980333E-002  -6.3809497956E-002 +6.0496850095E-002  -7.1047727448E-003 -7.2525083556E-002  -1.3608744688E-001 +6.7281744950E-002 
