!  2-Port S-parameters saved by WinCal
! VAR MeasName=S-Parameters (CALIBRATED_DATA) read from VNA (MS4647B)
! VAR MeasDate=27-Apr-22 17:09:55
! VAR NAME=RAW_stepline_6.5mm_2
! VAR FILENAME=RAW_stepline_6.5mm_2.S2P
! VAR DATE=27-Apr-22 17:09:55
! VAR PHYS_PORTS=1,2
! VAR ObjTypeName=DATASET
! VAR IndexType=Frequency
! VAR ChuckHeaterState=Unknown
! VAR ChuckTemp=NaN
! VAR ChuckTempUnits=Unknown
!
# Hz S RI R 50
200000000.000 -4.3099445457E-002 -8.3572684666E-002  -2.7704122035E-001 -6.7648538701E-001  -3.9505205915E-001 -6.2869800842E-001  +7.4395040043E-003 -5.0613758173E-002 
400000000.000 +1.1736385949E-001 -7.4228351024E-002  -3.8827347375E-001 +5.6450370648E-001  -2.1032453278E-001 +6.6540078402E-001  -1.1334245166E-001 -6.4517895723E-003 
600000000.000 +1.2283475141E-001 -6.6882396951E-002  +5.9622841099E-001 +1.2936268585E-001  +5.3500416023E-001 -2.7719004131E-001  -1.0946397384E-001 +7.2231125104E-002 
800000000.000 +5.7846729566E-002 -2.6400670647E-001  -3.0141101458E-001 -5.8152034256E-001  -6.0753465644E-001 -2.0393214302E-001  +2.0524157701E-001 +4.9492756348E-002 
1000000000.000 +6.2631289030E-002 -1.5648604110E-001  -1.1681101921E-001 +6.9444071048E-001  +4.2370406100E-001 +5.2482505101E-001  +1.4906327134E-001 -7.2504532426E-002 
1200000000.000 +1.3861457754E-001 -1.2964706942E-001  +6.4068641201E-001 -3.5126928328E-001  +1.4028106073E-002 -6.8799129096E-001  +6.3895373477E-003 -9.3892751313E-002 
1400000000.000 +1.0864543460E-001 -2.5313386617E-001  -6.7832021880E-001 -2.4274578823E-001  -4.5250388421E-001 +4.8520709187E-001  -1.1596397469E-001 -9.6985515025E-002 
1600000000.000 +1.0029973623E-001 +2.1641710433E-002  +2.7226505674E-001 +5.7889493752E-001  +5.5845444773E-001 -5.2270708410E-002  -9.5044012499E-002 +3.0865920966E-002 
1800000000.000 +3.7570508425E-002 +1.2988939694E-001  +2.2060959916E-001 -4.5448187453E-001  -3.6064641523E-001 -2.5312607428E-001  -5.9604260045E-002 +2.5513197192E-002 
2000000000.000 +2.3485334938E-001 +2.3467258887E-002  -4.0487009946E-001 +9.9136952726E-002  +5.6529897177E-002 +3.4629266832E-001  +2.4841269958E-001 +7.4182368942E-002 
2200000000.000 +3.8328201800E-002 -2.3411121525E-001  +2.8090689919E-001 +2.9313308198E-001  +2.4827031545E-001 -2.5681481755E-001  -6.7995265451E-002 -2.8591016431E-001 
2400000000.000 -8.7410144874E-002 -1.6928744097E-001  -1.3746069710E-001 -4.1524795105E-001  -3.6574940780E-001 +1.5182796057E-001  -1.2513820619E-001 +1.1648305621E-001 
2600000000.000 -6.0093484264E-002 +2.7766433068E-001  -7.1783757017E-001 +1.1357390455E-001  -3.9867144170E-002 +5.0271846388E-001  +1.6484111429E-001 -8.8060016357E-002 
2800000000.000 -2.0764242476E-001 -3.2870856605E-001  +2.4298162967E-001 -7.8046833380E-001  -6.3821511166E-001 +2.2241486885E-001  -8.5169140354E-003 +2.7798670556E-001 
3000000000.000 +1.1598809476E-001 -1.9237481437E-001  +4.9546634137E-001 +6.6512631363E-001  -4.7724743112E-001 -5.3644623419E-001  -1.3394312703E-001 +5.6068339284E-002 
3200000000.000 -3.4713446589E-002 -9.5511432725E-003  -7.8359880197E-001 +9.9681762797E-002  +2.2038428624E-001 -6.5559881543E-001  +7.9874166392E-002 -4.5378497880E-002 
3400000000.000 -1.0934741079E-001 +1.0104104109E-001  +2.4270433083E-001 -7.4807902507E-001  +7.0751730004E-001 -6.2644302589E-002  +1.7798337009E-001 -3.0182859995E-002 
3600000000.000 -5.8821411983E-002 -2.5277237719E-001  +3.6564492635E-001 +7.0537674197E-001  +3.4381987241E-001 +7.3265936873E-001  +8.0998164083E-002 +2.2028260938E-001 
3800000000.000 +1.3931211228E-001 -1.1567873657E-001  -8.1542820440E-001 -1.7862937589E-001  -5.7366489153E-001 +5.1798824560E-001  -7.5310032574E-002 +1.0011527148E-001 
4000000000.000 +9.7280268244E-002 +4.5727524030E-001  +6.5140713303E-001 -4.9559600580E-001  -6.2948432520E-001 -3.3946706426E-001  -1.0193538780E-001 -2.9927347291E-001 
4200000000.000 -1.7368644720E-001 -8.3930821898E-002  -4.6772190756E-002 +8.6773683433E-001  +1.0421923229E-001 -8.1330649059E-001  +1.6276091133E-001 +2.8847495780E-003 
4400000000.000 +1.3179768086E-001 -4.3555251938E-001  -5.2096302281E-001 -5.7296832342E-001  +7.9036746147E-001 -1.6621172586E-001  +3.0728816283E-003 +3.7683676216E-001 
4600000000.000 +1.4202627844E-001 +2.5489299753E-001  +7.8688910016E-001 -6.1117010931E-002  +2.9841341713E-001 +7.1301399343E-001  -2.6787788513E-001 -1.0547763061E-001 
4800000000.000 -4.5658004847E-001 +1.8053264107E-001  -5.4466819959E-001 +4.6593965486E-001  -5.7296838331E-001 +3.4172344085E-001  +1.9860706666E-001 -3.9829426672E-001 
5000000000.000 +1.2163876457E-001 -1.0421833719E-001  +4.4605029483E-003 -7.7561312977E-001  -6.9845384752E-001 -4.4575859411E-001  +1.2575565023E-001 +7.9204448554E-002 
5200000000.000 +4.4901603443E-001 +1.2360564854E-001  +4.9040938667E-001 +4.7317763824E-001  +3.4413849135E-001 -6.9934970732E-001  -1.4872671707E-001 +4.6085321573E-001 
5400000000.000 -3.9415582903E-001 +2.2775719240E-001  -6.8344177274E-001 -7.2607513562E-002  +6.8419312995E-001 +2.6311514293E-001  -1.6984414666E-001 -3.4833219686E-001 
5600000000.000 -1.3088166806E-001 -2.4497937583E-001  +4.7340721459E-001 -4.3850593058E-001  +7.8499948259E-002 +7.0043824365E-001  +2.7925860713E-001 -1.2954652774E-001 
5800000000.000 +2.3774553271E-001 -2.7042147562E-003  -1.1262915647E-003 +6.5211346651E-001  -7.3336570084E-001 +1.8720458152E-001  -8.5004273641E-002 +3.0713439143E-001 
6000000000.000 -5.2289696538E-002 +2.4209785786E-001  -4.3270004485E-001 -3.5278893026E-001  -3.1408831426E-001 -5.8806497945E-001  -3.8146288493E-001 -5.2481848126E-002 
6200000000.000 -2.1598862928E-001 -2.1113645113E-001  +5.4435332776E-001 +1.0742657807E-001  +5.5768532973E-001 -2.4502159516E-001  +3.2626753603E-001 -1.9073000751E-001 
6400000000.000 +7.9826793447E-003 -8.8300653124E-002  -3.7035998099E-001 +4.6534204361E-001  +5.5541113158E-001 +3.4748756554E-001  +7.1221360043E-003 +3.9347539641E-002 
6600000000.000 +2.3881676058E-001 +3.1141784712E-001  +7.2995328435E-002 -5.2766942351E-001  -3.0939499949E-001 +4.8864727702E-001  -2.7918898893E-001 +2.1991241653E-001 
6800000000.000 -2.7884283583E-001 +1.4906800009E-002  +3.0877285868E-001 +4.7971443886E-001  -5.7083641405E-001 -2.4769486809E-001  -3.9972528809E-002 -2.7014850875E-001 
7000000000.000 +9.2746097355E-002 -3.2697126547E-001  -5.0386529751E-001 -7.3433148522E-002  -1.1858197702E-002 -5.0633678672E-001  +3.4498663884E-001 -1.0474457074E-001 
7200000000.000 +1.0361286038E-001 +1.6683140065E-001  +4.8202748434E-001 -2.7966385375E-001  +5.1936676393E-001 -1.0594357135E-001  +4.8025767215E-002 +2.0777717665E-001 
7400000000.000 -3.5970132990E-001 +1.7188687470E-001  -1.4684438544E-001 +4.3221535116E-001  +1.4585103059E-001 +4.3743640029E-001  -4.6892825558E-001 -1.0762224541E-001 
7600000000.000 +1.3339761258E-001 -2.0407520149E-001  -1.6744892112E-001 -5.1193899542E-001  -4.8143507789E-001 +1.9684400335E-001  +3.0608057471E-001 -1.0351916217E-001 
7800000000.000 +4.4012255332E-002 +2.6307893743E-002  +4.7622860598E-001 +1.6018840387E-001  -3.3789215981E-001 -2.9874846664E-001  +8.3140939306E-002 +1.3812469277E-001 
8000000000.000 -1.1795955586E-001 +1.4004504773E-001  -4.4918109202E-001 +1.1231482280E-001  +3.0864064765E-001 -3.2125600405E-001  -1.9510097613E-001 +7.0041952433E-002 
8200000000.000 -2.2853116385E-001 -1.3420466231E-001  +1.8540378911E-001 -3.9389180186E-001  +3.7304750745E-001 +1.9851268345E-001  -6.0160293763E-002 -1.5360845135E-001 
8400000000.000 +2.7799054631E-001 -3.4118050280E-002  -4.7128557276E-006 +4.0902396005E-001  -1.4993790047E-001 +3.6843196731E-001  +1.6333391980E-001 +8.3203943141E-002 
8600000000.000 +5.9281807602E-002 +1.0788611475E-001  -3.2934563458E-001 -2.1557828372E-001  -3.8352812772E-001 -4.3472339190E-002  +3.6311901074E-002 +7.2211258136E-002 
8800000000.000 -2.4292644459E-001 -1.6587056681E-001  +3.4276539328E-001 -6.0846540307E-002  -7.3542006334E-002 -3.4381306816E-001  -3.1780758087E-001 -9.9863985382E-002 
9000000000.000 +1.4536787763E-001 -7.0412382421E-003  -2.1679220831E-001 +2.7504318296E-001  +3.4549559227E-001 -1.2109220872E-001  +1.4793363295E-001 -1.2324195801E-001 
9200000000.000 -2.1083330428E-002 +2.5299044948E-001  -1.3608567438E-002 -3.0476839571E-001  +1.2791586007E-001 +2.7205474265E-001  +1.0479741150E-001 +2.7138798514E-001 
9400000000.000 -3.5619655464E-002 -8.8755954859E-003  +2.5025895210E-001 +2.2512476363E-001  -2.5129050571E-001 +2.2181471383E-001  -1.0910034189E-001 -3.5609957277E-002 
9600000000.000 +2.1517449583E-002 -1.7082705136E-001  -3.1869370625E-001 +2.1525999106E-002  -2.5983397174E-001 -1.9188495089E-001  +1.4493073241E-002 -1.7696817017E-001 
9800000000.000 +5.1784455531E-002 +1.0374925739E-001  +2.1579473155E-001 -2.1247076231E-001  +1.3536271056E-001 -2.8523850166E-001  +1.2289593510E-001 +7.4030425988E-002 
10000000000.000 -1.9063421254E-001 +1.3153862994E-002  -1.1548512901E-002 +2.7130234758E-001  +2.3193633106E-001 +1.4912441519E-001  -5.4368566633E-002 +1.7793480727E-001 
10200000000.000 +3.0634414173E-002 -8.0907660048E-002  -1.3590733855E-001 -2.7411679948E-001  +1.9367424771E-002 +3.0038473736E-001  -4.5805752891E-002 -8.3665830715E-002 
10400000000.000 +1.1261622028E-001 +1.0129298331E-001  +2.7156897766E-001 +7.5038199849E-002  -3.0276339178E-001 +4.9807608786E-002  +3.9402918409E-002 -1.0862366641E-001 
10600000000.000 -1.4660113947E-001 -5.0669378104E-002  -2.3944871497E-001 +1.1418463897E-001  -1.0270737432E-002 -2.6908694901E-001  +4.4316486688E-003 +2.0120996981E-001 
10800000000.000 -4.5589537846E-002 -3.0522881594E-002  +1.3185518440E-001 -2.3495297747E-001  +2.5345100146E-001 -1.1970926802E-001  -3.4934197184E-002 -4.4141639311E-002 
11000000000.000 +1.2514816025E-001 +5.4665937149E-002  +4.3597991100E-002 +2.6701847654E-001  +1.9822881974E-001 +2.0127896571E-001  +6.1710467483E-002 -7.9888505001E-002 
11200000000.000 -7.1530871443E-002 +6.2306507463E-002  -2.0872331666E-001 -1.5545635798E-001  -1.6833959290E-001 +2.3022888264E-001  -6.2771298638E-002 -2.8081202944E-002 
11400000000.000 +2.2475882261E-002 -1.6007569426E-001  +2.4726568597E-001 -1.1362193283E-002  -2.4483180015E-001 -1.2747189091E-001  -8.4977678653E-003 +2.9939518084E-002 
11600000000.000 +3.3814337641E-002 -3.1312852883E-002  -1.3764519932E-001 +1.9565026922E-001  +7.8566214562E-002 -2.4768892943E-001  +3.0622268090E-002 +9.7949020809E-002 
11800000000.000 -1.2493270158E-001 +1.2469670159E-001  -4.7707681217E-002 -2.2858250259E-001  +2.5599538527E-001 +1.9957720209E-002  +7.8593101939E-002 -1.8229728699E-001 
12000000000.000 +1.2772814052E-001 -8.1003142423E-003  +1.5444500025E-001 +1.6972686188E-001  -2.1514652486E-002 +2.5248330235E-001  -1.9230673853E-002 +4.8767344779E-002 
12200000000.000 -2.2476079604E-002 -1.5508291676E-002  -2.1948779571E-001 -5.3242499133E-002  -2.4985020066E-001 +6.8730157250E-003  -6.4083041656E-002 +2.0416338748E-002 
12400000000.000 -2.8579715813E-002 +6.6395965515E-002  +1.9984433394E-001 -8.4206849764E-002  -3.5835988214E-002 -2.3644590991E-001  +8.0118300208E-002 -5.7837154563E-002 
12600000000.000 -4.1431652307E-002 +1.2967969378E-002  -4.0456462577E-002 +2.1342206957E-001  +2.2257931966E-001 -1.0152599392E-001  -3.9491254943E-002 +5.3003249298E-002 
12800000000.000 -1.6416959155E-002 +2.1574339561E-002  -1.3628748291E-001 -1.6088876218E-001  +1.7970187932E-001 +1.6328747274E-001  +2.0756903666E-002 -1.1217623960E-001 
13000000000.000 +5.2915190088E-002 -1.6500566862E-002  +2.0259337969E-001 +4.4090577159E-002  -1.3277538772E-001 +1.9470984995E-001  -2.2662169375E-002 +1.1276284175E-001 
13200000000.000 -1.3051724739E-001 -1.5899389605E-001  -1.9726523905E-001 +3.7045416674E-002  -1.5060728425E-001 -1.4498569122E-001  +9.4227590075E-002 -7.4686345177E-002 
13400000000.000 -2.8378903499E-002 +1.1862709527E-001  +1.5106829512E-001 -1.1729395592E-001  +1.4813559849E-001 -1.6149394439E-001  +8.2069441542E-002 -6.4133142054E-002 
13600000000.000 -5.0028632871E-002 -2.3492248990E-002  -1.1561608488E-002 +2.0116019834E-001  +2.0682304508E-001 +1.0538432742E-001  -5.9796626989E-002 +2.8960023597E-002 
13800000000.000 +6.2429221195E-002 -5.3527926734E-002  -1.4594169773E-001 -1.4480939188E-001  +2.3748610760E-002 +2.1880970239E-001  +3.7916195550E-002 -7.5336886876E-003 
14000000000.000 +1.1015184768E-002 +3.6636597679E-002  +1.9373041833E-001 -1.3466925494E-002  -1.8981524234E-001 +7.7833279771E-002  +3.4123146744E-002 +2.6646768160E-002 
14200000000.000 -1.6580094156E-001 -3.5821556808E-002  -1.3568850054E-001 +1.1266052651E-001  -1.0393551667E-001 -1.4987546410E-001  +6.7951533158E-002 -1.1582465589E-001 
14400000000.000 +1.1460746590E-001 -8.0391699345E-003  +6.1096358878E-002 -1.7230775305E-001  +1.8467829278E-001 -7.0658138910E-002  -4.8072534496E-002 +9.2281930838E-002 
14600000000.000 +2.8896853106E-002 +2.0531312232E-002  +9.6777185738E-002 +1.6015557338E-001  +1.0155398235E-001 +1.5917317236E-001  -7.8472291822E-003 -3.4521163595E-002 
14800000000.000 -1.0265495769E-001 -4.1563004714E-002  -1.6227493831E-001 -4.4610934532E-002  -1.0542427996E-001 +1.3346689138E-001  +8.1641719065E-002 -2.7551485876E-002 
15000000000.000 +4.0169362524E-002 -1.1182062301E-001  +1.5123099992E-001 -8.5486147352E-002  -1.5155978212E-001 -8.4126626247E-002  +3.5914829743E-002 -2.5919016991E-002 
15200000000.000 +1.4170010770E-002 +1.6109611925E-001  -6.8163799829E-002 +1.6634267340E-001  +6.5675425971E-002 -1.5551745433E-001  -8.1399119287E-002 +4.5710103218E-002 
15400000000.000 -1.4433363430E-002 -2.2299179106E-002  -9.1977810601E-002 -1.5424249940E-001  +1.6393054789E-001 +3.7259010347E-002  +2.1114814994E-002 -1.0282420777E-002 
15600000000.000 +8.9674686128E-003 -1.2959148385E-001  +1.5039247224E-001 +7.3231891937E-002  +1.3852419981E-002 +1.5403381724E-001  +8.5370235850E-002 -8.9234082049E-002 
15800000000.000 +4.2363474809E-002 +9.4031843520E-002  -1.9560783681E-001 +1.2644299239E-002  -1.7207854903E-001 +3.1351088377E-002  +1.0952379051E-002 +1.3626702037E-001 
16000000000.000 -7.7757609414E-002 -3.5292356253E-002  +1.0064151825E-001 -1.4434260995E-001  -2.8813410971E-002 -1.5833281398E-001  -6.7288771172E-002 -1.4232815835E-001 
16200000000.000 -4.9035941212E-003 -1.7385588103E-002  +2.7597796515E-003 +1.6685356488E-001  +1.3567000891E-001 -4.8821733056E-002  +3.7677903071E-002 +2.3477222332E-002 
16400000000.000 +1.2619878710E-001 +1.6042055052E-002  -1.2088769328E-001 -1.1064135968E-001  +7.2672261376E-002 +1.2390430454E-001  +6.6914402707E-002 +4.4057114325E-002 
16600000000.000 -1.0216260696E-001 +7.3500280013E-003  +1.6595583981E-001 +2.3188378188E-002  -9.9997344322E-002 +1.1729103714E-001  -8.6571238956E-002 -2.5251656861E-002 
16800000000.000 +1.9067928433E-003 -2.3688739744E-002  -1.3390068056E-001 +6.7896565342E-002  -1.1715915974E-001 -6.0063780159E-002  +3.4683240635E-002 -1.4221429594E-002 
17000000000.000 +9.4541103845E-002 +1.6367408120E-002  +7.6372784281E-002 -1.2286039749E-001  +6.9003741136E-002 -1.0563229054E-001  +9.9064204485E-002 -5.4030351607E-002 
17200000000.000 -2.8305392040E-002 +5.6594460323E-002  +8.3856727693E-002 +1.3784213071E-001  +1.3575421368E-001 +4.2389304187E-002  -6.4388742746E-002 +1.4612230702E-001 
17400000000.000 -3.6032775330E-002 -2.0673922303E-002  -1.2521063452E-001 -7.4528358492E-003  +7.8665233410E-003 +1.1152681003E-001  -8.5352743236E-002 -1.4030630774E-001 
17600000000.000 +2.7172740648E-002 -8.8973458496E-002  +9.6687551498E-002 -4.6554961680E-002  -9.3003149928E-002 +1.5706041346E-002  +1.4529950565E-001 -3.5670940396E-002 
17800000000.000 +1.7404446824E-002 +1.5739949425E-001  -7.8473672244E-002 +1.0576421897E-001  -3.1212604754E-002 -1.1226811755E-001  +5.1678458021E-003 +1.4045499359E-001 
18000000000.000 -2.3066386579E-002 -3.0169088563E-002  -3.9962436270E-002 -1.4111741104E-001  +1.0735798479E-001 -7.1081438864E-002  -8.6368001342E-002 -1.5588136700E-001 
18200000000.000 +3.9688699180E-002 -1.2210826883E-001  +8.8608886473E-002 +5.2737631697E-002  +6.4419772009E-002 +6.2342907441E-002  +5.1196616886E-002 +1.4900175316E-002 
18400000000.000 +1.2420799721E-002 +1.7462037012E-001  -1.0292123731E-001 -1.8280506547E-002  -7.7181361362E-002 +4.7556010930E-002  +8.3081386144E-002 +8.6479378420E-002 
18600000000.000 -8.3399495021E-002 -3.5311812987E-002  +8.5931035219E-002 -1.2058244174E-001  -9.3240091798E-002 -7.8899034451E-002  -9.2463713263E-002 -2.7113620695E-002 
18800000000.000 +2.8894782297E-002 +7.2734079464E-003  +3.1222068447E-002 +1.2347667086E-001  +2.1295336435E-002 -1.1670595903E-001  +1.2510685293E-002 -8.2020212258E-002 
19000000000.000 +8.5706139730E-002 +6.1501764435E-002  -7.0663382603E-002 -6.7127586825E-002  +8.3209291477E-002 +1.2715468678E-002  +5.7605551900E-002 -2.7770548696E-002 
19200000000.000 -1.4713728084E-001 -7.8409548348E-002  +1.0604922185E-001 +5.3939586942E-002  -4.6103389851E-002 +9.0641838275E-002  -5.2954046502E-002 +1.2394994913E-001 
19400000000.000 +1.9215120814E-002 +7.2897999208E-002  -1.2320780566E-001 +7.2830432711E-002  -1.2103516822E-001 +8.4736277492E-003  +9.3246087173E-002 -1.1752511322E-001 
19600000000.000 +6.7019587418E-002 -3.4020170157E-003  +1.7162978669E-002 -1.1368844961E-001  -4.1454469043E-002 -9.2033124266E-002  -2.0676911413E-002 -2.6117618324E-002 
19800000000.000 -5.7394353901E-002 +1.3486376872E-002  +4.3963928839E-002 +1.1338082994E-001  +1.0807481197E-001 -2.1133256479E-002  +7.6545155508E-002 +3.3273410333E-002 
20000000000.000 -8.9355172984E-003 -5.3776152660E-002  -1.2701447304E-001 -4.4825772044E-002  +1.2244056359E-002 +1.1943289048E-001  -5.8050880631E-002 +4.1849722705E-002 
20200000000.000 +3.5508943288E-002 -3.8231411317E-002  +1.1614435707E-001 -2.9658554346E-002  -3.0584285987E-002 +1.0604620753E-001  -5.2562666327E-002 -8.7074062092E-002 
20400000000.000 -7.2593129148E-002 +1.1156248878E-001  -7.6057544404E-002 +7.1978906614E-002  -9.2789000163E-002 -2.7913667463E-002  +9.3784039333E-002 -7.8112473062E-002 
20600000000.000 -1.0511545136E-004 -6.4989583045E-002  +1.0419631505E-002 -1.3001176217E-001  +2.3455834912E-002 -1.1718085350E-001  -2.0249103594E-002 +1.2605966428E-001 
20800000000.000 +8.0540207408E-002 +1.2632016866E-002  +9.1814049343E-002 +8.1476040473E-002  +1.1090805426E-001 +5.4350626089E-003  -7.9885323294E-002 -7.7721898441E-002 
21000000000.000 -1.1500219086E-001 -2.0830908413E-003  -8.8788065879E-002 -1.0651450752E-003  -3.2809145141E-002 +7.6470405669E-002  +7.7631643089E-002 -7.9755424755E-002 
21200000000.000 +2.0103482430E-003 -3.2165937497E-003  +1.0093615352E-001 -7.2766186457E-002  -1.0399825251E-001 -3.6017217189E-002  -7.4867622961E-002 +4.9589683179E-002 
21400000000.000 +1.9447680047E-002 -3.4142866155E-002  -5.7881472260E-003 +1.2803825737E-001  -1.8679630959E-002 -1.1210010247E-001  +5.3823762440E-002 -4.8926936157E-003 
21600000000.000 -2.4704977922E-002 +7.8731666722E-002  -6.2792825129E-002 -8.2199843858E-002  +6.8248266942E-002 -5.7279403944E-002  -5.8139298553E-002 -3.9893863280E-002 
21800000000.000 -5.9145827627E-002 -7.2916072849E-002  +7.9196950626E-002 +6.0131686015E-002  +6.2967797149E-002 +6.3140859563E-002  +3.2892283193E-002 -6.8578972310E-002 
22000000000.000 +3.0912600023E-003 -5.6430293849E-002  -1.1576535696E-001 +2.0410717935E-002  -5.1169401632E-002 +8.6346397145E-002  +5.3230294427E-003 +3.3298734987E-002 
22200000000.000 +4.7403366118E-002 +1.2325119795E-001  +5.6264120981E-002 -9.7782827447E-002  -9.3367349402E-002 -2.6463233613E-002  -6.6959306981E-002 +3.0646252523E-003 
22400000000.000 -7.5218553067E-002 -1.3264335559E-001  -4.1528750425E-003 +9.6696484914E-002  +2.1896326052E-002 -7.9910456922E-002  +1.3295621560E-001 -1.2134304563E-001 
22600000000.000 +1.2521606037E-002 -3.0214525429E-003  -6.9422791473E-002 -9.4400049420E-002  +9.7446639426E-002 +2.8297484794E-003  -8.0903386570E-002 +4.3831550453E-002 
