!  2-Port S-parameters saved by WinCal
! VAR MeasName=S-Parameters (CALIBRATED_DATA) read from VNA (MS4647B)
! VAR MeasDate=27-Apr-22 17:08:37
! VAR NAME=RAW_stepline_6.5mm_1
! VAR FILENAME=RAW_stepline_6.5mm_1.S2P
! VAR DATE=27-Apr-22 17:08:37
! VAR PHYS_PORTS=1,2
! VAR ObjTypeName=DATASET
! VAR IndexType=Frequency
! VAR ChuckHeaterState=Unknown
! VAR ChuckTemp=NaN
! VAR ChuckTempUnits=Unknown
!
# Hz S RI R 50
200000000.000 -4.5218067820E-002 -8.3517405153E-002  -2.7686665851E-001 -6.7609859954E-001  -3.9630000369E-001 -6.2836843518E-001  +6.4306002838E-003 -4.9077469371E-002 
400000000.000 +1.1759896230E-001 -7.0791339731E-002  -3.8736825327E-001 +5.6540463027E-001  -2.0909981515E-001 +6.6594924836E-001  -1.1067041042E-001 -8.3903979865E-003 
600000000.000 +1.2804865701E-001 -6.7549184837E-002  +5.9621286837E-001 +1.2572481612E-001  +5.3282444156E-001 -2.7947534841E-001  -1.1432187914E-001 +7.3913290727E-002 
800000000.000 +5.5640421905E-002 -2.7023932931E-001  -3.0347163237E-001 -5.7892970478E-001  -6.0700784447E-001 -2.0226700295E-001  +2.1101343625E-001 +4.9648818559E-002 
1000000000.000 +5.5643606120E-002 -1.5152171005E-001  -1.1360578158E-001 +6.9407103764E-001  +4.2603826033E-001 +5.2252821658E-001  +1.4119101787E-001 -7.3005501227E-002 
1200000000.000 +1.4589745585E-001 -1.2112500209E-001  +6.3555194412E-001 -3.5677132174E-001  +6.6705531076E-003 -6.8701124453E-001  +1.7574806188E-002 -9.2083168465E-002 
1400000000.000 +1.1453778550E-001 -2.6229298143E-001  -6.7744900135E-001 -2.3840303903E-001  -4.4899073164E-001 +4.8605192582E-001  -1.2600403973E-001 -1.0154312559E-001 
1600000000.000 +8.9571347439E-002 +1.6491726405E-002  +2.7812665919E-001 +5.7648743253E-001  +5.5785138440E-001 -5.7729675696E-002  -8.5725504396E-002 +3.7471251521E-002 
1800000000.000 +3.7084880113E-002 +1.4078112267E-001  +2.1389208773E-001 -4.5411123676E-001  -3.6094764494E-001 -2.4763418137E-001  -6.7176247802E-002 +1.9399568767E-002 
2000000000.000 +2.4307386312E-001 +2.1839224335E-002  -3.9932087499E-001 +1.0290835771E-001  +5.9188011819E-002 +3.4224300912E-001  +2.5376620303E-001 +8.0264916502E-002 
2200000000.000 +3.8627752447E-002 -2.4198211114E-001  +2.8013879825E-001 +2.9045691568E-001  +2.4574154107E-001 -2.5606021044E-001  -6.9438081282E-002 -2.9370952279E-001 
2400000000.000 -9.6983040391E-002 -1.6572783614E-001  -1.4219607506E-001 -4.1352247625E-001  -3.6360691602E-001 +1.5575743374E-001  -1.2097845148E-001 +1.2655794263E-001 
2600000000.000 -6.2271937493E-002 +2.9695569132E-001  -7.1042158719E-001 +1.2175409648E-001  -3.2706524422E-002 +4.9935287917E-001  +1.7571508829E-001 -9.3865791882E-002 
2800000000.000 -2.2891606586E-001 -3.3305510157E-001  +2.3351496555E-001 -7.7539842447E-001  -6.2935330069E-001 +2.2733362924E-001  -2.7740106945E-004 +2.9168496035E-001 
3000000000.000 +1.2407475919E-001 -2.1210900904E-001  +4.9429632043E-001 +6.5676311826E-001  -4.7594927073E-001 -5.2852639467E-001  -1.4940626753E-001 +6.1171305604E-002 
3200000000.000 -1.5682566572E-002 +2.6352529028E-003  -7.8425835991E-001 +1.0615347148E-001  +2.1485634610E-001 -6.5780123271E-001  +7.4177107762E-002 -6.2329138888E-002 
3400000000.000 -1.2218521025E-001 +1.2362701473E-001  +2.2707528092E-001 -7.4449207644E-001  +6.9836109081E-001 -7.3395557976E-002  +1.9298172626E-001 -4.2962837583E-002 
3600000000.000 -7.4756207536E-002 -2.6796643473E-001  +3.6830301711E-001 +6.9528828698E-001  +3.4565378508E-001 +7.2325539376E-001  +8.6781163298E-002 +2.3882987805E-001 
3800000000.000 +1.5877784805E-001 -1.3449004550E-001  -8.0954395024E-001 -1.6438370822E-001  -5.6145893779E-001 +5.2070063726E-001  -9.4572795206E-002 +1.0181544175E-001 
4000000000.000 +1.0515290847E-001 +4.7835651719E-001  +6.3980803474E-001 -4.9606764224E-001  -6.2580273202E-001 -3.3161265519E-001  -1.0226868132E-001 -3.1685314591E-001 
4200000000.000 -1.9837664757E-001 -8.2149356515E-002  -3.5802003324E-002 +8.6045023211E-001  +9.3419087377E-002 -8.0825084790E-001  +1.8423288810E-001 +3.3024840891E-003 
4400000000.000 +1.3240651578E-001 -4.5576173943E-001  -5.1976001457E-001 -5.6159644321E-001  +7.7942939422E-001 -1.7186356279E-001  -2.2085676172E-003 +3.9434191187E-001 
4600000000.000 +1.6118378393E-001 +2.6327943954E-001  +7.7756769517E-001 -6.9171318556E-002  +3.0405744759E-001 +7.0087502578E-001  -2.8528022380E-001 -1.1125513547E-001 
4800000000.000 -4.6771275585E-001 +1.9090634888E-001  -5.3506261385E-001 +4.6274032812E-001  -5.6351408180E-001 +3.3976633047E-001  +2.0785512324E-001 -4.0662240878E-001 
5000000000.000 +1.1452082365E-001 -1.2233340636E-001  -2.2787073621E-003 -7.7114998063E-001  -6.9790171124E-001 -4.3801978389E-001  +1.3748923317E-001 +9.2714170790E-002 
5200000000.000 +4.6658621104E-001 +1.1968972844E-001  +4.8973542953E-001 +4.6269167878E-001  +3.3276329595E-001 -6.9513139012E-001  -1.6066040192E-001 +4.6788543705E-001 
5400000000.000 -3.9794278316E-001 +2.4117868658E-001  -6.7771913483E-001 -6.7805755118E-002  +6.7947413255E-001 +2.5724630291E-001  -1.6947673316E-001 -3.6184941051E-001 
5600000000.000 -1.4312386741E-001 -2.5006862800E-001  +4.6560954130E-001 -4.3843427300E-001  +8.3833207428E-002 +6.9382906376E-001  +2.9226438722E-001 -1.2934583864E-001 
5800000000.000 +2.4552574211E-001 -1.1918719785E-002  +3.4793434305E-003 +6.4775833812E-001  -7.2732848797E-001 +1.9171493249E-001  -9.0844564140E-002 +3.1982662619E-001 
6000000000.000 -4.4212820702E-002 +2.5061466345E-001  -4.3200301440E-001 -3.4551600493E-001  -3.1717526478E-001 -5.7975761014E-001  -3.9037613408E-001 -5.7281677374E-002 
6200000000.000 -2.2477348490E-001 -2.0820036915E-001  +5.4108082063E-001 +1.0350470431E-001  +5.5199223956E-001 -2.4701404414E-001  +3.3481405857E-001 -1.9200139254E-001 
6400000000.000 +4.4733745771E-003 -9.8435396615E-002  -3.6409118530E-001 +4.6657614432E-001  +5.5628293738E-001 +3.4047780630E-001  +9.6752682765E-003 +4.9388283009E-002 
6600000000.000 +2.4820439519E-001 +3.1181804834E-001  +6.8355209613E-002 -5.2440723068E-001  -3.0310176583E-001 +4.8772867851E-001  -2.8574109036E-001 +2.1815504763E-001 
6800000000.000 -2.8207395164E-001 +2.4038054798E-002  +3.1119379625E-001 +4.7488187780E-001  -5.6985335919E-001 -2.4215891501E-001  -3.4376972883E-002 -2.7520617699E-001 
7000000000.000 +8.4554781641E-002 -3.3151315313E-001  -5.0225286892E-001 -6.9025782128E-002  -1.5905106701E-002 -5.0448668509E-001  +3.4770507068E-001 -1.0032421445E-001 
7200000000.000 +1.1150895737E-001 +1.6014351432E-001  +4.7806328752E-001 -2.8399133304E-001  +5.1751258445E-001 -1.1050606829E-001  +4.1436206724E-002 +2.0828404856E-001 
7400000000.000 -3.5558135188E-001 +1.8170052824E-001  -1.4198922726E-001 +4.3263657253E-001  +1.4985658149E-001 +4.3498342767E-001  -4.6750223708E-001 -1.1197452614E-001 
7600000000.000 +1.2234806884E-001 -2.0220088673E-001  -1.7306518236E-001 -5.0858449506E-001  -4.7803432297E-001 +2.0225949232E-001  +3.1006213453E-001 -9.7737231784E-002 
7800000000.000 +4.5998200054E-002 +1.6009646165E-002  +4.7713363648E-001 +1.5464550631E-001  -3.4068053159E-001 -2.9472598163E-001  +7.8958035204E-002 +1.4183238005E-001 
8000000000.000 -1.0960334315E-001 +1.4752314226E-001  -4.4793755173E-001 +1.1753143969E-001  +3.0468336878E-001 -3.2580702913E-001  -1.9518290438E-001 +6.4449739722E-002 
8200000000.000 -2.3723663059E-001 -1.2690772598E-001  +1.7980823465E-001 -3.9626724332E-001  +3.7577931277E-001 +1.9340475535E-001  -5.4531781296E-002 -1.5278506539E-001 
8400000000.000 +2.7393667565E-001 -4.5553746673E-002  +6.5326367052E-003 +4.0893192543E-001  -1.4388093316E-001 +3.7110000371E-001  +1.5895182338E-001 +8.7123836580E-002 
8600000000.000 +6.8936576831E-002 +1.0766831858E-001  -3.3165919183E-001 -2.1024136900E-001  -3.8341309294E-001 -3.7980313892E-002  +3.1394574552E-002 +6.8572041459E-002 
8800000000.000 -2.4610155664E-001 -1.5641350928E-001  +3.4243991397E-001 -6.5654031516E-002  -7.8879993297E-002 -3.4311101513E-001  -3.1352292202E-001 -1.0200844641E-001 
9000000000.000 +1.3847579135E-001 -1.3263077743E-002  -2.1292993315E-001 +2.7851059786E-001  +3.4392579034E-001 -1.2652279094E-001  +1.4908501123E-001 -1.1761522887E-001 
9200000000.000 -1.0669648264E-002 +2.4865480846E-001  -1.8739179118E-002 -3.0613411960E-001  +1.3348793779E-001 +2.7122515258E-001  +1.0088383228E-001 +2.6955351461E-001 
9400000000.000 -3.3935921028E-002 +2.3541076157E-003  +2.5535351752E-001 +2.1941505764E-001  -2.4589298254E-001 +2.2741748139E-001  -1.0753129989E-001 -4.2381446098E-002 
9600000000.000 +1.1809707917E-002 -1.7299073062E-001  -3.1830169551E-001 +2.6876851788E-002  -2.6321597679E-001 -1.8726708180E-001  +1.8885579784E-002 -1.7456449400E-001 
9800000000.000 +5.7981932131E-002 +9.6047589437E-002  +2.1255809054E-001 -2.1721052629E-001  +1.3052972479E-001 -2.8853605543E-001  +1.1867155118E-001 +7.7174977419E-002 
10000000000.000 -1.8927799081E-001 +2.3545886010E-002  -6.2350379806E-003 +2.7297972697E-001  +2.3618370976E-001 +1.4527823856E-001  -5.5849120820E-002 +1.7357313911E-001 
10200000000.000 +1.8162644365E-002 -8.1521980364E-002  -1.4407695163E-001 -2.7051581450E-001  +2.8219355521E-002 +3.0013088417E-001  -3.8996318286E-002 -8.6620043241E-002 
10400000000.000 +1.1978838684E-001 +9.4789166810E-002  +2.7307257024E-001 +6.9253846672E-002  -3.0160614850E-001 +5.6283378144E-002  +4.2587307178E-002 -1.0394150348E-001 
10600000000.000 -1.4308850578E-001 -3.9663022282E-002  -2.3719807836E-001 +1.2056673737E-001  -1.7345197644E-002 -2.6938460193E-001  -4.3349360569E-004 +2.0056738633E-001 
10800000000.000 -5.5145875533E-002 -3.1043529657E-002  +1.2578616788E-001 -2.3806757293E-001  +2.5009727531E-001 -1.2595602473E-001  -3.4605145030E-002 -4.9963451601E-002 
11000000000.000 +1.2972308827E-001 +4.6237072476E-002  +5.0028553680E-002 +2.6615955334E-001  +2.0329397770E-001 +1.9656711419E-001  +6.6960764492E-002 -7.7960347738E-002 
11200000000.000 -6.6497981058E-002 +6.9596057447E-002  -2.1276913269E-001 -1.4982759680E-001  -1.6220495846E-001 +2.3472614149E-001  -6.5585320805E-002 -2.2215769431E-002 
11400000000.000 +1.1806817892E-002 -1.5728299732E-001  +2.4674938512E-001 -1.8521508509E-002  -2.4843125981E-001 -1.2018278176E-001  -1.2536514990E-002 +2.5988882903E-002 
11600000000.000 +3.2955948057E-002 -3.9229699371E-002  -1.3144434341E-001 +1.9807357903E-001  +7.1401503752E-002 -2.4817971793E-001  +3.4648310732E-002 +9.3439997178E-002 
11800000000.000 -1.1787298005E-001 +1.2815488463E-001  -5.2849204502E-002 -2.2678570040E-001  +2.5572182873E-001 +1.4004507381E-002  +8.0952489302E-002 -1.7875122869E-001 
12000000000.000 +1.2230345785E-001 -4.4416360918E-003  +1.5843110447E-001 +1.6561745885E-001  -1.4650864696E-002 +2.5275488475E-001  -2.5775608097E-002 +4.8694718660E-002 
12200000000.000 -2.0469903007E-002 -2.2912685886E-002  -2.2049495495E-001 -4.7383117049E-002  -2.4929980841E-001 +1.3824072275E-002  -6.4126961955E-002 +1.4684432073E-002 
12400000000.000 -2.0506738489E-002 +7.0170728428E-002  +1.9700229600E-001 -8.9714104193E-002  -4.2320988934E-002 -2.3489239561E-001  +8.4277304716E-002 -5.5339256242E-002 
12600000000.000 -4.4405218369E-002 +1.9390519456E-002  -3.4635818066E-002 +2.1315651774E-001  +2.1879902490E-001 -1.0686552405E-001  -4.3030303810E-002 +5.7567345982E-002 
12800000000.000 -2.0257635741E-002 +1.7791933687E-002  -1.3943435184E-001 -1.5720919128E-001  +1.8301632631E-001 +1.5805653422E-001  +1.5588521413E-002 -1.1633725282E-001 
13000000000.000 +5.9164807618E-002 -1.4652409071E-002  +2.0350277531E-001 +3.9020396778E-002  -1.2759762394E-001 +1.9776322007E-001  -1.9466555683E-002 +1.0761898421E-001 
13200000000.000 -1.3584264348E-001 -1.5335797382E-001  -1.9649242870E-001 +4.1700580206E-002  -1.5402364230E-001 -1.4125476827E-001  +9.4446325166E-002 -7.0464144273E-002 
13400000000.000 -2.9760440573E-002 +1.1407521469E-001  +1.4800277930E-001 -1.2111464416E-001  +1.4389074526E-001 -1.6504613967E-001  +7.4614236251E-002 -6.7742006742E-002 
13600000000.000 -4.4000287556E-002 -2.2283129133E-002  -5.9789645070E-003 +2.0114689432E-001  +2.0929207968E-001 +9.9515613941E-002  -5.6912239483E-002 +2.1173193863E-002 
13800000000.000 +6.0108823245E-002 -4.7743538439E-002  -1.4880997362E-001 -1.4134824314E-001  +2.8705041379E-002 +2.1763673867E-001  +4.4364779013E-002 -5.7187217688E-003 
14000000000.000 +6.6871211096E-003 +3.2693395724E-002  +1.9350358802E-001 -1.7600653710E-002  -1.8845983794E-001 +8.1928791845E-002  +3.0878532246E-002 +3.2078534677E-002 
14200000000.000 -1.6162526510E-001 -3.6545418389E-002  -1.3420684216E-001 +1.1623019082E-001  -1.0805276764E-001 -1.4856157651E-001  +6.2602522753E-002 -1.2181039435E-001 
14400000000.000 +1.1102239706E-001 -2.4999292409E-003  +5.5963198970E-002 -1.7507092599E-001  +1.8331720743E-001 -7.6895856831E-002  -3.9498346719E-002 +8.9402374104E-002 
14600000000.000 +2.3855553178E-002 +1.7093682144E-002  +1.0045032746E-001 +1.5812023227E-001  +1.0533862537E-001 +1.5694952536E-001  -7.9386576484E-003 -2.7562114306E-002 
14800000000.000 -9.8001064542E-002 -4.2183858261E-002  -1.6485177071E-001 -4.1266521340E-002  -1.0318397209E-001 +1.3719064724E-001  +7.3787489979E-002 -2.7398693467E-002 
15000000000.000 +3.8356002462E-002 -1.0623498037E-001  +1.5028622167E-001 -9.0261772079E-002  -1.5520734563E-001 -8.0607205168E-002  +3.7001980030E-002 -3.3861319347E-002 
15200000000.000 +9.6387494451E-003 +1.5640365134E-001  -6.3924399298E-002 +1.6980788013E-001  +6.1797872469E-002 -1.5894291437E-001  -7.4269364276E-002 +4.9178428054E-002 
15400000000.000 -9.1454910195E-003 -2.5991817924E-002  -9.7263362041E-002 -1.5297325264E-001  +1.6646316256E-001 +3.2940545987E-002  +1.6026301540E-002 -4.9940153776E-003 
15600000000.000 +8.3919453388E-003 -1.2417507397E-001  +1.5492320792E-001 +6.9725935588E-002  +1.8983686442E-002 +1.5585197253E-001  +8.0479045545E-002 -9.6509765335E-002 
15800000000.000 +3.6222812670E-002 +8.9155526908E-002  -1.9667661846E-001 +1.9807733922E-002  -1.7196372948E-001 +3.7977582580E-002  +1.8491087671E-002 +1.3172212845E-001 
16000000000.000 -7.2587358652E-002 -3.7647745775E-002  +9.7633782297E-002 -1.4865291261E-001  -3.3611048716E-002 -1.5906245051E-001  -6.6858713666E-002 -1.3500487732E-001 
16200000000.000 -6.1097460503E-003 -1.1500980189E-002  +8.4804883701E-003 +1.6932098422E-001  +1.3625036248E-001 -5.4280742778E-002  +3.0525729498E-002 +2.1429708370E-002 
16400000000.000 +1.2043656596E-001 +1.3585309408E-002  -1.2676863990E-001 -1.0775153805E-001  +7.8525755226E-002 +1.2286261657E-001  +7.1134846410E-002 +3.7349740400E-002 
16600000000.000 -9.7878374810E-002 +2.4104435901E-003  +1.6861840524E-001 +1.6913527201E-002  -9.6348538614E-002 +1.2228924934E-001  -8.1748853308E-002 -1.9924793040E-002 
16800000000.000 +2.8727089550E-003 -1.9410599250E-002  -1.3365545549E-001 +7.3345970314E-002  -1.2086089425E-001 -5.7034412031E-002  +2.7851021153E-002 -1.2773411343E-002 
17000000000.000 +9.0137588774E-002 +1.2324990902E-002  +7.2779313428E-002 -1.2872490071E-001  +6.5829663807E-002 -1.1099921635E-001  +9.8998761668E-002 -6.1829500121E-002 
17200000000.000 -2.4659137767E-002 +5.1507106758E-002  +9.0618801737E-002 +1.3530253177E-001  +1.3875853282E-001 +3.6685354620E-002  -5.8199471267E-002 +1.4600044456E-001 
17400000000.000 -3.4695002686E-002 -1.7133314862E-002  -1.2732961127E-001 -3.3331059261E-003  +1.1855207742E-002 +1.1293559909E-001  -8.7663331654E-002 -1.3491421315E-001 
17600000000.000 +2.3053198558E-002 -9.0716972056E-002  +9.7541446060E-002 -5.1562466785E-002  -9.4956417227E-002 +1.9793877787E-002  +1.4078246116E-001 -4.0072317546E-002 
17800000000.000 +2.2689526828E-002 +1.5194575889E-001  -7.4152273858E-002 +1.1308273304E-001  -3.8721774540E-002 -1.1320315607E-001  +1.1084891094E-002 +1.3527525688E-001 
18000000000.000 -1.8708858323E-002 -2.7054588635E-002  -4.7384506925E-002 -1.4004847174E-001  +1.0444966400E-001 -7.7070789151E-002  -8.4897154709E-002 -1.5088087662E-001 
18200000000.000 +3.6276044908E-002 -1.2272980069E-001  +9.2011170783E-002 +5.0423247378E-002  +6.7845405735E-002 +6.0992332104E-002  +4.5031312420E-002 +1.3874057293E-002 
18400000000.000 +1.8357890977E-002 +1.7053496007E-001  -1.0798312554E-001 -1.3435237362E-002  -7.7661419592E-002 +5.3635997579E-002  +8.6535242892E-002 +8.0310367368E-002 
18600000000.000 -7.4870987515E-002 -3.0886224300E-002  +7.8037112108E-002 -1.2782183304E-001  -9.9749349829E-002 -7.2813437699E-002  -8.6885789664E-002 -2.6587694848E-002 
18800000000.000 +2.5329185627E-002 +8.6090908180E-003  +3.8002751678E-002 +1.2247962568E-001  +1.5058772431E-002 -1.1847678372E-001  +8.7875070177E-003 -7.7429861372E-002 
19000000000.000 +8.8507616248E-002 +5.7729262136E-002  -7.5168210085E-002 -6.5370822622E-002  +8.5568675865E-002 +9.1814212584E-003  +5.4024325239E-002 -3.2746979163E-002 
19200000000.000 -1.4190978169E-001 -7.0696832753E-002  +1.1362395431E-001 +4.7623910123E-002  -4.0685836209E-002 +9.7146267646E-002  -4.5232568419E-002 +1.2281140492E-001 
19400000000.000 +1.8345187512E-002 +7.9280619604E-002  -1.1843628937E-001 +8.1341486968E-002  -1.2068482243E-001 +1.6822528166E-002  +9.1688876395E-002 -1.1477993624E-001 
19600000000.000 +6.7583300743E-002 -7.5089431065E-003  +1.1365410452E-002 -1.1531280096E-001  -4.6585258535E-002 -9.0403267339E-002  -2.6752127416E-002 -2.9196299329E-002 
19800000000.000 -5.2929388361E-002 +1.9927149011E-002  +5.2534602754E-002 +1.1298435356E-001  +1.0909591653E-001 -2.8922130820E-002  +7.8345330650E-002 +2.6547414159E-002 
20000000000.000 -1.3796745612E-002 -4.9909279186E-002  -1.3093132681E-001 -3.6005494418E-002  +2.0930192477E-002 +1.1920906812E-001  -5.4947456222E-002 +4.5480492181E-002 
20200000000.000 +3.5749724374E-002 -4.2156538611E-002  +1.1475345910E-001 -3.7100982147E-002  -2.4009286187E-002 +1.0839260007E-001  -5.6940803635E-002 -8.2354848216E-002 
20400000000.000 -6.8612486796E-002 +1.1548905292E-001  -7.3013849928E-002 +7.7983405148E-002  -9.6211110697E-002 -2.2653948074E-002  +8.9575234613E-002 -8.3433682059E-002 
20600000000.000 -4.9653109773E-003 -5.9384151009E-002  -2.9526654825E-005 -1.3157036120E-001  +1.3963118162E-002 -1.1954874037E-001  -1.7894440646E-002 +1.2257678826E-001 
20800000000.000 +8.1556475899E-002 +9.8986278439E-003  +9.6863372901E-002 +7.5138232663E-002  +1.1083961360E-001 -1.9499038924E-003  -8.0421558518E-002 -7.1370762680E-002 
21000000000.000 -1.1266507231E-001 +2.3672305416E-003  -9.0639163072E-002 +4.2050885775E-003  -2.8876626569E-002 +7.9966136864E-002  +7.1495321861E-002 -7.9920084010E-002 
21200000000.000 -3.9001782160E-003 +2.9133632482E-003  +9.4808538988E-002 -8.2420741300E-002  -1.0791978696E-001 -2.6649257123E-002  -7.6837147432E-002 +4.4966818761E-002 
21400000000.000 +1.8163743205E-002 -3.4964314076E-002  +3.9434408054E-003 +1.2792701202E-001  -2.7193852168E-002 -1.1016346989E-001  +5.4149232469E-002 -2.4887743110E-003 
21600000000.000 -2.1640348880E-002 +8.1181499653E-002  -6.7551075530E-002 -7.8239253858E-002  +6.4564093021E-002 -6.1250755421E-002  -6.2467328440E-002 -3.6398753147E-002 
21800000000.000 -6.3852377075E-002 -6.8714747079E-002  +8.5323369665E-002 +5.5140210139E-002  +6.9082882714E-002 +5.9417659329E-002  +2.8750035911E-002 -7.2056210586E-002 
22000000000.000 -1.7995997665E-003 -5.6171084446E-002  -1.1325928254E-001 +2.9140505020E-002  -4.4096457640E-002 +8.9702732112E-002  +4.7898847442E-003 +3.2891735447E-002 
22200000000.000 +4.8244412018E-002 +1.2449217349E-001  +4.8581387214E-002 -1.0094081852E-001  -9.4399892437E-002 -1.9317956023E-002  -7.0678042481E-002 +7.5414330712E-003 
22400000000.000 -7.7710333967E-002 -1.2905206337E-001  +2.0852042020E-003 +9.7958706798E-002  +1.6842559888E-002 -8.2170806107E-002  +1.2818647897E-001 -1.2328779132E-001 
22600000000.000 +7.2564750103E-003 -1.8067876720E-003  -7.7040383894E-002 -8.8078312258E-002  +9.7314844691E-002 -5.4903807316E-003  -8.1584035286E-002 +4.1124585223E-002 
