!  2-Port S-parameters saved by WinCal
! VAR NAME=RAW_LRRM_short_0.5mm_2
! VAR DATE=08/08/2022 22:11:40
! VAR FILENAME=RAW_LRRM_short_0.5mm_2.S2P
! VAR MeasName=S-Parameters (CALIBRATED_DATA) read from VNA (MS4647B)
! VAR MeasDate=26-Apr-22 16:31:44
! VAR PHYS_PORTS=1,2
! VAR ObjTypeName=DATASET
! VAR IndexType=Frequency
! VAR ChuckHeaterState=Unknown
! VAR ChuckTemp=NaN
! VAR ChuckTempUnits=Unknown
!
# Hz S RI R 50
200000000.000 -5.9756484110E-003 +7.7040138478E-001  -2.5026821839E-006 +1.1262783219E-005  -7.5553680521E-006 +5.4579857677E-006  +5.2913766923E-001 +3.5572634414E-001 
400000000.000 +8.1618390415E-001 -8.4231452174E-002  +1.0446126340E-006 +1.3587697027E-006  -3.6616915678E-006 -2.8082772359E-006  -4.5662972206E-001 -5.7334235172E-001 
600000000.000 +1.5304349877E-001 -6.6088264985E-001  -1.3528483454E-005 +1.0578133835E-005  +3.9917659489E-006 +1.4440499751E-006  -1.6619251626E-002 +6.5219686468E-001 
800000000.000 -6.2372190990E-001 -2.1882692448E-001  +1.6923438597E-006 +1.5972195853E-007  +1.3746595779E-005 -4.6587604339E-006  +3.3606314635E-001 -5.1409224093E-001 
1000000000.000 +3.3206082082E-001 +4.9333362765E-001  -1.1153769218E-005 +4.5535822445E-006  +9.8656408746E-007 -9.1853745498E-007  -2.7236043018E-002 +5.6620650963E-001 
1200000000.000 +7.5351373044E-001 -4.3171582428E-001  +7.3979075897E-006 +3.4227596215E-007  +5.5355302489E-006 -6.2955450563E-007  +2.3164906069E-001 -7.5137885836E-001 
1400000000.000 -2.7435016440E-001 -7.5680692306E-001  -1.7097915635E-007 -4.9373287107E-006  -2.4673806829E-006 +1.4193303587E-006  -5.7661448473E-001 +3.9454614327E-001 
1600000000.000 -3.6227089242E-001 +4.7655734053E-001  -4.0422809961E-006 +5.1297436717E-006  +6.5369423363E-006 +2.6868858973E-007  +3.3423421712E-001 -3.8114423739E-001 
1800000000.000 +4.5936618094E-001 +3.8887990219E-001  -2.7186940900E-006 +6.2652458901E-006  +6.6331413887E-007 +5.3550278706E-006  -4.2849514904E-001 +2.3862709032E-001 
2000000000.000 +3.8353672035E-001 -3.0345483141E-001  +4.1273183889E-006 -5.5696236639E-006  +4.6606116924E-006 +9.4851955116E-007  +5.6947878251E-001 -2.3602677392E-002 
2200000000.000 -2.3926503161E-001 -4.2310357975E-001  -2.6693865780E-006 +2.3010248684E-006  -4.6079155462E-006 +4.8383836956E-006  -3.8030895272E-001 -4.0352541715E-001 
2400000000.000 -1.4601177432E-001 +2.3916687009E-001  +4.8284481584E-007 +3.0998269947E-006  +2.1914980416E-006 -9.1062150936E-006  +2.9128322296E-001 +1.1443749995E-001 
2600000000.000 +4.2076836764E-001 +7.4582467946E-001  +2.8981959736E-006 +1.3273194007E-005  -2.6366932778E-006 -2.1851916041E-006  +1.6480369138E-001 -5.1531286143E-001 
2800000000.000 -8.1064537115E-001 +1.0098974854E-001  +1.2653782472E-005 +1.2750792542E-005  -7.4670330346E-007 -8.3551598740E-006  +5.2358549210E-001 +2.9521105079E-001 
3000000000.000 -1.6322402914E-001 -8.9729738518E-001  +1.8187204587E-005 -1.3712766156E-005  -4.1222811516E-006 -1.3089786944E-005  -3.2218010541E-001 +5.5370644166E-001 
3200000000.000 +8.0824734771E-001 -2.5400473716E-001  +3.8344516008E-005 -1.8498665987E-005  +1.5061996935E-005 +1.4369979069E-005  -6.1451801170E-001 -2.2587510462E-001 
3400000000.000 +6.6557948603E-002 +8.0678586734E-001  +2.6229290133E-006 +9.3915464232E-006  -7.3132558153E-007 -8.2155957416E-006  +1.1514731271E-001 -6.0176231796E-001 
3600000000.000 -7.5436179391E-001 -3.6650491327E-001  -3.3212585847E-006 -3.5136427118E-006  -1.1808193210E-005 -1.8699851926E-005  +6.2514278529E-001 +4.5156483237E-001 
3800000000.000 +2.5918588750E-001 -8.8677718612E-001  +2.8534041537E-007 -1.3659460228E-006  +2.6104443667E-005 -8.3113508189E-006  -3.7842578442E-001 +5.6653201897E-001 
4000000000.000 +5.9319478034E-001 +8.7600279056E-001  -9.8131943008E-006 +3.4088797300E-006  -1.0334532926E-006 +6.0071491780E-006  -4.9072364811E-001 -6.7458364465E-001 
4200000000.000 -8.0587877590E-001 +3.1832975027E-001  +1.9586093699E-006 -2.3019210722E-005  -1.3437390085E-008 -5.5046448477E-007  +6.0175398319E-001 -4.8927996767E-001 
4400000000.000 -3.9658745265E-002 -1.0094982949E+000  +5.1916365334E-006 +8.9277057805E-006  -1.1360502818E-005 -1.3307729412E-006  +2.3835949195E-001 +8.6105538252E-001 
4600000000.000 +7.5361169049E-001 +3.1784500529E-001  -8.5121735177E-006 +8.9657044414E-006  +1.3031502026E-005 -7.6051739458E-006  -7.5973237949E-001 +1.2769726215E-001 
4800000000.000 -7.6831608392E-001 +4.9573281442E-001  +1.1220520188E-005 -5.4704143250E-006  +4.8877097117E-006 +3.2390925652E-006  +2.6056810327E-001 -7.5883020704E-001 
5000000000.000 -2.1783682735E-001 -7.1176849416E-001  +4.7600550796E-006 +9.3540418236E-006  +1.3023869139E-005 +2.6494478799E-006  +7.5274228435E-001 +1.8465362284E-001 
5200000000.000 +9.3407511758E-001 +6.5777146986E-003  -1.2935366717E-005 -4.8721693513E-006  -5.3086983810E-006 -1.1993872634E-005  -3.0568151146E-001 +8.6861474148E-001 
5400000000.000 -6.5474570513E-001 +6.0491954107E-001  +1.1879752683E-005 +6.1209669538E-006  -1.1684515042E-005 +2.7084631544E-007  -3.9327820554E-001 -7.5887859449E-001 
5600000000.000 -4.6210711704E-001 -5.3011148890E-001  -1.1836577933E-005 +6.5471439050E-006  +1.8645480035E-005 -2.7187927260E-006  +6.7498006714E-001 -3.9116679843E-001 
5800000000.000 +6.9028593008E-001 -1.9902483943E-001  +1.8284086711E-005 +1.7130266164E-005  +2.4390017342E-006 +3.8009130369E-005  +6.4309092274E-003 +8.9540406900E-001 
6000000000.000 +4.7751063621E-002 +5.7694369817E-001  -8.2770588247E-006 +2.6981092220E-005  -1.0171592018E-005 +1.9309025677E-005  -7.7118275948E-001 +1.0591914483E-002 
6200000000.000 -4.6896372823E-001 -4.3310803802E-001  +1.3361291697E-005 -2.0905622406E-005  -4.4075144023E-006 -2.4321860395E-005  +6.1763672641E-001 -4.2478137985E-001 
6400000000.000 +2.0774457451E-001 -5.0220675551E-001  +3.5529806742E-005 +2.0514579651E-005  +2.1188944209E-005 -4.2866210672E-005  +4.1387693909E-001 +3.2064312152E-001 
6600000000.000 +3.5273970351E-001 +5.9756909840E-001  -3.3864412751E-005 -1.3602583510E-005  +4.3447332686E-005 +2.1066815981E-005  -5.7808484823E-001 +3.4700924204E-001 
6800000000.000 -6.7205389087E-001 +1.1909579129E-002  +4.3116521282E-005 -4.3289267778E-005  -1.6272219212E-005 +7.0746733580E-005  +6.7488253230E-003 -6.7442767333E-001 
7000000000.000 +2.0324285925E-001 -5.9614629880E-001  +1.4845534278E-005 +4.2275439585E-005  -3.3051457010E-005 +7.8631282272E-006  +6.2634105353E-001 -2.4631206973E-002 
7200000000.000 +3.7718428461E-001 +4.5336971856E-001  -7.1833498903E-005 -3.3096170484E-005  -5.8049570558E-005 -5.9035564810E-005  -1.6657486050E-001 +5.2803168446E-001 
7400000000.000 -6.0693950939E-001 +2.0471987100E-001  +5.6890440386E-005 -2.2706022059E-005  +3.6362770233E-005 -4.3411152274E-005  -6.1079845328E-001 -3.0936358036E-001 
7600000000.000 +3.7053733167E-001 -5.7124828122E-001  -5.0445527275E-005 +5.2243419963E-005  +6.2722330324E-005 +4.6890884848E-005  +6.8465441273E-001 -1.1128802671E-001 
7800000000.000 +3.5536835436E-001 +1.7555463420E-001  -4.8076981316E-005 -6.6669884633E-005  +1.3805288806E-005 +5.8776751099E-005  +1.4589101464E-001 +4.4572891407E-001 
8000000000.000 -4.1695617249E-001 +1.7871212165E-001  +6.5069864973E-005 +2.0353753451E-005  -6.4911347883E-005 +9.1165378759E-006  -4.8732464914E-001 -5.3537208202E-002 
8200000000.000 -2.2454443567E-001 -4.2771619612E-001  -5.5822702652E-005 +3.2781293463E-005  -3.7766831860E-005 -3.9505095524E-005  +9.9080883641E-002 -3.9359590516E-001 
8400000000.000 +4.9699385998E-001 +2.0570307690E-001  +2.5445988359E-005 -2.9255927316E-005  +3.5858772774E-005 -1.1032323162E-005  +2.4991125873E-001 +3.4240891058E-001 
8600000000.000 -2.0106821755E-001 +3.2874028269E-001  +1.4340058835E-005 +4.2263174175E-005  +2.0688486106E-005 +2.7496128294E-005  -2.3217307465E-001 +1.8021183718E-001 
8800000000.000 -2.8871145707E-001 -4.0294840762E-001  -3.4029708572E-005 -1.0432729108E-005  -2.4120097629E-005 +2.8936258927E-005  -3.2469066856E-001 -3.4734046308E-001 
9000000000.000 +4.1249370137E-001 +2.4430096517E-002  +3.7355171791E-005 -3.6654952236E-006  -3.1772364586E-005 -2.4802226971E-005  +4.3507672402E-001 -3.1709074944E-002 
9200000000.000 -1.8202632957E-001 +3.9236574417E-001  -2.3668432267E-005 +7.5457121254E-006  +1.0842814926E-005 -2.3384085243E-005  -4.1181789711E-002 +4.3586030568E-001 
9400000000.000 -9.3484086275E-002 -3.2383309121E-001  +1.2749034691E-005 -2.1950943772E-005  +2.8481552641E-005 +1.7867344754E-005  -3.0301026909E-001 -2.2242066043E-001 
9600000000.000 +2.8333285336E-001 -2.1371360305E-001  +2.4012883859E-005 +3.9692861084E-005  -5.5265493401E-006 +4.8430992532E-005  +2.4865321738E-001 -2.7090492102E-001 
9800000000.000 -3.7344909670E-002 +3.2777776952E-001  -3.9096156852E-005 -1.0208770114E-005  -3.6621769723E-005 +3.1852548671E-006  +1.3939764420E-001 +3.4798886623E-001 
10000000000.000 -2.5681576481E-001 -1.8487596764E-001  +2.0969562163E-005 -2.8853310487E-005  +3.3723226275E-006 -3.3366097313E-005  -2.9032299896E-001 +1.3974136174E-001 
10200000000.000 +3.2528825661E-001 +2.8706370134E-003  -3.1274167132E-005 +3.4037551348E-005  +3.4620794866E-005 -1.5532665058E-005  -1.1413994652E-003 -3.3894223842E-001 
10400000000.000 -3.2479797811E-002 +3.2515661662E-001  -2.6099685621E-005 -4.7630584230E-005  +4.0180978920E-005 +3.0810362370E-005  +2.9463438477E-001 -2.6435963045E-002 
10600000000.000 -2.0923105304E-001 -3.0063385638E-001  +2.7319296514E-005 +6.8887751486E-006  -1.8545525174E-005 +1.6618665538E-005  -1.6058580607E-001 +3.5364978902E-001 
10800000000.000 +2.4000846510E-001 -5.0180189573E-003  -3.8765391408E-005 +7.7961938490E-006  -2.1046264685E-005 -1.9912551434E-005  -1.5702555139E-001 -2.5394328523E-001 
11000000000.000 +5.8610416251E-003 +2.8102990150E-001  +1.5165036697E-005 -2.1226926735E-005  -6.6498531167E-006 -4.2515021884E-005  +3.2288226476E-001 -1.5212348373E-001 
11200000000.000 -2.3387510391E-001 -1.3123857946E-001  -4.7172162443E-006 +4.0500494101E-005  +3.2471225003E-005 -2.1355596938E-006  -5.9850387107E-002 +2.5640328492E-001 
11400000000.000 +2.8126392636E-001 -1.9531713214E-001  -1.7407480853E-005 -1.3933883297E-005  +2.3049398247E-006 +2.9525724744E-005  -2.4297521147E-001 -3.5292892627E-002 
11600000000.000 +2.0606978559E-002 +2.5928930528E-001  +2.7253080737E-005 +2.6940007692E-006  -3.7474191068E-005 +7.3659349498E-006  +1.5531349088E-001 -7.5763824445E-002 
11800000000.000 -3.4548983479E-001 +4.5311683358E-002  -1.4884773257E-005 +1.8147572985E-005  -1.7318044944E-005 -2.7304147626E-005  +2.3386847264E-001 +1.6232156759E-002 
12000000000.000 +3.2499736433E-001 -1.2984587944E-001  +1.1957469374E-005 -1.8631636292E-005  +1.3298967111E-005 -4.0662381727E-006  -2.7288244623E-001 +9.7277365793E-002 
12200000000.000 +2.0651094339E-003 +2.0606021533E-001  +6.1183920151E-006 +3.8791693368E-005  +1.4248036201E-005 +3.0782690035E-005  -1.8849698692E-003 -2.3176747887E-001 
12400000000.000 -2.3546820975E-001 -3.9982706889E-002  -1.5439994015E-005 -1.0620924630E-005  -1.4404278164E-005 +2.4645018114E-005  +2.7678269047E-001 +5.8414675821E-002 
12600000000.000 +8.1498422393E-002 -2.1296989514E-001  +1.7191067577E-005 -7.4315420947E-006  -2.3000267318E-005 -1.4673874771E-005  -2.0411714696E-001 +1.8903656840E-001 
12800000000.000 +1.7958710502E-001 +1.8163063559E-001  -1.4516462147E-005 +5.2603801420E-006  +1.2037272704E-005 -1.1837968163E-005  -8.5089359784E-002 -2.8831294653E-001 
13000000000.000 -1.4934092609E-001 +7.5585809173E-002  -2.1634027974E-006 -1.7925280069E-005  +1.9287792304E-005 +1.4098870182E-005  +2.0148429503E-001 +8.8330216799E-002 
13200000000.000 -3.2196359034E-002 -3.1532015063E-001  -6.2491282726E-006 +1.4988061778E-005  -1.1853239485E-005 +9.8483291228E-006  +4.1540885276E-002 +1.6672413454E-001 
13400000000.000 +5.3141399203E-002 +2.9202520799E-001  -4.4338072538E-006 -1.7013404686E-005  -1.4050616742E-005 -8.5822267971E-006  -6.9580535938E-002 -2.0631320688E-001 
13600000000.000 -2.6079735337E-001 +4.9475495492E-002  +1.6667836548E-005 +4.4763163545E-006  +1.5353221017E-005 -1.9403181481E-005  +1.3444510944E-001 -3.1109382415E-002 
13800000000.000 +2.6985246293E-002 -2.7063458553E-001  -2.5863800309E-005 +1.9712020694E-006  +2.6008888563E-005 +6.9326927201E-006  +1.0461271582E-001 +1.8920464763E-001 
14000000000.000 +1.8572726706E-001 +7.1487229632E-002  +9.7576561868E-006 -1.4671714015E-005  -7.4879843214E-006 +1.4227774334E-005  -1.7843482160E-001 +8.1191736300E-002 
14200000000.000 -2.7224196662E-001 +7.4696418767E-002  -1.5835727944E-006 +2.0832434212E-005  -1.5105024987E-005 -4.5522353783E-006  +6.0271314803E-002 -2.8546618922E-001 
14400000000.000 +7.2566440252E-002 -1.7245375727E-001  -1.2440142905E-005 -2.7608110033E-005  +2.2083081749E-005 -2.4343619792E-005  +4.8911546962E-002 +2.4384125266E-001 
14600000000.000 +2.0244131687E-001 +3.3962554608E-002  +2.3503710645E-005 +2.5344028943E-006  +2.9166339263E-005 +3.7968334107E-006  -1.6535322280E-001 +7.5370690488E-002 
14800000000.000 -1.8911323707E-001 +8.3063422827E-002  -2.1684752554E-005 +2.8853715701E-006  -4.4958963217E-006 +1.9591234432E-005  +7.2494567850E-003 -1.4280058119E-001 
15000000000.000 -4.1312259277E-002 -2.4040390751E-001  +1.6384280972E-005 -2.1970177135E-005  -3.1268664281E-005 +2.1616669381E-006  +1.7962339361E-001 -4.8446804846E-002 
15200000000.000 +1.6030264206E-001 +1.3668293985E-001  +1.0903615738E-005 +3.9009005144E-005  -8.0052927984E-006 -3.1897451740E-005  -1.3430608945E-001 +1.8495985513E-001 
15400000000.000 -5.1860652321E-002 +1.1783381769E-001  -3.3419835718E-005 -1.2072113505E-005  +3.5154065231E-005 -1.4915567770E-005  -1.2905937899E-001 -6.2063034514E-002 
15600000000.000 -8.3690261096E-002 -2.2394019139E-001  +2.5856013211E-005 -1.2168290218E-005  +2.7736342041E-005 +3.2164942266E-005  +1.5203371303E-001 -1.7543400135E-001 
15800000000.000 +2.0911909020E-001 +7.0337404939E-002  -3.1667713120E-005 +4.1414014992E-005  -1.8738178667E-005 +4.1227095043E-005  +5.9428161933E-002 +2.7695033053E-001 
16000000000.000 -1.0453058134E-001 +1.0216467127E-001  -1.1026509853E-005 -2.9230954334E-005  -2.4436564290E-005 -9.2255996505E-006  -1.9269083274E-001 -1.1322294356E-001 
16200000000.000 -9.3004438765E-002 -9.7948470540E-002  +1.2675585213E-005 +1.7447972597E-005  +8.1799875328E-006 -2.3962728873E-005  +6.3300991509E-002 -7.7665877782E-002 
16400000000.000 +2.3241194982E-001 -3.8041221826E-002  -3.1181779701E-005 +3.1853119430E-006  +2.7246304481E-005 -2.5963487887E-006  +1.4724492339E-001 +1.1069296955E-001 
16600000000.000 -9.0947866314E-002 +1.2714931646E-001  +1.7955235246E-005 -2.5993567801E-005  +1.2077950022E-005 +3.0041594131E-005  -1.9219366410E-001 +4.9567186486E-002 
16800000000.000 -8.9252348818E-002 -5.2325372100E-002  +3.6850232328E-007 +1.6474856956E-005  -5.3049694967E-006 +1.0519659373E-005  -5.1099187783E-003 -9.6890139259E-002 
17000000000.000 +1.7999162509E-001 -1.3948849688E-002  -8.2951101038E-006 -1.3508832564E-005  -7.0592397792E-007 -4.1835437038E-007  +1.6444479269E-001 -2.7894184986E-002 
17200000000.000 -3.5775669540E-003 +1.7092479230E-001  +1.3086534135E-005 +1.5544432173E-005  +1.7618520283E-005 +3.3998785214E-006  -1.0023835240E-001 +2.5214643271E-001 
17400000000.000 -1.0422827291E-001 -1.2816620278E-002  -8.0016177036E-006 +1.4038217104E-006  +7.8546331588E-006 +1.1343037929E-005  -1.5309117543E-001 -1.5252959614E-001 
17600000000.000 +5.5464252720E-002 -1.2473636811E-001  +1.0500519801E-005 -6.6570459244E-006  -5.4014273951E-006 +2.6371354141E-006  +1.8122323432E-001 -6.0730345800E-002 
17800000000.000 +8.6413188242E-003 +2.2674394726E-001  -1.4345440231E-005 +4.6557291364E-006  +7.2402367700E-006 -1.5479128120E-005  -6.6190736399E-003 +2.0966075981E-001 
18000000000.000 -1.1774866752E-001 -3.0554491371E-002  +8.8231622213E-006 -3.1423557598E-005  +3.0770437867E-005 -5.5423761522E-006  -1.9204321508E-001 -1.5515784505E-001 
18200000000.000 +5.2595527762E-002 -1.6157595026E-001  +1.5819716271E-005 +1.6589137375E-005  -1.2696457116E-006 +1.9450699080E-005  +5.7001856859E-002 -2.3379901881E-002 
18400000000.000 +1.5876175772E-003 +2.1377946953E-001  -1.7229300250E-005 -2.3794856198E-005  -2.1557077347E-005 -5.1668457935E-006  +8.0987850774E-002 +1.2816316074E-001 
18600000000.000 -1.8623041755E-001 -7.6646012176E-002  +4.3643992387E-005 -3.0241381614E-005  -1.3573145171E-005 -3.8759729930E-005  -1.8573393068E-001 -1.7862239511E-002 
18800000000.000 +5.5945026702E-002 -5.8723434978E-002  +1.1378484874E-005 +2.8916324009E-005  +8.2059557597E-006 -2.9510942282E-005  -3.9346811560E-002 -1.4012230204E-001 
19000000000.000 +9.5409931113E-002 +9.5989470517E-002  -1.6947053121E-005 -2.5122961656E-005  +2.2682163564E-005 +1.0495296628E-005  +9.4045505285E-002 -2.2741247628E-002 
19200000000.000 -1.8715660315E-001 -1.3502484517E-001  +2.1937738971E-005 +2.4877606634E-005  -2.3747097682E-005 +1.8216391794E-005  -1.1861642186E-001 +1.3165423497E-001 
19400000000.000 +5.2877571113E-002 -4.3725297038E-002  -5.5668483022E-005 +3.0285713395E-005  -6.0847372155E-005 -1.3057033934E-006  +6.9569824320E-002 -2.1636638383E-001 
19600000000.000 +1.0460498413E-001 +3.1792355078E-002  -4.8115088412E-006 -3.8976936842E-005  -1.3485470025E-005 -2.8119339565E-005  +3.1701801711E-002 -4.4726837562E-002 
19800000000.000 -1.0560510344E-001 -3.8979900695E-002  +1.7707743950E-005 +2.8954153504E-005  +2.6968660583E-005 -6.9230096662E-006  +6.5027911774E-002 +1.0317317064E-001 
20000000000.000 +7.6393069569E-002 -1.1296671142E-001  -2.2375811694E-005 -5.8700158369E-008  +8.5066585055E-006 +2.5832724407E-005  -1.3214258524E-001 -5.8002963367E-003 
20200000000.000 +6.5940626282E-002 +2.4858703259E-002  +2.2319410998E-005 -1.3682534421E-005  -3.7994152403E-006 +1.6386213260E-005  -4.4017238615E-002 -1.6083298678E-001 
20400000000.000 -1.2053913644E-001 +7.9825294479E-002  -1.1532906711E-005 +7.0535698795E-006  -2.4304758529E-005 -1.6899504814E-005  +1.4222268168E-001 -2.8476494158E-002 
20600000000.000 +1.0530268698E-001 -1.1604581612E-001  +3.4780846690E-006 -2.1468629000E-005  +1.2124800182E-005 -7.3012123951E-006  -1.0313180532E-001 +1.7614635771E-001 
20800000000.000 +1.0622668239E-001 +8.6304514150E-002  -2.6574491893E-006 +2.0487415611E-005  +8.9525793058E-006 +8.4655030590E-006  -1.2503828202E-001 -1.4839488027E-001 
21000000000.000 -1.4312341691E-001 -4.5711476545E-002  -3.1140049144E-006 -2.7339914506E-006  -7.9393917089E-006 +2.4345080303E-006  +1.4353005717E-001 -7.3281583396E-002 
21200000000.000 +1.2305771818E-001 -4.2308574096E-003  +1.0007126346E-005 +1.3597732865E-005  +3.9158425859E-006 -7.9682217168E-006  -1.1847117946E-001 +1.3400791650E-001 
21400000000.000 +6.3156939145E-002 +8.4474821982E-002  -3.8437116331E-005 -9.4350939864E-006  +3.0789531993E-005 +1.3272934548E-007  -3.9208990242E-002 -5.2129307608E-002 
21600000000.000 -8.5060488970E-002 +7.1105374181E-002  +2.2290539785E-005 -2.0164513277E-005  +1.8114193406E-005 +2.7630502160E-005  -1.0842264760E-002 -1.0167067103E-001 
21800000000.000 +1.6695631492E-002 -9.7419672548E-002  -2.8288675779E-005 +1.8538870696E-005  -2.1545696606E-005 +1.2677231224E-005  +6.3457782826E-002 +6.3948316148E-003 
22000000000.000 +4.2573557870E-002 +8.3435474347E-002  +1.5808201051E-005 -6.5693481205E-005  -3.0598354969E-005 -4.3861621252E-005  -8.2260641891E-002 +4.2307510598E-002 
22200000000.000 -3.0940172056E-002 +1.5503250185E-001  +8.0712876331E-005 +2.8304760196E-005  -2.2290818868E-006 -7.5645464234E-005  -4.6854660931E-002 -9.0761914468E-002 
22400000000.000 -2.6121574963E-002 -1.8453716536E-001  -3.9695517090E-005 +1.0022376849E-005  +3.6647511796E-005 -8.2840784525E-006  +1.9915556025E-001 -6.9525516697E-002 
22600000000.000 +6.8736501581E-002 +1.0609301920E-001  +5.1578161098E-005 -3.2676759151E-005  -5.4166139277E-006 +4.7993681957E-005  -1.6015212717E-001 +9.0617615777E-002 
