!  2-Port S-parameters saved by WinCal
! VAR MeasName=S-Parameters (CALIBRATED_DATA) read from VNA (MS4647B)
! VAR MeasDate=27-Apr-22 15:13:42
! VAR NAME=RAW_line_3mm_2
! VAR FILENAME=RAW_line_3mm_2.S2P
! VAR DATE=27-Apr-22 15:13:42
! VAR PHYS_PORTS=1,2
! VAR ObjTypeName=DATASET
! VAR IndexType=Frequency
! VAR ChuckHeaterState=Unknown
! VAR ChuckTemp=NaN
! VAR ChuckTempUnits=Unknown
!
# Hz S RI R 50
200000000.000 -1.8155117870E-002 -8.3837848177E-002  -2.4456236751E-001 -6.8710115224E-001  -3.6596894291E-001 -6.4636546005E-001  +2.1577593466E-002 -6.2484327399E-002 
400000000.000 +1.1919002235E-001 -9.9372277633E-002  -4.3240920017E-001 +5.3082142784E-001  -2.6473127554E-001 +6.4614389617E-001  -1.3757185065E-001 +4.8482534003E-003 
600000000.000 +6.0209415369E-002 -6.6265271466E-002  +5.7387869983E-001 +2.1993784025E-001  +5.7797385355E-001 -1.9633348023E-001  -4.8168628380E-002 +5.2758436926E-002 
800000000.000 +7.9205628450E-002 -2.0990078250E-001  -2.0600729593E-001 -6.3152005340E-001  -5.7682652262E-001 -3.0160152703E-001  +1.6311500787E-001 +5.8704040214E-002 
1000000000.000 +1.1906314410E-001 -1.9152442769E-001  -2.5553007828E-001 +6.6082698931E-001  +3.1412541640E-001 +5.9946072309E-001  +2.0552404372E-001 -5.7778331866E-002 
1200000000.000 +8.3515769078E-002 -2.4512812806E-001  +7.1597321836E-001 -1.5490342895E-001  +2.0788804888E-001 -6.5138382266E-001  -1.2526599666E-001 -1.4200744821E-001 
1400000000.000 +6.8428584364E-002 -1.8243555417E-001  -5.9653471504E-001 -4.2835425778E-001  -5.8190252799E-001 +3.4459050057E-001  -2.2889070463E-002 -4.4737560847E-002 
1600000000.000 +1.6769687089E-001 +1.3587135404E-001  +5.8943091177E-002 +6.2284120785E-001  +5.3145149794E-001 +1.3782279877E-001  -1.7502474918E-001 -6.4162725051E-002 
1800000000.000 +8.7829191744E-002 -1.2690263340E-002  +4.0313188834E-001 -3.4180805872E-001  -2.3863819316E-001 -3.9453151098E-001  +4.0090492269E-002 +1.1191298077E-001 
2000000000.000 +1.0185277782E-001 +3.0256240991E-002  -4.4682828346E-001 -9.1672900730E-002  -1.0762663321E-001 +3.6902760907E-001  +1.5330233186E-001 -1.1910706260E-002 
2200000000.000 +6.3813560990E-002 -1.7693897221E-001  +1.4834827580E-001 +3.9285273526E-001  +3.4141213979E-001 -1.4427666523E-001  -3.6891838764E-002 -2.3147420747E-001 
2400000000.000 +1.2605795174E-002 -1.3665050406E-001  +7.2232562904E-002 -4.1624207990E-001  -3.8553655831E-001 -3.8600632308E-002  -1.2940091371E-001 +1.1229094226E-002 
2600000000.000 +6.5495392585E-002 +5.6163620513E-002  -6.9344900566E-001 -3.0618538766E-001  -3.1850851927E-001 +4.1410320215E-001  +3.9604283301E-003 -3.4128454078E-002 
2800000000.000 +4.8681130079E-002 -1.9844481124E-001  +6.7379034084E-001 -5.5772853968E-001  -6.9763597884E-001 -1.8094805637E-001  -1.1705135251E-001 +8.6574802157E-002 
3000000000.000 +4.5103144686E-002 +3.4754508404E-002  +7.4793643664E-002 +8.7144921541E-001  -1.2371990311E-001 -7.5278382768E-001  +5.6464831617E-003 -2.4531201956E-002 
3200000000.000 -3.9831505706E-002 -1.8110706071E-001  -6.7971569470E-001 -3.3785978605E-001  +5.3256981667E-001 -4.0566137421E-001  +2.4501681867E-002 +1.4265498776E-001 
3400000000.000 +3.1152870244E-001 -2.6751826583E-002  +7.2937297277E-001 -3.3972949438E-001  +5.5780775429E-001 +4.8919137368E-001  -1.8269983366E-001 +1.1254386517E-001 
3600000000.000 +6.2855331542E-002 +3.5813950489E-002  -1.9793904506E-001 +8.2078161572E-001  -2.2059247068E-001 +8.3564785931E-001  -5.4894014260E-002 +2.4638304246E-003 
3800000000.000 -3.7122681321E-001 -8.6928462511E-002  -4.1049144361E-001 -7.6523188129E-001  -8.0492536753E-001 -7.6940661301E-002  +2.3816506791E-001 +1.3628776999E-001 
4000000000.000 +9.3691113200E-002 +1.1865894663E-001  +8.6958172910E-001 +1.3378048619E-001  -2.1898593718E-001 -7.3128515485E-001  -9.0771253537E-002 -3.2797722737E-002 
4200000000.000 +1.2957595915E-001 +1.8296556174E-001  -7.1843851782E-001 +5.2437305092E-001  +7.0394669904E-001 -4.3954545632E-001  -1.9996054712E-001 -9.8122856804E-002 
4400000000.000 -6.2646918399E-002 -8.4610741594E-002  +1.2389817686E-001 -8.4953314586E-001  +6.8384333487E-001 +5.7333602654E-001  +1.2715981833E-001 +2.1638653852E-002 
4600000000.000 -7.0375416813E-003 -1.3937177062E-001  +5.2418492855E-001 +6.6245100192E-001  -4.7607445007E-001 +6.8390105163E-001  +1.1374842883E-001 +1.3287759484E-001 
4800000000.000 -1.2681725755E-001 +1.8888465996E-002  -8.3296777064E-001 -1.5907131263E-001  -7.5160650981E-001 -2.7784092439E-001  +8.7648893207E-002 -2.2081724893E-002 
5000000000.000 -8.9202681155E-002 +1.4473713973E-001  +6.5300457970E-001 -4.3211457100E-001  -2.9747585382E-002 -8.4738813337E-001  -8.4695582410E-002 -1.1302249910E-001 
5200000000.000 +1.8307527792E-002 -2.5725982651E-001  -2.4220105920E-001 +7.5020646554E-001  +8.9995202346E-001 -2.5753671338E-002  +1.6851458482E-001 +2.1046827518E-001 
5400000000.000 -1.5644012458E-001 -4.0132712629E-002  -3.5128647752E-001 -6.8362863926E-001  +1.7811868880E-001 +7.9002229200E-001  -3.9766703219E-002 -1.3561559735E-001 
5600000000.000 +1.0581076490E-003 +9.0489547352E-002  +6.7035001771E-001 +2.4991209135E-001  -6.4101940353E-001 +4.1929366310E-001  -4.7288069612E-002 -1.2865279799E-001 
5800000000.000 +3.8254146898E-002 -4.8382041265E-003  -6.0914866214E-001 +3.1246652814E-001  -5.1780345434E-001 -5.8408158365E-001  +4.4573652464E-002 +1.4878294705E-002 
6000000000.000 +1.4485834076E-001 -1.1595897178E-001  +2.4233650710E-001 -5.9112535293E-001  +5.2958725955E-001 -5.2199726994E-001  +3.1109854541E-002 +1.4363612759E-001 
6200000000.000 +4.7633469179E-002 -9.3738871029E-002  +1.6640121938E-001 +6.1481524616E-001  +5.2833750253E-001 +4.5248985231E-001  +1.6275642236E-001 +7.9355480493E-002 
6400000000.000 -2.2807670620E-001 +2.3932027466E-002  -5.7115193188E-001 -2.0555274649E-001  -1.6081890637E-001 +6.4487317217E-001  -8.9740500820E-002 -2.6529009500E-001 
6600000000.000 +1.7305680255E-001 +3.0963287033E-003  +6.2053593749E-001 -8.2637562842E-002  -6.4501631379E-001 -2.1270772165E-001  +1.5746968936E-001 +1.1266859677E-001 
6800000000.000 -6.1659492439E-002 +8.9934134534E-002  -4.1438407494E-001 +4.5907674689E-001  +1.1055517538E-001 -6.6519309512E-001  -9.9171388082E-002 +1.1004116079E-001 
7000000000.000 -5.7002299591E-002 -4.7441067158E-002  -4.6287595936E-002 -6.0619215174E-001  +5.9608679589E-001 -1.3781415685E-001  -3.9137358709E-002 -6.4938141381E-002 
7200000000.000 +3.6838804393E-003 -7.6823807243E-002  +3.9228909464E-001 +4.4380610804E-001  +2.1428790171E-001 +5.2874088613E-001  +1.5449682801E-001 -1.5068885306E-002 
7400000000.000 +2.0826990350E-002 +6.5808405316E-002  -5.5806737018E-001 -1.1209565351E-001  -5.3215073967E-001 +2.4884371894E-001  -1.9801194146E-001 +8.3662334948E-002 
7600000000.000 +2.1541650457E-001 -2.3809865496E-002  +4.9586563694E-001 -2.9513580163E-001  -3.1853668653E-001 -4.6172542006E-001  +1.8792615799E-001 +2.5507051441E-002 
7800000000.000 -1.1823842583E-001 -1.7571630997E-001  -1.5521902500E-001 +5.0838952168E-001  +3.1059290309E-001 -3.6629420739E-001  +3.1295446374E-002 -1.1340825234E-001 
8000000000.000 +1.2139422486E-001 +1.7193461780E-002  -1.7195584930E-001 -5.0632422068E-001  +4.0458429240E-001 +3.2509134835E-001  +2.4683488270E-002 -3.1406397320E-002 
8200000000.000 -1.8897172659E-001 +1.3406140931E-001  +4.3735106381E-001 +2.1425844138E-001  -2.2832957560E-001 +4.2060275958E-001  -1.1323928182E-001 +5.3828491973E-002 
8400000000.000 +4.3149084645E-002 +1.2840239165E-002  -4.5972690765E-001 +2.7598430968E-002  -4.2827370637E-001 -1.4225281339E-001  +1.3750700982E-002 +2.4985178617E-002 
8600000000.000 +1.4056995158E-001 +2.9360072388E-002  +2.3978793054E-001 -3.2946889275E-001  +6.7518090313E-002 -3.9526344222E-001  +2.0219174841E-001 +2.0851270539E-002 
8800000000.000 -1.2638936217E-001 -3.2379714744E-002  +3.3197599527E-002 +4.0634539267E-001  +4.0925257495E-001 -4.7810069788E-002  -1.6619617152E-001 +7.7484185357E-002 
9000000000.000 +3.0604452233E-002 -3.6349617648E-002  -2.5508599315E-001 -2.6847164006E-001  +7.5646601402E-002 +3.8013480281E-001  -2.8217915766E-002 -7.5464261531E-002 
9200000000.000 +8.1387890345E-003 +1.4699750194E-002  +3.7843137742E-001 +4.0333945865E-002  -3.5860145075E-001 +1.1010180818E-001  +5.5490370180E-002 +8.3821966062E-002 
9400000000.000 +9.1872113056E-002 -9.8218603415E-003  -2.7007533824E-001 +2.3408653146E-001  -2.0091208452E-001 -2.9388751140E-001  -2.7514222512E-002 -6.2137543921E-002 
9600000000.000 -7.2185121525E-002 -1.2841338967E-001  +6.3573513964E-002 -3.3639718525E-001  +2.6989572138E-001 -2.1884015867E-001  -9.4375560201E-002 -3.3933832264E-002 
9800000000.000 +4.9912257840E-002 +1.6544573867E-003  +1.6245819767E-001 +2.9048292406E-001  +2.6356956948E-001 +2.2631312158E-001  -2.8243609955E-002 -6.1139856202E-003 
10000000000.000 -6.6129632912E-002 +1.0227786783E-001  -2.9754987900E-001 -1.1004994760E-001  -2.4858953805E-001 +2.0491577790E-001  +4.3411739268E-002 +5.4257322294E-002 
10200000000.000 +1.0614398199E-002 +5.1092872782E-002  +3.0986748154E-001 -6.7695565140E-002  -3.0716048532E-001 -5.6915495463E-002  +3.8503508719E-002 -9.2389471180E-002 
10400000000.000 +1.4977135214E-001 +2.6847321553E-002  -1.7849412134E-001 +2.2862084657E-001  +7.2521809096E-002 -3.0704001412E-001  -5.5677059064E-002 -9.7018277069E-002 
10600000000.000 -1.3463732047E-002 -3.2373663919E-002  -2.1305644551E-002 -2.9715831165E-001  +2.8489064485E-001 +9.9093867459E-002  -3.4164585853E-002 +1.0096713650E-001 
10800000000.000 -6.4218363707E-002 +1.7285978743E-002  +1.6571566100E-001 +2.2617159109E-001  +4.5681130396E-003 +2.9176914666E-001  +2.5398630475E-002 -4.3732500769E-002 
11000000000.000 +9.4901212244E-002 +5.7496318832E-003  -2.7319981641E-001 -8.6778930731E-002  -2.8522652201E-001 +9.1326240094E-002  +5.6907886307E-002 +1.9107562999E-002 
11200000000.000 -3.8212795420E-002 +8.9028816922E-002  +2.4560214797E-001 -1.0617595709E-001  -1.1822745821E-001 -2.6851246798E-001  -9.9963076916E-002 -4.8389188144E-002 
11400000000.000 -1.6464876115E-002 -6.4218197307E-002  -1.3095968831E-001 +2.2922326888E-001  +2.5463437688E-001 -1.4739671311E-001  +3.2707355695E-002 -4.5393756915E-003 
11600000000.000 -1.1984042521E-002 -1.8244904787E-002  -8.6424566272E-002 -2.3238787212E-001  +1.6515076627E-001 +2.1201589058E-001  +1.4492729296E-002 +1.2654576823E-001 
11800000000.000 -9.5215296359E-002 +1.0246428042E-001  +2.2228337891E-001 +1.0702865787E-001  -1.8065005633E-001 +2.0124539095E-001  -1.9017018455E-002 -1.8094593798E-001 
12000000000.000 +1.5856252946E-001 -1.1101109362E-002  -2.3138973389E-001 +1.5025089817E-002  -1.8542918901E-001 -1.7597173838E-001  -5.0706027008E-002 +9.8991721259E-003 
12200000000.000 +4.8442163778E-003 -5.9967349352E-002  +1.8657655843E-001 -1.2723837650E-001  +1.6262291686E-001 -1.8961330247E-001  -6.8714530438E-002 +5.8381787421E-002 
12400000000.000 +2.4446247494E-002 +4.0313174062E-002  -8.6129357929E-002 +2.1183568343E-001  +2.0264512251E-001 +1.4983397378E-001  +4.2477400118E-002 -4.0238199066E-002 
12600000000.000 -4.0400656237E-003 +1.9452425187E-002  -1.2131166935E-001 -1.8914133017E-001  -9.5671958037E-002 +2.3405971452E-001  -3.9786032706E-002 +3.1300349121E-002 
12800000000.000 +1.2337276921E-002 +5.1747793363E-002  +2.1303708222E-001 +3.5121519419E-002  -2.4829443360E-001 -8.2928938958E-003  +1.9124561677E-002 -1.1411979140E-001 
13000000000.000 +7.6175618348E-002 +3.6327838129E-002  -1.8384167908E-001 +9.5687141059E-002  -2.2140169848E-002 -2.3422050799E-001  -6.9419561168E-002 +1.1681086310E-001 
13200000000.000 -1.4188628671E-001 -1.2447681115E-001  +1.5115163620E-001 -1.4670787751E-001  +2.1562714124E-001 +3.9662822484E-002  +5.7105342515E-002 -9.9170613866E-002 
13400000000.000 -1.3599352242E-002 +1.3696586639E-001  -7.1302732419E-002 +1.8297543265E-001  -4.5450731620E-002 +2.2037563680E-001  +4.3630759836E-002 -7.6631833426E-002 
13600000000.000 -3.5515723305E-002 +1.1843149028E-002  -9.8641025936E-002 -1.8480048139E-001  -2.4039486919E-001 +1.8170387469E-002  -1.0090452675E-001 -4.7011107131E-003 
13800000000.000 +3.6321177526E-002 -4.9796645210E-002  +2.0116879739E-001 +6.3636514510E-002  -1.2373899503E-001 -1.8851830297E-001  +4.3327265867E-002 -4.0444748400E-002 
14000000000.000 +1.3938418777E-002 +1.0615768193E-002  -1.7805597719E-001 +9.1574762438E-002  +1.4822277713E-001 -1.5085476877E-001  +4.4287835770E-002 +3.2286061964E-002 
14200000000.000 -1.4943367074E-001 -4.1645095684E-003  +9.7984113695E-002 -1.6753264879E-001  +1.6384203902E-001 +1.1588707411E-001  +2.9271429262E-002 -1.2881017658E-001 
14400000000.000 +6.0211569008E-002 +2.3816361445E-002  +1.5399281865E-002 +1.9237224567E-001  -1.4800184233E-001 +1.4773966793E-001  -2.9584388496E-002 +2.9016253713E-002 
14600000000.000 +1.5070270769E-002 -1.6165523282E-002  -1.3968461057E-001 -1.3474529262E-001  -1.4381154930E-001 -1.3286401716E-001  +2.3893466075E-002 -1.6953090399E-002 
14800000000.000 -6.5265669925E-002 -1.7813809702E-002  +1.9096921203E-001 +5.1099657113E-003  +8.0130750543E-002 -1.7525288899E-001  +4.6799256882E-002 +7.4786611437E-003 
15000000000.000 +1.3047722750E-003 -7.1031841417E-002  -1.4040950552E-001 +1.3228569074E-001  +1.8530545722E-001 +5.0701690213E-002  +3.5272804455E-005 -7.0321979392E-002 
15200000000.000 -1.2826670152E-002 +1.0398625906E-001  +3.3669887011E-002 -1.9365890328E-001  -3.3497781197E-002 +1.8174976586E-001  -2.4328433621E-002 +2.3433333049E-002 
15400000000.000 +4.7885931821E-002 -3.6579093797E-002  +1.1816998581E-001 +1.5592940080E-001  -1.8247728588E-001 -2.1047375164E-002  +2.9334923801E-002 +4.4382469710E-002 
15600000000.000 -7.0182375234E-003 -7.0965595138E-002  -1.8797004541E-001 -6.2655153849E-002  -3.9290634379E-002 -1.7902394020E-001  +2.7254400312E-002 -1.0302943040E-001 
15800000000.000 -9.6466226585E-003 +3.6471059803E-002  +2.0468409446E-001 -3.8149511393E-002  +1.7729807722E-001 -5.4209871103E-002  +3.8338939620E-002 +6.7238149149E-002 
16000000000.000 -9.8475933321E-003 -5.7579852385E-002  -1.1776565446E-001 +1.6167674068E-001  +2.9126351779E-002 +1.8003636527E-001  -1.3345994773E-002 -9.9869664314E-002 
16200000000.000 -1.4600467952E-002 +5.0767494425E-002  -4.8394163703E-003 -1.9648607999E-001  -1.5926746199E-001 +5.9356270899E-002  -1.7497299929E-002 +5.5963366818E-002 
16400000000.000 +5.9736142441E-002 -7.5475573976E-003  +1.3782069905E-001 +1.2795598255E-001  -8.2890710620E-002 -1.4312223091E-001  +5.5815356969E-002 -2.1483756613E-002 
16600000000.000 -5.1965749333E-002 -4.7679405144E-002  -1.7888096602E-001 -4.0575473053E-002  +1.2048544766E-001 -1.1883579702E-001  -1.0222797450E-002 -1.8452849218E-002 
16800000000.000 +3.6222949670E-002 +3.9936949191E-002  +1.7750641432E-001 -5.4464067558E-002  +1.2960169872E-001 +9.8215433102E-002  +1.3339016682E-002 +5.2287746558E-002 
17000000000.000 +2.8935288653E-002 +3.8966158014E-003  -1.0423390749E-001 +1.4431596306E-001  -9.3394046916E-002 +1.2382526494E-001  +6.1089755505E-002 -9.7921376828E-002 
17200000000.000 +7.4811466505E-003 -1.3701718919E-002  -5.9947706086E-002 -1.6551215318E-001  -1.3624856656E-001 -7.4324463277E-002  -3.9264720093E-003 +9.9984168312E-002 
17400000000.000 +2.5264590622E-002 +1.2941211681E-002  +1.5340662770E-001 +5.8536828356E-002  +3.4178317820E-002 -1.4319366021E-001  -3.2314154806E-002 -9.1699709968E-002 
17600000000.000 -9.7406660338E-003 -5.8369702437E-002  -1.4138613930E-001 +3.9111477328E-002  +1.2957154239E-001 +1.7875063999E-003  +1.0214617980E-001 -1.5503050271E-002 
17800000000.000 +2.2023878388E-002 +1.0294730693E-001  +1.0984112422E-001 -1.1493792790E-001  +2.0311058527E-002 +1.3970829264E-001  +1.4564055312E-002 +8.4756926643E-002 
18000000000.000 +3.7465916083E-002 +9.5772587591E-004  -1.0788751534E-002 +1.5783821545E-001  -1.3547833579E-001 +3.3023725631E-002  -9.2443989599E-003 -1.2063893370E-001 
18200000000.000 +1.2337352673E-002 -6.3146422036E-002  -9.3409491411E-002 -1.1927788920E-001  -5.5445295058E-002 -1.2011937215E-001  +4.1946061668E-002 +7.7899001218E-002 
18400000000.000 -1.1291099346E-002 +1.3589898442E-001  +1.2968596835E-001 +4.8563839528E-002  +1.1254049684E-001 -4.3471475932E-002  +6.7758455349E-002 +5.7075259046E-002 
18600000000.000 -2.9119331397E-002 -3.3971080153E-002  -1.2336684413E-001 +1.0253036242E-001  +7.5984508649E-002 +1.0889308393E-001  -3.2974037425E-002 -3.7652045764E-002 
18800000000.000 -1.0989971302E-002 +6.2808211759E-002  +4.1099859174E-002 -1.4348517348E-001  -9.0552848721E-002 +1.0631694015E-001  +6.1999734872E-002 -4.9995898769E-003 
19000000000.000 +3.9523408449E-002 +2.7637702820E-002  +5.7529030242E-002 +1.2642898901E-001  -1.0355624217E-001 -6.1164333484E-002  +1.6090891990E-002 +3.2845298287E-003 
19200000000.000 -1.0652370569E-001 -9.5421715264E-002  -1.0352920118E-001 -9.7830848947E-002  +8.3749115326E-002 -8.8566155656E-002  -3.2184266325E-002 +9.8812450059E-002 
19400000000.000 +1.1445946890E-002 +1.1521772076E-001  +1.4647213065E-001 -1.0930332988E-002  +1.1510880868E-001 +4.7622298138E-002  +1.1585294494E-001 -4.5324871786E-002 
19600000000.000 -2.8753363789E-003 -3.0890723445E-002  -1.0572997175E-001 +1.1445993310E-001  -2.3468035539E-002 +1.3439676108E-001  -5.8571741174E-002 +4.0287638748E-002 
19800000000.000 -9.2709967866E-003 -1.6126893396E-002  +1.0510901261E-002 -1.4810472726E-001  -1.3033023174E-001 -3.2809458797E-002  +4.5621978908E-002 +6.2272336209E-003 
20000000000.000 -1.7479307002E-002 -9.5250286627E-003  +9.4975844065E-002 +1.1602455094E-001  +5.7551431849E-002 -1.2104836742E-001  -4.4335544951E-004 +4.3199408846E-002 
20200000000.000 -1.2498344136E-002 -7.1000985222E-002  -1.3288759617E-001 -5.8730714926E-002  +1.0931054385E-001 -7.8025479014E-002  -2.7657679846E-003 -2.8340556375E-002 
20400000000.000 -3.7664338081E-002 +7.0258476469E-002  +1.2861416245E-001 -2.8928263607E-002  +8.2122484144E-002 +9.0470996358E-002  +5.9034694761E-002 -4.7126037875E-002 
20600000000.000 +1.8105198134E-002 -3.1306563755E-002  -9.0171526928E-002 +1.0889891295E-001  -9.4097043056E-002 +8.8982365042E-002  -3.8891308983E-003 +1.0004467505E-001 
20800000000.000 +4.1917075509E-002 -2.9903449254E-002  -3.7691686318E-003 -1.4306628149E-001  -8.3908507468E-002 -9.8566506081E-002  +2.8776901188E-003 -6.6625867666E-002 
21000000000.000 -8.0215078098E-002 -4.0939847411E-002  +9.1838799743E-002 +6.2235288196E-002  +8.6930215840E-002 -5.7363693238E-002  +9.2251351994E-002 -3.8673151595E-002 
21200000000.000 +3.4291814410E-002 +1.7974553820E-002  -1.2877713003E-001 -1.1048131706E-002  +5.7443637426E-002 +9.9324736868E-002  -7.7318981995E-002 +4.7024889668E-002 
21400000000.000 +5.5709815311E-003 -5.8188561749E-002  +9.8977399568E-002 -8.2579584026E-002  -7.1036518360E-002 +8.9906775865E-002  +1.0961609463E-001 -1.5607289685E-003 
21600000000.000 +9.6184908949E-003 +2.4498059660E-002  -3.1162367291E-002 +1.3002934468E-001  -1.1325686154E-001 -2.1924144556E-002  -9.3642409404E-003 +6.5121803387E-003 
21800000000.000 -1.1053126565E-002 -4.9907887798E-002  -1.9016506386E-002 -1.0273014632E-001  -4.1499200693E-003 -9.3605877925E-002  +2.5709076552E-002 -3.9704870546E-002 
22000000000.000 +1.4918160677E-002 -3.5743599983E-002  +9.3889436149E-002 +8.3992050339E-002  +1.0681485688E-001 -1.4005640929E-002  +3.4421693390E-002 +3.8721508805E-002 
22200000000.000 +7.8620945035E-002 +1.0129417195E-001  -1.2087878089E-001 -4.3838967177E-003  +2.1626653990E-002 +1.0202520656E-001  -7.8278699998E-003 +4.7047382363E-002 
22400000000.000 -2.1618450715E-002 -1.1980909625E-001  +8.7206617627E-002 -6.9450330553E-002  -8.6063041061E-002 +4.1322902729E-002  +1.3582021448E-001 -7.3664010968E-002 
22600000000.000 +3.3202226262E-002 +3.6420140649E-002  -4.7943797775E-002 +1.0729550978E-001  -4.5614224679E-002 -8.6298165074E-002  -8.8724747057E-002 +5.7666448244E-002 
