!  2-Port S-parameters saved by WinCal
! VAR MeasName=S-Parameters (CALIBRATED_DATA) read from VNA (MS4647B)
! VAR MeasDate=27-Apr-22 15:06:22
! VAR NAME=RAW_line_1mm_1
! VAR FILENAME=RAW_line_1mm_1.S2P
! VAR DATE=27-Apr-22 15:06:22
! VAR PHYS_PORTS=1,2
! VAR ObjTypeName=DATASET
! VAR IndexType=Frequency
! VAR ChuckHeaterState=Unknown
! VAR ChuckTemp=NaN
! VAR ChuckTempUnits=Unknown
!
# Hz S RI R 50
200000000.000 -1.7831961720E-002 -8.4174494698E-002  -2.3582581780E-001 -6.9052212490E-001  -3.5722060316E-001 -6.5117895082E-001  +2.2430540350E-002 -6.0359732858E-002 
400000000.000 +1.1962056652E-001 -9.3461444284E-002  -4.4795505423E-001 +5.1971965754E-001  -2.8241821475E-001 +6.3935156505E-001  -1.3448249287E-001 +6.9834897345E-004 
600000000.000 +5.9245637382E-002 -6.7223349751E-002  +5.6584759671E-001 +2.4141176573E-001  +5.8523416975E-001 -1.7382657613E-001  -4.5658144545E-002 +5.1968921159E-002 
800000000.000 +8.1923224521E-002 -2.1862457799E-001  -1.7318264945E-001 -6.4116514662E-001  -5.5864322493E-001 -3.3161429253E-001  +1.7289040457E-001 +6.4875656152E-002 
1000000000.000 +1.0618353630E-001 -1.8901918001E-001  -2.9907924418E-001 +6.4318449958E-001  +2.7227107575E-001 +6.2092729672E-001  +1.9028273691E-001 -5.6579445891E-002 
1200000000.000 +9.2396164263E-002 -2.4507662260E-001  +7.2633074614E-001 -1.0028144056E-001  +2.5742230521E-001 -6.3313894621E-001  -1.2511319330E-001 -1.4972646324E-001 
1400000000.000 +9.0671297198E-002 -1.8928396889E-001  -5.5470369508E-001 -4.8185602776E-001  -6.1238306225E-001 +2.8863757566E-001  -3.4475836053E-002 -4.9632632371E-002 
1600000000.000 +1.4332972416E-001 +1.4262753015E-001  -4.5864022185E-003 +6.2882919232E-001  +5.1626018019E-001 +1.9281139081E-001  -1.6315822258E-001 -6.5758503263E-002 
1800000000.000 +9.5134983731E-002 -1.3326587902E-002  +4.4051158012E-001 -2.9345681663E-001  -1.9051458422E-001 -4.2027551484E-001  +4.3436385976E-002 +1.1330257777E-001 
2000000000.000 +9.2267181676E-002 +3.2535865610E-002  -4.3304201898E-001 -1.4796626207E-001  -1.5484169158E-001 +3.5257793005E-001  +1.4359557526E-001 -1.5712079052E-002 
2200000000.000 +9.0826546283E-002 -1.8571787219E-001  +8.6775119791E-002 +4.0742656881E-001  +3.5649469577E-001 -9.0540259163E-002  -2.4138651294E-002 -2.4849200793E-001 
2400000000.000 -8.8479130795E-003 -1.2453460667E-001  +1.3684453253E-001 -4.0516734006E-001  -3.7858599970E-001 -9.9331784103E-002  -1.1740825249E-001 +2.9290491468E-002 
2600000000.000 +6.2639664963E-002 +7.1242107606E-002  -6.3333668959E-001 -4.1921315980E-001  -3.8413852219E-001 +3.5593053217E-001  +8.7703059945E-003 -4.0299284926E-002 
2800000000.000 +4.2366416106E-002 -2.1318704110E-001  +7.6457173294E-001 -4.2666114534E-001  -6.5419127137E-001 -3.0499089909E-001  -1.1942701159E-001 +9.8153623195E-002 
3000000000.000 +9.6668338830E-002 +5.1392130726E-002  -1.0048285863E-001 +8.6314454331E-001  +2.7673460263E-002 -7.5833025677E-001  -3.1565952182E-002 -4.4178225908E-002 
3200000000.000 +1.8409712174E-002 -9.8034682170E-002  -6.0756692631E-001 -4.9560802548E-001  +6.2632630084E-001 -2.8673676249E-001  -1.6034625695E-002 +8.6722438535E-002 
3400000000.000 +3.0213170739E-001 +2.9237936367E-002  +7.8336543898E-001 -1.7762638679E-001  +4.3967105007E-001 +5.9617989550E-001  -1.9458618942E-001 +7.7208744221E-002 
3600000000.000 +6.2215487382E-002 +3.9972007101E-003  -3.8651575388E-001 +7.5332457495E-001  -4.1145753727E-001 +7.6017796369E-001  -8.6583479836E-002 +3.0244831001E-002 
3800000000.000 -3.5039485656E-001 -1.3807535743E-001  -2.1685056588E-001 -8.4279888272E-001  -7.6628274764E-001 -2.6988245690E-001  +2.0745746888E-001 +1.4047345128E-001 
4000000000.000 +6.5852595481E-002 +1.3293539581E-001  +8.0852535563E-001 +3.5591067786E-001  -2.0852723817E-002 -7.6529063658E-001  -7.4866449740E-002 -6.2806581025E-002 
4200000000.000 +6.3896244376E-002 +1.5961587560E-001  -8.4015037187E-001 +3.1670877725E-001  +8.0387678346E-001 -2.3958063847E-001  -1.4996956446E-001 -1.0607125547E-001 
4400000000.000 -4.9246957681E-002 -8.7843060062E-002  +3.6038657399E-001 -7.8167570056E-001  +4.9668045815E-001 +7.4446366724E-001  +1.1964075121E-001 +5.0936857290E-002 
4600000000.000 +2.6393610465E-002 -1.0050175899E-001  +3.1054399018E-001 +7.8990383691E-001  -6.5490302891E-001 +5.1906914395E-001  +6.1512298875E-002 +1.4386194313E-001 
4800000000.000 -1.1063364206E-001 -1.4589661959E-002  -7.4686579480E-001 -4.0542790118E-001  -6.3395425574E-001 -4.9433732541E-001  +7.2381154232E-002 +1.6025816485E-002 
5000000000.000 -3.8595633476E-002 +4.9918835125E-002  +7.7154137555E-001 -1.9872549856E-001  +2.5483802911E-001 -8.2074715933E-001  -7.8006799381E-002 -4.6851745896E-002 
5200000000.000 +8.9919123269E-002 -2.9198683336E-001  -4.7425667863E-001 +6.2937435042E-001  +8.6062556570E-001 +2.7095980873E-001  +1.5071201062E-001 +2.2235889107E-001 
5400000000.000 -1.5220646241E-001 -7.6218655315E-002  -9.4794804644E-002 -7.6080833003E-001  -1.0506393865E-001 +7.9841962637E-001  +1.7016238649E-002 -1.7196311020E-001 
5600000000.000 +3.4325143702E-003 +7.9210622203E-002  +5.3961767120E-001 +4.7421306722E-001  -7.5257181739E-001 +1.6370686193E-001  +2.1109845688E-002 -1.2062314400E-001 
5800000000.000 +6.9340601576E-002 +6.5304299832E-002  -6.8971525822E-001 +5.9353956948E-002  -2.6023820735E-001 -7.4885014742E-001  -2.4856041517E-003 +9.4239415628E-002 
6000000000.000 +1.5463349298E-001 -5.5048848113E-002  +4.4322024711E-001 -4.5848958237E-001  +6.8479930929E-001 -2.9185479081E-001  -3.8467229134E-002 +1.5524976076E-001 
6200000000.000 +8.7715229196E-002 -8.7671928115E-002  -8.6317440510E-002 +6.3027632358E-001  +3.0931169954E-001 +6.2361901251E-001  +1.6889256090E-001 +1.0132432044E-001 
6400000000.000 -1.6020081023E-001 +1.3253019496E-002  -4.4785811112E-001 -4.2980387561E-001  -4.1762846052E-001 +5.3873800199E-001  -5.3224144420E-002 -1.7470015776E-001 
6600000000.000 +1.7834364642E-001 +1.5476434908E-002  +6.0057708024E-001 +1.8202685013E-001  -5.0121014148E-001 -4.5949522840E-001  +1.1780951500E-001 +1.7544095839E-001 
6800000000.000 -8.8083134667E-002 +3.5143928468E-002  -5.7674165752E-001 +2.4172275006E-001  +3.8551711746E-001 -5.6221266465E-001  -1.0802035379E-001 +5.9735619156E-002 
7000000000.000 -4.8732633274E-002 -8.1104149146E-002  +2.2348731362E-001 -5.6487754594E-001  +5.9448152616E-001 +1.3581590269E-001  -2.9351828401E-002 -1.1292016768E-001 
7200000000.000 +1.4174576641E-002 -5.9286752232E-003  +1.5000550138E-001 +5.8140751610E-001  -4.7262131332E-002 +5.7502286662E-001  +1.2168069768E-001 -1.6144004617E-003 
7400000000.000 -3.7906385100E-003 +1.3483370741E-001  -4.4026249639E-001 -3.5501272066E-001  -5.8117998973E-001 -2.5492780844E-002  -2.4621007427E-001 +9.5149651774E-002 
7600000000.000 +2.5504101752E-001 +3.4757669771E-002  +5.7194374583E-001 -2.3070865425E-002  -6.0503695318E-002 -5.5462273719E-001  +2.0119866874E-001 +6.9371597659E-002 
7800000000.000 -7.1717934361E-002 -1.0603885750E-001  -3.8374898426E-001 +3.8241387616E-001  +4.5386611622E-001 -1.8033396433E-001  +4.6805917687E-002 -5.6680138526E-002 
8000000000.000 +9.6254414462E-002 +3.6905772825E-002  +1.0235765807E-001 -5.2580042845E-001  +1.8989183281E-001 +4.8382452611E-001  +3.5287692872E-002 -2.0273054401E-002 
8200000000.000 -2.0940436919E-001 +8.4188882303E-002  +2.7423263516E-001 +4.0566287600E-001  -4.0928142196E-001 +2.5156236653E-001  -9.7390038327E-002 +1.9575197801E-002 
8400000000.000 +2.6222146311E-002 -1.7775381750E-002  -4.0847868292E-001 -2.1432138746E-001  -2.9385879930E-001 -3.4398646243E-001  +4.9961713082E-003 +3.3453323514E-002 
8600000000.000 +9.2299341706E-002 +1.3061485926E-002  +3.8814806491E-001 -1.5312752124E-001  +2.7367695338E-001 -3.0497121739E-001  +1.2545385691E-001 +3.3229790355E-002 
8800000000.000 -1.4410390995E-001 -4.6698569970E-002  -1.8914776383E-001 +3.5968486694E-001  +3.6968969426E-001 +1.7803978411E-001  -2.1786627997E-001 +5.5984172576E-002 
9000000000.000 +7.2186563498E-002 +6.1552432560E-003  -7.0431444456E-002 -3.6987634266E-001  -1.4459104384E-001 +3.6599759494E-001  +1.1344913806E-002 -8.6680789970E-002 
9200000000.000 +4.1141798487E-002 +8.2702828739E-002  +2.8287947643E-001 +2.4266660562E-001  -3.5085360316E-001 -1.1179012839E-001  +9.8427050579E-002 +1.0837652497E-001 
9400000000.000 +1.0933641826E-001 +1.2057912523E-002  -3.5533416813E-001 +3.8030400244E-002  +2.2932031893E-003 -3.5562328948E-001  -1.9520528339E-002 -8.2219492489E-002 
9600000000.000 -3.6594572564E-002 -1.1761520580E-001  +2.4777701722E-001 -2.4311313545E-001  +3.5105487318E-001 -2.5050949394E-002  -6.1990798925E-002 -9.1540451823E-002 
9800000000.000 +2.9880609065E-002 +3.1388888412E-002  -3.7663463711E-002 +3.3068202263E-001  +8.1907784752E-002 +3.3775543074E-001  +2.0152069518E-002 -5.3955159099E-003 
10000000000.000 -1.1862638621E-001 +7.6141102658E-002  -1.6838119457E-001 -2.6077102343E-001  -3.1521731261E-001 +1.4503104941E-002  +3.7431710530E-002 +1.0595124902E-001 
10200000000.000 -2.5340832424E-002 +3.2690983127E-002  +2.9116102037E-001 +1.3729895558E-001  -2.1196535614E-001 -2.3559114742E-001  +4.9976405117E-002 -5.9634458995E-002 
10400000000.000 +1.0983537668E-001 +5.8956604398E-002  -2.8726385381E-001 +7.0766655679E-002  +2.5179213727E-001 -2.0085399320E-001  -1.2893832127E-002 -8.9047552182E-002 
10600000000.000 -6.3299284004E-002 -1.8234348030E-002  +1.7235822298E-001 -2.3902629105E-001  +1.5376048832E-001 +2.5612642526E-001  -6.7471070963E-003 +1.2510609700E-001 
10800000000.000 -6.5020462650E-002 +2.1758969206E-002  -1.9442245873E-002 +2.8116658885E-001  -1.8531816911E-001 +2.2707692117E-001  +1.5337292070E-002 -4.8438988752E-002 
11000000000.000 +9.6849521908E-002 +1.8474675642E-002  -1.5002525960E-001 -2.4422478529E-001  -2.7569533611E-001 -1.1726290697E-001  +4.4503872999E-002 -1.8023589074E-002 
11200000000.000 -4.9813109007E-002 +5.4831821028E-002  +2.5542157186E-001 +8.4162215777E-002  +9.0071084772E-002 -2.8093457319E-001  -9.8314948119E-002 -4.4118397758E-002 
11400000000.000 +1.6878732916E-003 -1.2637489150E-001  -2.4917544478E-001 +8.1042987754E-002  +2.8557093580E-001 +6.1359564956E-002  +2.0254091397E-002 +9.8391074461E-003 
11600000000.000 +4.8607282924E-003 -3.5742516243E-002  +9.5146120219E-002 -2.2855891931E-001  -2.3547930259E-002 +2.6749235438E-001  +3.5471684864E-002 +1.1438555202E-001 
11800000000.000 -1.1500706008E-001 +1.1480471108E-001  +8.7237590918E-002 +2.2774514271E-001  -2.6691901589E-001 +2.2143630070E-002  +5.1430994690E-002 -1.9234995789E-001 
12000000000.000 +1.3669508277E-001 -6.1693639493E-005  -1.7778499584E-001 -1.5474948771E-001  -8.4450049110E-003 -2.6007374797E-001  -1.1722900626E-002 +3.1549309609E-002 
12200000000.000 -1.9009153028E-002 -1.1467485101E-002  +2.2673114856E-001 +4.3044792913E-002  +2.5466012816E-001 -2.0085227429E-002  -6.7254719370E-002 +3.0082668099E-002 
12400000000.000 -3.5721533531E-002 +7.1712474779E-002  -2.0489662263E-001 +8.3061143885E-002  +3.3041383184E-002 +2.4141086612E-001  +7.6453762780E-002 -6.8363228841E-002 
12600000000.000 -5.3762892057E-002 +2.9999670633E-004  +5.7887420478E-002 -2.1462637726E-001  -2.3499267625E-001 +8.6584520676E-002  -2.4502646542E-002 +5.8299257787E-002 
12800000000.000 +2.3838163917E-004 +1.7696582716E-003  +1.1767827907E-001 +1.8509340905E-001  -1.6245338689E-001 -1.9346112886E-001  +9.6215524439E-003 -9.1140580398E-002 
13000000000.000 +5.7534185461E-002 -2.3254557220E-003  -1.9846842653E-001 -7.7444217607E-002  +1.6606332129E-001 -1.7594070096E-001  -3.1549737159E-002 +9.6465897805E-002 
13200000000.000 -1.4076452035E-001 -1.9184472907E-001  +1.9275080184E-001 +1.2030545095E-002  +1.0641494733E-001 +1.7051681184E-001  +1.3380610086E-001 -5.5174283422E-002 
13400000000.000 +1.7117123369E-002 +9.2811958771E-002  -1.9777497124E-001 +6.1340843886E-002  -2.1125018009E-001 +1.0735993403E-001  +5.9677262455E-002 -1.8152930333E-003 
13600000000.000 -3.5478102458E-002 +1.1661715700E-002  +8.0426171401E-002 -1.9444893771E-001  -1.6772149920E-001 -1.7490798471E-001  -8.5708163880E-002 +5.3632673187E-003 
13800000000.000 +8.1673683673E-003 -5.3828671238E-002  +7.4829325326E-002 +1.9462721826E-001  +6.8984642554E-002 -2.1178694266E-001  +8.4491962117E-002 -2.5386907615E-002 
14000000000.000 +3.4341700028E-002 -1.7124513077E-002  -1.7522862482E-001 -8.6485672053E-002  +2.0417114610E-001 +2.8375146974E-002  +5.1985384666E-002 +1.0597005015E-001 
14200000000.000 -1.0127699279E-001 -3.7571450076E-003  +2.0478269244E-001 -2.3449048396E-002  +5.6886542521E-003 +2.1293886359E-001  -1.4157709037E-002 -6.6211851932E-002 
14400000000.000 +8.7620264205E-002 +1.7744989679E-002  -1.4749973780E-001 +1.2584551630E-001  -2.0750481058E-001 -3.3181480234E-002  -3.6024224993E-002 +5.0859962453E-002 
14600000000.000 +5.4225868046E-002 -4.7008426075E-002  +2.9084753757E-002 -1.8368827387E-001  +2.5523608828E-002 -1.8530423082E-001  +4.0068488463E-002 +4.1794226256E-002 
14800000000.000 -1.7802654829E-002 -1.7785565294E-002  +1.0838019966E-001 +1.6632783027E-001  +1.9720739068E-001 -3.4613227635E-002  +4.2667494057E-002 +5.2953914959E-002 
15000000000.000 +1.3368348233E-003 -5.2504493417E-002  -1.9019900512E-001 -4.2142764413E-002  +6.3294634771E-002 +1.8335695378E-001  -1.3412664574E-002 -7.9351251015E-002 
15200000000.000 -2.8527448617E-002 +1.0841897065E-001  +1.8175632437E-001 -7.8887250059E-002  -1.7166504906E-001 +7.2625724489E-002  -1.4982029395E-002 +3.3991948982E-002 
15400000000.000 +5.3335414609E-002 -1.0396272647E-002  -6.7335573451E-002 +1.8024507700E-001  -7.8523099613E-002 -1.6289827665E-001  +1.1886888694E-002 +9.5201549861E-002 
15600000000.000 -1.0619031064E-002 -4.2279429118E-002  -4.8501307562E-002 -1.9784507078E-001  +1.3436837667E-001 -1.3291062644E-001  -1.1074018410E-002 -6.8840595136E-002 
15800000000.000 +1.7675580662E-003 +3.9582903387E-002  +1.4027899559E-001 +1.5643098616E-001  +1.3996741522E-001 +1.2396237097E-001  +4.3302772595E-002 +9.1887378600E-002 
16000000000.000 +2.7276030288E-002 -3.6837761976E-002  -1.9614949893E-001 -2.4129845729E-002  -1.4129855475E-001 +1.1190796961E-001  -1.5422695477E-002 -5.5140285653E-002 
16200000000.000 -1.5626954949E-002 +7.8845142424E-002  +1.7158742713E-001 -1.0214688450E-001  -1.3229345816E-001 -1.1115338112E-001  -4.1328421983E-002 +6.6292732062E-002 
16400000000.000 +5.2088228719E-002 -1.4725487813E-002  -4.5315339554E-002 +1.8370398034E-001  +8.5397995150E-002 -1.4305938853E-001  +5.0673743927E-002 -3.3260922734E-002 
16600000000.000 -4.9244007904E-002 -3.2073089592E-002  -5.0522702857E-002 -1.7601038767E-001  +1.6181937482E-001 +4.8393280652E-002  -7.5000868897E-003 +1.7554153845E-002 
16800000000.000 +7.0586634604E-003 +7.7918412941E-002  +1.2227875217E-001 +1.3865549410E-001  -3.5712221118E-002 +1.5789350337E-001  -4.0251193023E-002 +8.6056082854E-002 
17000000000.000 -9.6693218911E-003 -1.2915232042E-003  -1.8066663155E-001 -2.4895188920E-002  -1.5661691246E-001 -2.4687473578E-002  +2.7431500427E-002 -9.0192829946E-002 
17200000000.000 +1.8543076746E-002 +2.5684381943E-003  +1.2021545463E-001 -1.2774456958E-001  +4.8849112519E-003 -1.5469024689E-001  +8.5703097901E-003 +1.3269376155E-001 
17400000000.000 +1.4156121769E-002 +6.9224999593E-002  -2.0118373345E-003 +1.6124720133E-001  +1.4396061170E-001 -1.6918430156E-002  -5.3560949817E-002 -2.2006997947E-002 
17600000000.000 -6.8039007748E-002 -3.7261397848E-002  -1.0524163968E-001 -1.2509469952E-001  +5.8215672152E-002 +1.3224927097E-001  +4.1386180794E-002 +6.2172064822E-003 
17800000000.000 -8.8775639243E-003 +7.2350441428E-002  +1.4862092532E-001 +4.8449653145E-002  -1.1517961189E-001 +7.7529432307E-002  -1.7792433735E-002 +7.3608926432E-002 
18000000000.000 +1.3953966337E-002 -5.6807467457E-003  -1.4872765981E-001 +5.6720189292E-002  -8.7429243852E-002 -1.0975006443E-001  -3.9768397696E-002 -8.4564388536E-002 
18200000000.000 -5.4809866818E-002 -8.7424859820E-002  +9.9655084694E-002 -1.2253141833E-001  +1.0967352128E-001 -8.4274148671E-002  -5.0013678537E-002 +1.0960583368E-001 
18400000000.000 -4.3835307370E-002 +6.3882114085E-002  +2.6061551289E-002 +1.4660270716E-001  +1.0211832529E-001 +8.0612525316E-002  +1.1156461982E-003 +3.7709701272E-002 
18600000000.000 -1.8655815871E-002 -8.6347246015E-002  -1.3424170957E-001 -8.3340898101E-002  -7.7959889589E-002 +1.0499108937E-001  -6.8751732088E-002 -4.4645016915E-002 
18800000000.000 -1.3112447586E-002 +3.5979849156E-002  +1.4386432379E-001 -1.2884098848E-002  -1.2761639265E-001 -4.4622829153E-002  +1.0913283610E-002 +2.1407660176E-002 
19000000000.000 +5.5257015014E-002 -3.4387730102E-002  -1.2122655706E-001 +9.8266494459E-002  +3.7459679848E-002 -1.3074543946E-001  -6.2019056696E-002 -1.3873356225E-002 
19200000000.000 -4.7156454445E-002 -1.2575138430E-001  +4.1293163259E-002 -1.3071534315E-001  +1.1212423174E-001 +3.5193776319E-002  -5.4440493777E-002 +4.1362762409E-002 
19400000000.000 +6.3135518271E-002 +9.9094320575E-002  +5.6251258121E-002 +1.4631034493E-001  -1.2991514707E-002 +1.3197142068E-001  +8.2801595782E-002 -7.3338383982E-002 
19600000000.000 +3.2348327774E-002 -6.4000123137E-002  -1.3052459117E-001 -7.5519169058E-002  -1.3199134830E-001 +6.6834424501E-003  -1.2534706800E-001 +1.7707501080E-002 
19800000000.000 +4.7100248551E-002 -1.2740146114E-002  +1.5071994185E-001 -4.2193355054E-002  -1.4482515511E-002 -1.4073299646E-001  +8.4575212500E-004 -2.0845017954E-002 
20000000000.000 +2.1023455221E-003 +1.0602408506E-002  -8.6762623347E-002 +1.2352773216E-001  +1.3266548711E-001 +2.2657748551E-002  -2.0853408536E-003 +4.0040116728E-002 
20200000000.000 +2.1583445830E-003 -7.1538714558E-002  +2.3024156393E-002 -1.4182909625E-001  +1.0171256523E-001 +8.5042296330E-002  -3.7539292608E-002 +3.8354281082E-003 
20400000000.000 +5.2579964519E-003 +8.4928347091E-002  +6.5299843083E-002 +1.3032723106E-001  -7.4981120139E-002 +1.1181864693E-001  -9.4832015723E-003 -5.3142212313E-002 
20600000000.000 +3.4412360162E-002 +1.0224993936E-002  -1.2284966535E-001 -5.7285359971E-002  -1.0481311781E-001 -6.5338272568E-002  -4.2841922399E-002 +8.4696235844E-002 
20800000000.000 +6.2851264868E-002 -1.2946578890E-002  +1.3431160204E-001 -3.7346403899E-002  +7.3573549088E-002 -1.0262519164E-001  -2.0882180395E-002 -2.2998317648E-002 
21000000000.000 -3.8058772553E-002 -5.7800798148E-003  -5.3299857308E-002 +1.1992346049E-001  +8.5164821590E-002 +8.9478023441E-002  +2.9490748620E-002 +1.1128119360E-002 
21200000000.000 +3.5148830884E-002 +8.3309302385E-002  -2.5500740805E-002 -1.1463057131E-001  -7.0302625712E-002 +7.7076425786E-002  -1.3595861188E-001 +4.3279137651E-002 
21400000000.000 -6.7424062235E-003 -1.8415615456E-002  +1.0168164342E-001 +8.8061379075E-002  -1.0456767761E-001 -5.7842413588E-002  +7.7623677312E-002 -3.5613769336E-003 
21600000000.000 +1.6381652426E-002 +6.7321724994E-002  -1.2693386963E-001 -1.7090627382E-002  +9.7175769490E-003 -1.0999666416E-001  -6.1710988131E-002 +3.1261925977E-002 
21800000000.000 -3.5727850445E-002 +3.8627068286E-003  +1.0868319390E-001 -5.2129421665E-002  +1.0302119680E-001 -3.3146465362E-002  -3.8746350603E-002 -3.8126503383E-002 
22000000000.000 -4.3593218446E-002 -1.4216760050E-002  -6.6458263029E-002 +9.1402033958E-002  +2.2361731208E-002 +9.4056762025E-002  -7.9511159429E-003 +1.6985184295E-002 
22200000000.000 +5.0353567556E-002 +1.1289165691E-001  -1.8521781532E-002 -1.1970028448E-001  -9.6133083875E-002 +4.0647612960E-002  -5.5732526317E-002 +5.0570188726E-002 
22400000000.000 -5.7899823700E-002 -8.2890883001E-002  +8.1944220230E-002 +9.5099685691E-002  -5.0414520743E-002 -9.5197686575E-002  +7.3047861177E-002 -9.1303975655E-002 
22600000000.000 -2.6605687203E-002 +4.5471189039E-002  -1.0974002623E-001 -2.1297389838E-002  +7.0116219304E-002 -6.1312198466E-002  -1.1349804833E-001 +1.7931698205E-002 
