!  2-Port S-parameters saved by WinCal
! VAR MeasName=S-Parameters (CALIBRATED_DATA) read from VNA (MS4647B)
! VAR MeasDate=27-Apr-22 15:10:59
! VAR NAME=RAW_line_3mm_1
! VAR FILENAME=RAW_line_3mm_1.S2P
! VAR DATE=27-Apr-22 15:10:59
! VAR PHYS_PORTS=1,2
! VAR ObjTypeName=DATASET
! VAR IndexType=Frequency
! VAR ChuckHeaterState=Unknown
! VAR ChuckTemp=NaN
! VAR ChuckTempUnits=Unknown
!
# Hz S RI R 50
200000000.000 -1.7726998347E-002 -8.4031748584E-002  -2.4458804420E-001 -6.8716036859E-001  -3.6558858917E-001 -6.4582390509E-001  +2.1556807251E-002 -6.2846316118E-002 
400000000.000 +1.1872647221E-001 -9.9987273323E-002  -4.3272381172E-001 +5.3028464309E-001  -2.6437837196E-001 +6.4582397026E-001  -1.3783028042E-001 +5.2747671178E-003 
600000000.000 +5.9388804780E-002 -6.6105348134E-002  +5.7444328256E-001 +2.2000596485E-001  +5.7798663337E-001 -1.9573606309E-001  -4.7363059513E-002 +5.2643696871E-002 
800000000.000 +7.9709796368E-002 -2.0914014043E-001  -2.0634065809E-001 -6.3184076752E-001  -5.7596528344E-001 -3.0185197165E-001  +1.6213690509E-001 +5.8728539328E-002 
1000000000.000 +1.2004140836E-001 -1.9255774260E-001  -2.5577442753E-001 +6.6053158162E-001  +3.1273829400E-001 +5.9967945622E-001  +2.0671291355E-001 -5.7442763536E-002 
1200000000.000 +8.2433793610E-002 -2.4654272977E-001  +7.1610515306E-001 -1.5438350896E-001  +2.0889164469E-001 -6.5048395930E-001  -1.2659194112E-001 -1.4305030802E-001 
1400000000.000 +6.7568221320E-002 -1.8077892020E-001  -5.9643291014E-001 -4.2829164813E-001  -5.8234158041E-001 +3.4375858215E-001  -2.1784290188E-002 -4.3568595122E-002 
1600000000.000 +1.6917026795E-001 +1.3669222015E-001  +5.8270618720E-002 +6.2264194971E-001  +5.3078828808E-001 +1.3879085410E-001  -1.7573486045E-001 -6.5679657450E-002 
1800000000.000 +8.8470774884E-002 -1.4543990449E-002  +4.0326418291E-001 -3.4112413009E-001  -2.3741185132E-001 -3.9500442745E-001  +4.0420008318E-002 +1.1366740788E-001 
2000000000.000 +9.9926730500E-002 +2.9952983889E-002  -4.4673034613E-001 -9.2720344990E-002  -1.0897320694E-001 +3.6850541016E-001  +1.5318437847E-001 -1.3620881634E-002 
2200000000.000 +6.3797423542E-002 -1.7530710887E-001  +1.4803543160E-001 +3.9304856223E-001  +3.4180024991E-001 -1.4387291703E-001  -3.7600995333E-002 -2.3021261878E-001 
2400000000.000 +1.3844010297E-002 -1.3686164044E-001  +7.3081761489E-002 -4.1555245799E-001  -3.8488923967E-001 -3.9554965484E-002  -1.2848135050E-001 +9.8726129452E-003 
2600000000.000 +6.7163167818E-002 +5.2806288798E-002  -6.9151206296E-001 -3.0834865557E-001  -3.1922058730E-001 +4.1300435158E-001  +1.7706291251E-003 -3.5467618730E-002 
2800000000.000 +5.2816280853E-002 -1.9614559898E-001  +6.7546335292E-001 -5.5518773920E-001  -6.9715251974E-001 -1.8322448633E-001  -1.1531416699E-001 +8.3631704500E-002 
3000000000.000 +4.2959857264E-002 +3.9266172105E-002  +7.2310227024E-002 +8.7116996931E-001  -1.2136250074E-001 -7.5315113334E-001  +8.3484834800E-003 -2.2513766166E-002 
3200000000.000 -4.2903831006E-002 -1.8291055641E-001  -6.7774141305E-001 -3.3854265653E-001  +5.3317762850E-001 -4.0327940470E-001  +2.1832958705E-002 +1.4479799909E-001 
3400000000.000 +3.1611726430E-001 -2.8205589041E-002  +7.2971293372E-001 -3.3527505808E-001  +5.5437084726E-001 +4.9149614273E-001  -1.8655454003E-001 +1.0877757876E-001 
3600000000.000 +6.5279694789E-002 +4.0636946818E-002  -2.0110472539E-001 +8.1958864907E-001  -2.2400468948E-001 +8.3432955521E-001  -5.1126136322E-002 -6.5339429770E-004 
3800000000.000 -3.7701680996E-001 -8.6668929036E-002  -4.0560389332E-001 -7.6572038919E-001  -8.0306074908E-001 -8.1049522173E-002  +2.3888367427E-001 +1.4161731620E-001 
4000000000.000 +9.3938078133E-002 +1.1225171516E-001  +8.6830708589E-001 +1.3830319906E-001  -2.1475391749E-001 -7.3182806598E-001  -9.5936022697E-002 -3.1736091427E-002 
4200000000.000 +1.3468262866E-001 +1.8555576829E-001  -7.1969194858E-001 +5.1996797573E-001  +7.0499824598E-001 -4.3493771142E-001  -1.9954926750E-001 -1.0464437204E-001 
4400000000.000 -6.6658684320E-002 -7.8693731169E-002  +1.2915946475E-001 -8.4804037451E-001  +6.7943448592E-001 +5.7730115046E-001  +1.3400905220E-001 +2.3492075340E-002 
4600000000.000 -9.6871459131E-003 -1.4511427570E-001  +5.1874688565E-001 +6.6477265967E-001  -4.7971471398E-001 +6.7929120303E-001  +1.0987692996E-001 +1.3970703585E-001 
4800000000.000 -1.1897202698E-001 +1.7047230720E-002  -8.3201193542E-001 -1.6456150912E-001  -7.5035087256E-001 -2.8307746891E-001  +8.2062725531E-002 -2.5302716739E-002 
5000000000.000 -8.9748127406E-002 +1.5009471745E-001  +6.5455734212E-001 -4.2821995978E-001  -2.5375475893E-002 -8.4637014360E-001  -7.9130360437E-002 -1.1727006039E-001 
5200000000.000 +1.3675804269E-002 -2.6330883261E-001  -2.4729582940E-001 +7.4656849335E-001  +8.9780052279E-001 -1.9023910481E-002  +1.7162833672E-001 +2.1816228462E-001 
5400000000.000 -1.5004652687E-001 -4.4804383656E-002  -3.4647595289E-001 -6.8543678683E-001  +1.7236563781E-001 +7.9052485211E-001  -4.6713317653E-002 -1.3530736333E-001 
5600000000.000 +3.0450691719E-003 +9.7132802764E-002  +6.6733232797E-001 +2.5513780361E-001  -6.4357843979E-001 +4.1353012290E-001  -4.5420502553E-002 -1.3653430945E-001 
5800000000.000 +3.2133675938E-002 -3.5285224563E-003  -6.1109913086E-001 +3.0779175912E-001  -5.1329666943E-001 -5.8744711989E-001  +5.1800037851E-002 +1.9734436527E-002 
6000000000.000 +1.4829024306E-001 -1.2098369393E-001  +2.4716229332E-001 -5.8761646185E-001  +5.3237151507E-001 -5.1657481148E-001  +2.4219462209E-002 +1.5011638954E-001 
6200000000.000 +5.3329813106E-002 -8.8897387169E-002  +1.6099751208E-001 +6.1566332268E-001  +5.2446957869E-001 +4.5717346184E-001  +1.6037222674E-001 +7.2238581176E-002 
6400000000.000 -2.3166270810E-001 +2.8113477288E-002  -5.6852483484E-001 -2.0979533126E-001  -1.6581240278E-001 +6.4269886633E-001  -8.1088396812E-002 -2.6546223753E-001 
6600000000.000 +1.7267590891E-001 -3.9134109281E-003  +6.2104552183E-001 -7.5944651573E-002  -6.4252062163E-001 -2.1883378647E-001  +1.5496479460E-001 +1.2224293185E-001 
6800000000.000 -5.5285826932E-002 +9.0368036149E-002  -4.1838087878E-001 +4.5535500126E-001  +1.1678788773E-001 -6.6393350634E-001  -1.0582517245E-001 +1.0363547972E-001 
7000000000.000 -6.0410992231E-002 -4.1486044280E-002  -4.0633124610E-002 -6.0643437964E-001  +5.9714965869E-001 -1.3195199824E-001  -3.3903649881E-002 -7.1284548239E-002 
7200000000.000 -5.3287806322E-004 -8.0902222210E-002  +3.8780135058E-001 +4.4656284127E-001  +2.0971461685E-001 +5.2961680486E-001  +1.5648029990E-001 -7.6586795085E-003 
7400000000.000 +2.8211514822E-002 +6.5977976293E-002  -5.5573562596E-001 -1.1825643247E-001  -5.3395054202E-001 +2.4238079676E-001  -2.0653464860E-001 +8.4570443725E-002 
7600000000.000 +2.1562619821E-001 -1.5433939912E-002  +4.9887785246E-001 -2.8962722837E-001  -3.1333425678E-001 -4.6490345778E-001  +1.9086240099E-001 +1.9008336431E-002 
7800000000.000 -1.2320368269E-001 -1.7790854235E-001  -1.6020968857E-001 +5.0635934438E-001  +3.1358332146E-001 -3.6301195848E-001  +3.7686385399E-002 -1.0889329191E-001 
8000000000.000 +1.2757370080E-001 +1.4196470127E-002  -1.6635283872E-001 -5.0751597484E-001  +4.0051852064E-001 +3.2883511864E-001  +1.9323696540E-002 -2.6581169008E-002 
8200000000.000 -1.8792745494E-001 +1.3978255737E-001  +4.3407496470E-001 +2.1859496235E-001  -2.3228393462E-001 +4.1715460912E-001  -1.1545693164E-001 +4.6385572474E-002 
8400000000.000 +3.5800027646E-002 +1.1021437119E-002  -4.5923163745E-001 +2.1914696218E-002  -4.2567185239E-001 -1.4779065708E-001  +2.0291937399E-002 +2.5843354558E-002 
8600000000.000 +1.4252555385E-001 +2.4352805683E-002  +2.4393394713E-001 -3.2605616990E-001  +7.2477889630E-002 -3.9425259060E-001  +1.9898589815E-001 +2.7897634822E-002 
8800000000.000 -1.2315393293E-001 -2.7521589649E-002  +2.7858581339E-002 +4.0671533236E-001  +4.0968340794E-001 -4.2495973035E-002  -1.7318822116E-001 +7.4710126192E-002 
9000000000.000 +2.6176642663E-002 -3.4513760355E-002  -2.5215656460E-001 -2.7166329006E-001  +7.1462278826E-002 +3.8125162670E-001  -2.2809802519E-002 -7.9957590119E-002 
9200000000.000 +1.0361388366E-002 +9.5316367028E-003  +3.7716456317E-001 +4.4911385175E-002  -3.5933481402E-001 +1.0535406697E-001  +5.8208878120E-002 +8.9532649875E-002 
9400000000.000 +9.7279971365E-002 -6.4440342023E-003  -2.7280960699E-001 +2.3003099514E-001  -1.9665118561E-001 -2.9605543827E-001  -3.3350030322E-002 -6.0908965315E-002 
9600000000.000 -7.5908405269E-002 -1.2501312098E-001  +6.8368560999E-002 -3.3575368025E-001  +2.7314057422E-001 -2.1508168608E-001  -9.3268024940E-002 -4.1171821047E-002 
9800000000.000 +4.8427539833E-002 -3.1483489527E-003  +1.5888843993E-001 +2.9293037023E-001  +2.6112633238E-001 +2.2967775581E-001  -2.2282810659E-002 -4.0164895088E-003 
10000000000.000 -6.2294261385E-002 +1.0490534209E-001  -2.9598322967E-001 -1.1365022644E-001  -2.5105684370E-001 +2.0175168226E-001  +3.9930158239E-002 +5.8982919456E-002 
10200000000.000 +5.6051481716E-003 +5.5080963231E-002  +3.1011581147E-001 -6.3503449404E-002  -3.0577927007E-001 -6.0770531605E-002  +3.5216852438E-002 -9.5659941843E-002 
10400000000.000 +1.4870199860E-001 +2.2543726608E-002  -1.8168432772E-001 +2.2625289794E-001  +7.6614067438E-002 -3.0604038546E-001  -4.9963274601E-002 -1.0001538777E-001 
10600000000.000 -9.0073044230E-003 -2.9381193894E-002  -1.6981844055E-002 -2.9695224545E-001  +2.8320150522E-001 +1.0291051097E-001  -3.2911099554E-002 +1.0636872627E-001 
10800000000.000 -6.7999948310E-002 +2.1200661731E-002  +1.6214825484E-001 +2.2863964820E-001  +3.3211472528E-005 +2.9178855753E-001  +2.0024910041E-002 -4.4540830573E-002 
11000000000.000 +9.3090025687E-002 +9.3061749329E-004  -2.7205487422E-001 -9.0815928883E-002  -2.8675724350E-001 +8.7333580110E-002  +5.8455727717E-002 +1.3537094291E-002 
11200000000.000 -3.3658314702E-002 +8.8369216759E-002  +2.4713235547E-001 -1.0285094093E-001  -1.1457440368E-001 -2.7018594107E-001  -9.6211880915E-002 -4.4219262306E-002 
11400000000.000 -1.8967854692E-002 -6.0651960435E-002  -1.3353870246E-001 +2.2678345603E-001  +2.5591879729E-001 -1.4355102562E-001  +2.7564561437E-002 -2.3191649481E-003 
11600000000.000 -1.5698380573E-002 -2.1943144139E-002  -8.1880069461E-002 -2.3341304666E-001  +1.6098255452E-001 +2.1444744647E-001  +1.4325810890E-002 +1.2079739471E-001 
11800000000.000 -9.1086416602E-002 +1.0090365406E-001  +2.2058597445E-001 +1.1113370192E-001  -1.8447104284E-001 +1.9827831204E-001  -1.2586129433E-002 -1.8173173159E-001 
12000000000.000 +1.5796813478E-001 -6.0465477720E-003  -2.3169149486E-001 +1.1119686355E-002  -1.8285548601E-001 -1.7894441210E-001  -5.2826776489E-002 +1.3759406237E-002 
12200000000.000 +1.2412948001E-003 -6.1166853203E-002  +1.8899224996E-001 -1.2438617324E-001  +1.6581059921E-001 -1.8752555808E-001  -7.0990250549E-002 +5.3392679477E-002 
12400000000.000 +2.8056303741E-002 +3.9244118031E-002  -8.9194693667E-002 +2.1021350541E-001  +2.0015145332E-001 +1.5255358381E-001  +4.7494096489E-002 -4.1009868670E-002 
12600000000.000 -3.0789981980E-003 +2.4156136740E-002  -1.1763290950E-001 -1.9082900634E-001  -9.9525323136E-002 +2.3187415846E-001  -4.0768993415E-002 +3.6281726314E-002 
12800000000.000 +6.7459793985E-003 +5.2100817442E-002  +2.1205828622E-001 +3.9085965733E-002  -2.4767858613E-001 -1.2897350370E-002  +1.4967783483E-002 -1.1578557423E-001 
13000000000.000 +7.6503226198E-002 +3.1766477771E-002  -1.8628400824E-001 +9.2320808430E-002  -1.7606277332E-002 -2.3545455354E-001  -6.5937542919E-002 +1.1229182235E-001 
13200000000.000 -1.4150853845E-001 -1.2123251929E-001  +1.5334118591E-001 -1.4487221157E-001  +2.1528256181E-001 +4.2830536207E-002  +5.9603298344E-002 -9.5439511213E-002 
13400000000.000 -1.7672337214E-002 +1.3521283675E-001  -7.3787377865E-002 +1.8145214904E-001  -4.8691120499E-002 +2.1898698772E-001  +4.0771977034E-002 -7.7945006619E-002 
13600000000.000 -3.4419031614E-002 +7.6124554858E-003  -9.4929700805E-002 -1.8643197240E-001  -2.4041112223E-001 +1.3456934256E-002  -9.6745087684E-002 -8.2040806593E-003 
13800000000.000 +3.9504936480E-002 -4.7066744083E-002  +1.9962018187E-001 +6.7592135373E-002  -1.2005161377E-001 -1.9080504824E-001  +4.7540441109E-002 -3.7442388184E-002 
14000000000.000 +1.0455952097E-002 +1.2221678433E-002  -1.8002215341E-001 +8.8561882759E-002  +1.5109660908E-001 -1.4854464126E-001  +4.1906102014E-002 +3.5558075104E-002 
14200000000.000 -1.4914573355E-001 -8.6089092260E-003  +1.0044416251E-001 -1.6555731056E-001  +1.6159739968E-001 +1.1835750440E-001  +2.8602289656E-002 -1.3146807926E-001 
14400000000.000 +6.4273894684E-002 +2.4170012527E-002  +1.1112722601E-002 +1.9287740467E-001  -1.5124588850E-001 +1.4460285055E-001  -2.5121727147E-002 +3.1678124606E-002 
14600000000.000 +1.2277796647E-002 -1.4523433022E-002  -1.3751459674E-001 -1.3706771420E-001  -1.4162630532E-001 -1.3525937013E-001  +2.2133741499E-002 -1.3594397968E-002 
14800000000.000 -6.5637307875E-002 -2.2273959813E-002  +1.9027664650E-001 +8.3507458426E-003  +8.3011509931E-002 -1.7327487744E-001  +4.4779322873E-002 +5.1699648066E-003 
15000000000.000 +5.4171810369E-003 -7.0519165959E-002  -1.4273516964E-001 +1.2923455588E-001  +1.8402089071E-001 +5.4120215816E-002  +3.2489820617E-003 -7.2024718293E-002 
15200000000.000 -1.4652500162E-002 +1.0779465657E-001  +3.7793465593E-002 -1.9298867998E-001  -3.7647007634E-002 +1.8114767384E-001  -2.3794572707E-002 +2.7498025305E-002 
15400000000.000 +4.6070280502E-002 -3.9504525264E-002  +1.1547854219E-001 +1.5830042190E-001  -1.8238637906E-001 -2.4200970944E-002  +2.6445186658E-002 +4.4508752893E-002 
15600000000.000 -2.8936451317E-003 -7.1488955968E-002  -1.8583714460E-001 -6.6113417170E-002  -3.5826827471E-002 -1.7909471477E-001  +2.8993195274E-002 -1.0510916439E-001 
15800000000.000 -1.0767029382E-002 +3.9938961514E-002  +2.0554849195E-001 -3.3401659444E-002  +1.7842973455E-001 -5.0017197543E-002  +4.1624165493E-002 +7.0264412049E-002 
16000000000.000 -1.1292670310E-002 -6.1148646955E-002  -1.2099298930E-001 +1.5911427924E-001  +2.5357289029E-002 +1.8049651021E-001  -1.5983586292E-002 -9.7911348766E-002 
16200000000.000 -1.0327883815E-002 +5.0303000062E-002  -5.7334943252E-004 -1.9618967845E-001  -1.6024495873E-001 +5.5843795923E-002  -1.7654419328E-002 +5.3202300567E-002 
16400000000.000 +5.9426193216E-002 -4.0924819656E-003  +1.3465485779E-001 +1.3067779841E-001  -7.9566609465E-002 -1.4479980626E-001  +5.8582133000E-002 -2.0478674130E-002 
16600000000.000 -5.4546018618E-002 -4.8963197402E-002  -1.7835250709E-001 -4.4393006472E-002  +1.2308992281E-001 -1.1627765359E-001  -1.1433900368E-002 -1.5411404162E-002 
16800000000.000 +3.9430618117E-002 +3.9079910721E-002  +1.7844055038E-001 -5.0763808696E-002  +1.2748637298E-001 +1.0072522369E-001  +1.2063372278E-002 +5.1027137884E-002 
17000000000.000 +2.8323386486E-002 +7.8073079171E-003  -1.0709688911E-001 +1.4119437717E-001  -9.5870827607E-002 +1.2108698928E-001  +6.3483156822E-002 -9.7475037289E-002 
17200000000.000 +5.0906006554E-003 -1.4688561208E-002  -5.6117000177E-002 -1.6684890088E-001  -1.3444978218E-001 -7.7535855767E-002  -2.7924306279E-003 +1.0283372338E-001 
17400000000.000 +2.7988428261E-002 +1.1531185347E-002  +1.5221178166E-001 +6.1753415515E-002  +3.7228417563E-002 -1.4255163802E-001  -3.3592006536E-002 -9.0833788588E-002 
17600000000.000 -8.8562224976E-003 -5.4918075507E-002  -1.4162400025E-001 +3.6104699756E-002  +1.2878337643E-001 +4.3450004557E-003  +1.0282109242E-001 -1.6181922993E-002 
17800000000.000 +1.8388516288E-002 +1.0324470050E-001  +1.1262177711E-001 -1.1152411493E-001  +1.6491221186E-002 +1.3948084256E-001  +1.5634526220E-002 +8.7131757188E-002 
18000000000.000 +3.7966280601E-002 -7.4040108322E-004  -1.4682220240E-002 +1.5788019620E-001  -1.3615535131E-001 +2.9973677037E-002  -1.0917800322E-002 -1.1838027487E-001 
18200000000.000 +1.2710953694E-002 -6.0211850787E-002  -9.1096238915E-002 -1.2125264686E-001  -5.2983350854E-002 -1.2114617783E-001  +4.1731490754E-002 +7.8070388848E-002 
18400000000.000 -1.5149036360E-002 +1.3573454753E-001  +1.2739647234E-001 +5.1037209541E-002  +1.1227297934E-001 -4.0515864663E-002  +6.7985125787E-002 +5.8735918894E-002 
18600000000.000 -3.0332458809E-002 -3.7038749083E-002  -1.2667545542E-001 +9.8833907640E-002  +7.2773037912E-002 +1.1106904425E-001  -3.4270334993E-002 -3.4808951120E-002 
18800000000.000 -1.0220575827E-002 +6.4025283629E-002  +4.4679158322E-002 -1.4255484304E-001  -9.3040358955E-002 +1.0393072927E-001  +6.0352119654E-002 -4.1352216533E-003 
19000000000.000 +3.6564900622E-002 +2.7334260100E-002  +5.4761194240E-002 +1.2762840407E-001  -1.0225336879E-001 -6.3388911941E-002  +1.6076025352E-002 +3.6442230050E-003 
19200000000.000 -1.0607022304E-001 -9.9002323087E-002  -9.9972858169E-002 -9.9969129658E-002  +8.5657824035E-002 -8.5515342200E-002  -3.3899735047E-002 +1.0008145539E-001 
19400000000.000 +1.3223923552E-002 +1.1413496390E-001  +1.4730756459E-001 -7.1039766281E-003  +1.1425884103E-001 +5.0845433734E-002  +1.1325488405E-001 -4.5111390122E-002 
19600000000.000 -4.9958498257E-003 -3.1041405692E-002  -1.0871576258E-001 +1.1181601733E-001  -2.6945686843E-002 +1.3401245623E-001  -5.9333973140E-002 +4.0539591632E-002 
19800000000.000 -8.0293944549E-003 -1.9049326848E-002  +1.4329747351E-002 -1.4721999961E-001  -1.2904122260E-001 -3.5990227903E-002  +4.5790613881E-002 +7.2752078972E-003 
20000000000.000 -1.5625205367E-002 -8.7494659100E-003  +9.1559172848E-002 +1.1883663592E-001  +6.0989857793E-002 -1.1943951332E-001  -1.4173739564E-003 +4.4246665257E-002 
20200000000.000 -1.3879318871E-002 -7.0873968875E-002  -1.3122861970E-001 -6.2358738598E-002  +1.1136101711E-001 -7.5067135465E-002  -3.3625823993E-003 -2.7496703366E-002 
20400000000.000 -3.6690852935E-002 +6.8056884606E-002  +1.2920611317E-001 -2.5729638348E-002  +7.9836339513E-002 +9.2389090435E-002  +5.8950786582E-002 -4.6331651812E-002 
20600000000.000 +2.0409749646E-002 -3.0514611795E-002  -9.3244717725E-002 +1.0581387128E-001  -9.6540070479E-002 +8.5884785766E-002  -3.9619175487E-003 +1.0188122579E-001 
20800000000.000 +4.1283220197E-002 -3.0415788203E-002  +2.8086640102E-004 -1.4301220243E-001  -8.1026122594E-002 -1.0100818249E-001  +3.1425342736E-003 -6.5082763822E-002 
21000000000.000 -7.8615339260E-002 -4.2436872009E-002  +9.0408849704E-002 +6.4458451197E-002  +8.8263022459E-002 -5.5346094747E-002  +9.2766641012E-002 -3.7583346053E-002 
21200000000.000 +3.6680912756E-002 +1.9669151518E-002  -1.2767892506E-001 -1.5241860477E-002  +5.3968936765E-002 +1.0055948129E-001  -7.7311772775E-002 +4.8922183560E-002 
21400000000.000 +5.5796903019E-003 -5.7639354828E-002  +1.0143647392E-001 -7.9705791788E-002  -7.3611538466E-002 +8.7801753761E-002  +1.0936288048E-001 +4.4251335593E-006 
21600000000.000 +1.1470397944E-002 +2.3557149561E-002  -3.5277381374E-002 +1.2926221537E-001  -1.1276728641E-001 -2.5594894150E-002  -9.4771551037E-003 +8.3007341166E-003 
21800000000.000 -9.5449362071E-003 -4.8169179284E-002  -1.6422112618E-002 -1.0295988557E-001  -1.8662939594E-003 -9.3564238383E-002  +2.5343030628E-002 -3.8672365856E-002 
22000000000.000 +1.4384118417E-002 -3.3629167240E-002  +9.1028207784E-002 +8.7162749615E-002  +1.0718999555E-001 -1.0467239635E-002  +3.4058927161E-002 +4.0335796006E-002 
22200000000.000 +7.9359752225E-002 +1.0147743316E-001  -1.2051625688E-001 -8.1990389606E-003  +1.8366368529E-002 +1.0245904079E-001  -8.3970532152E-003 +4.9130142781E-002 
22400000000.000 -2.0282752265E-002 -1.1804827093E-001  +8.9523174699E-002 -6.7344260858E-002  -8.7561355742E-002 +3.9183550004E-002  +1.3462310484E-001 -7.2564242039E-002 
22600000000.000 +3.2143044305E-002 +3.8278993725E-002  -5.0951656973E-002 +1.0533449026E-001  -4.2884022217E-002 -8.7338904183E-002  -8.9416578861E-002 +5.8061877000E-002 
