!  2-Port S-parameters saved by WinCal
! VAR NAME=RAW_LRRM_line_0mm_2
! VAR DATE=08/08/2022 22:09:24
! VAR FILENAME=RAW_LRRM_line_0mm_2.S2P
! VAR MeasName=S-Parameters (CALIBRATED_DATA) read from VNA (MS4647B)
! VAR MeasDate=26-Apr-22 15:42:36
! VAR PHYS_PORTS=1,2
! VAR ObjTypeName=DATASET
! VAR IndexType=Frequency
! VAR ChuckHeaterState=Unknown
! VAR ChuckTemp=NaN
! VAR ChuckTempUnits=Unknown
!
# Hz S RI R 50
200000000.000 -1.6451092596E-002 -8.6412425499E-002  -2.3120242698E-001 -6.8978793379E-001  -3.5271276027E-001 -6.5086746244E-001  +2.0943666212E-002 -6.1201171290E-002 
400000000.000 +1.1659351388E-001 -9.1727104609E-002  -4.5169401061E-001 +5.1202004821E-001  -2.8854247865E-001 +6.3276370485E-001  -1.3154773363E-001 +9.5035555569E-004 
600000000.000 +5.8131332159E-002 -6.5666310292E-002  +5.5973905729E-001 +2.5007947306E-001  +5.8597679158E-001 -1.6206308998E-001  -4.4156634728E-002 +5.0004052231E-002 
800000000.000 +8.6424492160E-002 -2.2180396224E-001  -1.5840875819E-001 -6.4134923414E-001  -5.4670728237E-001 -3.4325765248E-001  +1.7570291383E-001 +7.0725119138E-002 
1000000000.000 +1.0046041423E-001 -1.9285325083E-001  -3.1665147643E-001 +6.3042303032E-001  +2.5036783996E-001 +6.2558445684E-001  +1.8386429857E-001 -5.9627272989E-002 
1200000000.000 +9.3664138004E-002 -2.4479939563E-001  +7.2619548288E-001 -7.3584432442E-002  +2.8052131753E-001 -6.1984065391E-001  -1.2539151933E-001 -1.5189198554E-001 
1400000000.000 +1.0261914155E-001 -1.8758014301E-001  -5.3070440601E-001 -5.0214565727E-001  -6.2186396117E-001 +2.5858623396E-001  -3.7777829989E-002 -5.4533905060E-002 
1600000000.000 +1.3382109216E-001 +1.4254830488E-001  -3.5657444863E-002 +6.2584734304E-001  +5.0474280605E-001 +2.1893323343E-001  -1.5913944290E-001 -6.4723445650E-002 
1800000000.000 +9.8201041043E-002 -1.5216088537E-002  +4.5443786510E-001 -2.6767509472E-001  -1.6487574918E-001 -4.2945935071E-001  +4.6180431319E-002 +1.1462815895E-001 
2000000000.000 +8.5708175338E-002 +3.3323026180E-002  -4.2187861314E-001 -1.7297612414E-001  -1.7699142675E-001 +3.4126895968E-001  +1.3828498541E-001 -1.9165757719E-002 
2200000000.000 +1.0497908238E-001 -1.8459489077E-001  +5.7501784823E-002 +4.0837648505E-001  +3.5945780234E-001 -6.4673852315E-002  -1.5904647953E-002 -2.5427318988E-001 
2400000000.000 -1.9020020555E-002 -1.2283138320E-001  +1.6766442556E-001 -3.9404832102E-001  -3.7034005947E-001 -1.2865250381E-001  -1.1540937692E-001 +3.8970716987E-002 
2600000000.000 +5.9078673240E-002 +7.3360159539E-002  -5.9443704739E-001 -4.6806348071E-001  -4.0904732679E-001 +3.2180894422E-001  +1.1406015435E-002 -4.1490399380E-002 
2800000000.000 +4.6349219907E-002 -2.2093054029E-001  +7.9633643550E-001 -3.5487373577E-001  -6.2025798771E-001 -3.6161091082E-001  -1.2342544556E-001 +1.0144280267E-001 
3000000000.000 +1.1619460804E-001 +7.0778839274E-002  -1.8086594734E-001 +8.4229142757E-001  +1.0022147736E-001 -7.4527545067E-001  -4.4456479759E-002 -6.0095170011E-002 
3200000000.000 +2.5792513454E-002 -5.0234155187E-002  -5.5017298542E-001 -5.6510217340E-001  +6.5824848935E-001 -2.1471502297E-001  -2.4084304530E-002 +5.3194652070E-002 
3400000000.000 +2.9182956865E-001 +4.9358269708E-002  +7.9450683350E-001 -9.4886247176E-002  +3.7317164180E-001 +6.3701772073E-001  -1.9454478929E-001 +5.9269528675E-002 
3600000000.000 +7.0613131732E-002 -6.8538217636E-003  -4.6898097231E-001 +7.0073868260E-001  -4.9259200829E-001 +7.0395375274E-001  -1.0627266726E-001 +3.6176467451E-002 
3800000000.000 -3.3607857523E-001 -1.5540961095E-001  -1.1617046782E-001 -8.6085298125E-001  -7.2719151187E-001 -3.5805811586E-001  +1.9242842773E-001 +1.3649097153E-001 
4000000000.000 +5.1006834562E-002 +1.2778960108E-001  +7.5322220718E-001 +4.5453127179E-001  +7.6048215412E-002 -7.5828326435E-001  -6.1768422509E-002 -7.2825620111E-002 
4200000000.000 +4.4828565880E-002 +1.3701483371E-001  -8.7490528876E-001 +2.0243343862E-001  +8.2857274336E-001 -1.3054353655E-001  -1.2507316682E-001 -9.9105099279E-002 
4400000000.000 -4.5458845938E-002 -8.1123586764E-002  +4.6408833953E-001 -7.2157732445E-001  +3.8733009075E-001 +8.0229286977E-001  +1.0940384986E-001 +6.2903831973E-002 
4600000000.000 +2.9632688636E-002 -8.0888355098E-002  +1.9282658079E-001 +8.2567853513E-001  -7.1943486055E-001 +4.1896570802E-001  +3.4815624339E-002 +1.3641401637E-001 
4800000000.000 -8.9767566444E-002 -2.6370625176E-002  -6.7582703108E-001 -5.1229964811E-001  -5.5091131895E-001 -5.8230090937E-001  +5.7245161962E-002 +2.8358303786E-002 
5000000000.000 +6.0483683032E-003 +2.6767963859E-002  +7.9461290423E-001 -6.9055591817E-002  +3.8475892764E-001 -7.6605457255E-001  -9.0455693554E-002 -1.5671533917E-002 
5200000000.000 +1.2462202732E-001 -2.9331680094E-001  -5.6749517010E-001 +5.4246675861E-001  +8.0191390068E-001 +4.0477838520E-001  +1.3793358106E-001 +2.2357040948E-001 
5400000000.000 -1.3590332096E-001 -9.2173225373E-002  +3.4908591215E-002 -7.6147084022E-001  -2.3499710139E-001 +7.6341575266E-001  +4.9534460117E-002 -1.7407852518E-001 
5600000000.000 +8.5191549859E-003 +8.0131421013E-002  +4.4540059931E-001 +5.6036662934E-001  -7.6641058178E-001 +2.8442082939E-002  +5.0552113713E-002 -9.8700638105E-002 
5800000000.000 +5.6820827591E-002 +1.0207791972E-001  -6.8599302415E-001 -7.2662136538E-002  -1.1114761364E-001 -7.8217331765E-001  -4.5931854697E-002 +1.1587551160E-001 
6000000000.000 +1.4475526153E-001 -3.1311097790E-002  +5.1906365005E-001 -3.6801838497E-001  +7.2547121045E-001 -1.6168580910E-001  -7.3125265762E-002 +1.3870998766E-001 
6200000000.000 +1.0505472872E-001 -6.9388149492E-002  -2.0622628084E-001 +5.9949981894E-001  +1.8153919827E-001 +6.6802211776E-001  +1.6760561550E-001 +1.1117232921E-001 
6400000000.000 -1.3354983152E-001 +3.2391508841E-002  -3.4893763416E-001 -5.1554254138E-001  -5.2305912093E-001 +4.4145946719E-001  -6.5439073942E-002 -1.2243762191E-001 
6600000000.000 +1.7766431957E-001 +1.6525831579E-002  +5.4818701064E-001 +3.0201307626E-001  -3.9534486451E-001 -5.5085886273E-001  +7.9103737954E-002 +1.8712222452E-001 
6800000000.000 -7.6735616709E-002 +7.7274504290E-003  -6.1533130340E-001 +1.1083979510E-001  +4.9748772054E-001 -4.6702136350E-001  -9.3213916824E-002 +3.3709534053E-002 
7000000000.000 -3.8278477333E-002 -8.7573318308E-002  +3.4037790269E-001 -5.0061314500E-001  +5.4832164084E-001 +2.5961637869E-001  -7.6833000420E-003 -1.2509463287E-001 
7200000000.000 -7.2746481055E-003 +1.9813652277E-002  +1.1512526542E-002 +6.0026289480E-001  -1.7739725085E-001 +5.4872092971E-001  +1.0117162636E-001 -5.5358883861E-003 
7400000000.000 -3.0785716721E-002 +1.5257703577E-001  -3.4508999659E-001 -4.4363822717E-001  -5.5491761069E-001 -1.5530636952E-001  -2.6747359571E-001 +7.8584264738E-002 
7600000000.000 +2.4694689936E-001 +7.4125775422E-002  +5.5581974445E-001 +1.1205175276E-001  +7.1437862975E-002 -5.4873255078E-001  +1.9474888211E-001 +9.1121557976E-002 
7800000000.000 -8.2424557509E-002 -6.6589055482E-002  -4.7034243333E-001 +2.7874807875E-001  +4.8768095348E-001 -6.5085036869E-002  +3.0486343908E-002 -2.5721376330E-002 
8000000000.000 +8.5411913801E-002 +3.4302332277E-002  +2.3015731499E-001 -4.8195546682E-001  +6.2866681733E-002 +5.1366569266E-001  +3.1953199713E-002 -1.5928425239E-002 
8200000000.000 -1.9868686472E-001 +6.3686603189E-002  +1.6189695865E-001 +4.6335753845E-001  -4.5945048401E-001 +1.3968533313E-001  -7.4568518460E-002 +1.1392368099E-002 
8400000000.000 +2.7611500237E-002 -3.7734853182E-002  -3.3649760568E-001 -3.1248473062E-001  -1.9306882368E-001 -4.0677102067E-001  -1.8016579883E-003 +3.7379476005E-002 
8600000000.000 +8.5849993465E-002 -1.3563241114E-002  +4.1570234405E-001 -3.8007298172E-002  +3.4732927760E-001 -2.1700818919E-001  +9.0084246562E-002 +6.3392858619E-003 
8800000000.000 -1.4305789802E-001 -5.3723101875E-002  -2.7923069547E-001 +2.9373999997E-001  +3.0656230897E-001 +2.7016458435E-001  -2.2398202822E-001 +2.4322803993E-002 
9000000000.000 +6.5162005883E-002 +3.6205266414E-002  +3.8393637010E-002 -3.7706237942E-001  -2.4341935971E-001 +3.1141544881E-001  +3.2117029134E-002 -7.1111812534E-002 
9200000000.000 +2.7256828359E-002 +1.1244982747E-001  +2.0132933171E-001 +3.0848995683E-001  -3.0153473793E-001 -2.0241731454E-001  +9.7366640762E-002 +1.3379004992E-001 
9400000000.000 +1.0763008412E-001 +2.9385165556E-002  -3.4922093040E-001 -6.7176657415E-002  +1.0464127306E-001 -3.3765907839E-001  -1.0321480638E-002 -8.9248906346E-002 
9600000000.000 -3.4110387315E-002 -9.7832443618E-002  +3.1184300700E-001 -1.5777164317E-001  +3.4390127443E-001 +8.1981233117E-002  -2.2261138091E-002 -9.4916642851E-002 
9800000000.000 +1.2732035402E-002 +2.7983135310E-002  -1.3622653915E-001 +3.0471371882E-001  -2.3840848762E-002 +3.4718852364E-001  +3.2404429140E-002 +1.9198060014E-002 
10000000000.000 -1.2037956172E-001 +4.9960474913E-002  -8.1921203107E-002 -2.9791846228E-001  -3.0321606091E-001 -8.0203745094E-002  +1.0909928699E-002 +1.1481603193E-001 
10200000000.000 -3.2103958266E-002 +1.2573091526E-002  +2.3240042787E-001 +2.2348547640E-001  -1.2629810348E-001 -2.9090357629E-001  +4.2043507554E-002 -4.8209006834E-002 
10400000000.000 +8.5521697718E-002 +4.6346217792E-002  -2.9623173828E-001 -2.8195872119E-002  +3.0527193279E-001 -1.0743624538E-001  -1.7708581731E-003 -6.3283604392E-002 
10600000000.000 -7.9625900839E-002 -3.2649596039E-002  +2.3846672449E-001 -1.6856874864E-001  +6.1923762568E-002 +2.8896019502E-001  -1.5171437078E-002 +1.4337844846E-001 
10800000000.000 -7.1105245280E-002 +2.3093666600E-002  -1.1277287475E-001 +2.5719988184E-001  -2.4949148865E-001 +1.5096293243E-001  +1.5674463024E-002 -5.8686070161E-002 
11000000000.000 +9.2612018727E-002 +1.8411555287E-002  -5.7678983160E-002 -2.8023107206E-001  -2.1870810440E-001 -2.0327777001E-001  +6.2964938580E-002 -3.0687704351E-002 
11200000000.000 -3.3797620908E-002 +4.3444182884E-002  +2.0927037251E-001 +1.6797847435E-001  +1.8175195553E-001 -2.3145564758E-001  -1.0323138143E-001 -3.8867743297E-002 
11400000000.000 +3.1137068775E-002 -1.3032751646E-001  -2.6114808044E-001 -1.0451976293E-002  +2.4618518889E-001 +1.5571567308E-001  +8.9181199280E-003 +2.4797724268E-003 
11600000000.000 +1.6559778734E-002 -3.5286946232E-002  +1.6942739878E-001 -1.7873652103E-001  -1.1647010134E-001 +2.4015059087E-001  +5.0362839071E-002 +1.2101411178E-001 
11800000000.000 -1.2198004002E-001 +1.0877940861E-001  -2.3969997008E-004 +2.4358717099E-001  -2.5662217941E-001 -7.4968919151E-002  +7.2051937667E-002 -1.5563617779E-001 
12000000000.000 +1.2380608184E-001 -6.1189415572E-003  -1.0591696886E-001 -2.1021381415E-001  +8.9818503119E-002 -2.4368619497E-001  -1.8226303469E-002 +5.1861587828E-002 
12200000000.000 -4.9337388595E-002 -1.7108533088E-002  +1.9300400080E-001 +1.2843178823E-001  +2.4371868235E-001 +8.0387312591E-002  -4.8040749228E-002 +2.3128014301E-002 
12400000000.000 -5.8593029849E-002 +4.9986872033E-002  -2.2023006033E-001 +2.2821622453E-003  -5.6773679792E-002 +2.3603948773E-001  +9.6103429065E-002 -5.2760970480E-002 
12600000000.000 -5.3775217522E-002 -2.3659232412E-002  +1.3389416983E-001 -1.7411971008E-001  -2.4738472930E-001 -9.5054144336E-003  -3.9893741886E-002 +6.8342944902E-002 
12800000000.000 +2.0361715845E-002 -1.4839227143E-002  +3.3424517062E-002 +2.1512789268E-001  -7.1057864151E-002 -2.4025548974E-001  -7.1294687583E-004 -9.6442948857E-002 
13000000000.000 +7.8619035410E-002 -1.9780497663E-002  -1.4683538529E-001 -1.5262033723E-001  +2.2294052873E-001 -9.0062395652E-002  -1.1620010563E-002 +1.1691442967E-001 
13200000000.000 -1.1022525148E-001 -1.9895118071E-001  +1.7559307701E-001 +8.1542415736E-002  +3.7694690634E-002 +1.9777457266E-001  +1.2218217962E-001 -1.1063185831E-002 
13400000000.000 +4.2658264643E-002 +1.0088078547E-001  -2.0287318312E-001 -3.0489266684E-002  -2.3427626675E-001 +5.7143981216E-003  +2.4182173117E-002 +1.1689964918E-002 
13600000000.000 -3.1890705996E-002 +9.8927173475E-003  +1.5365782800E-001 -1.4227562504E-001  -7.9118124278E-002 -2.2767757264E-001  -8.5428861018E-002 +1.9024042755E-002 
13800000000.000 +7.6579566448E-003 -6.5132543436E-002  -1.3141643149E-002 +2.0696190585E-001  +1.4971321414E-001 -1.6340518497E-001  +7.7133196987E-002 +1.2732034069E-003 
14000000000.000 +4.7041537413E-002 -1.0377715009E-002  -1.2124214778E-001 -1.4962684852E-001  +1.7122337900E-001 +1.0897203725E-001  +1.2970118871E-002 +1.1272882266E-001 
14200000000.000 -9.4479158424E-002 +2.1072197767E-002  +1.9256737776E-001 +7.3387717074E-002  -9.1829486686E-002 +1.9156363300E-001  -4.7886518271E-002 -8.5309293999E-002 
14400000000.000 +9.4572024487E-002 +3.5244670607E-002  -1.8629268268E-001 +4.6585390733E-002  -1.6947936600E-001 -1.2017520177E-001  -5.1569029833E-002 +5.3171829443E-002 
14600000000.000 +6.9982237594E-002 -2.9707296999E-002  +1.0354964336E-001 -1.5268298649E-001  +1.0056314657E-001 -1.5562781772E-001  +8.6370407852E-003 +5.1158923624E-002 
14800000000.000 -1.2528328317E-002 +5.9807734582E-003  +1.8276942204E-002 +1.9698284076E-001  +1.8946983473E-001 +6.0319000459E-002  +2.0948551962E-002 +5.0894637171E-002 
15000000000.000 -6.9854710748E-003 -4.8271533977E-002  -1.4890071598E-001 -1.2449295967E-001  -2.7538215061E-002 +1.9105709807E-001  -7.7927118285E-003 -8.2608296463E-002 
15200000000.000 -3.5343996473E-002 +1.0034488185E-001  +1.9638668887E-001 +1.4892998770E-002  -1.8468894586E-001 -1.5342905247E-002  -2.5194897506E-002 +3.8660733956E-002 
15400000000.000 +4.0521023497E-002 -9.4821243995E-003  -1.4213067559E-001 +1.2847441863E-001  +4.9166326920E-003 -1.7989256387E-001  -1.5079032488E-002 +8.3828034712E-002 
15600000000.000 -2.4274911925E-002 -4.0861920282E-002  +5.3058922209E-002 -1.9689313230E-001  +1.8167964335E-001 -5.1650410174E-002  -2.7684528333E-002 -8.6680192748E-002 
15800000000.000 -3.6923077843E-003 +4.6663652022E-002  +4.6706858059E-002 +2.0434056580E-001  +6.2529701754E-002 +1.7569228603E-001  +2.4825061838E-002 +9.7493738482E-002 
16000000000.000 +1.7264031562E-002 -1.9677259948E-002  -1.5865096740E-001 -1.1315433539E-001  -1.7503477809E-001 +3.0778742055E-002  -4.0296501788E-002 -6.0681478153E-002 
16200000000.000 -2.8801764849E-002 +8.0625504426E-002  +1.9837386985E-001 -3.7741212070E-003  -5.9766770374E-002 -1.6090595206E-001  -4.2484276769E-002 +5.3447988414E-002 
16400000000.000 +5.3041200921E-002 -1.6865221451E-002  -1.3054218242E-001 +1.3631560910E-001  +1.4450607527E-001 -8.1572075423E-002  +5.4449376324E-002 -3.2023504897E-002 
16600000000.000 -5.8632399246E-002 -3.4629662026E-002  +4.5284193840E-002 -1.7836894318E-001  +1.1627064952E-001 +1.2299934334E-001  -3.0549916774E-002 +1.4264538818E-002 
16800000000.000 -9.0914760632E-003 +6.0997848494E-002  +3.5594940751E-002 +1.7645961733E-001  -1.0632933949E-001 +1.1590832331E-001  -5.1721952781E-002 +5.4096620502E-002 
17000000000.000 -8.4759519979E-003 -2.1068487441E-002  -1.4235163322E-001 -1.1586294846E-001  -1.2204593804E-001 -1.0274932170E-001  +2.3276530883E-002 -1.0545060856E-001 
17200000000.000 +7.7901659286E-003 +4.5316403890E-003  +1.7014793445E-001 -4.7073308050E-002  +8.4630383653E-002 -1.3058853392E-001  -1.4971531605E-002 +1.3620282315E-001 
17400000000.000 -1.1537777175E-002 +5.8008614254E-002  -7.9360323861E-002 +1.3241586934E-001  +1.2698389041E-001 +5.5211027206E-002  -8.6312717722E-002 -4.3361260429E-002 
17600000000.000 -7.5842702411E-002 -7.3247203474E-002  -1.4273028967E-002 -1.6099955736E-001  -2.7488590266E-002 +1.3982331229E-001  +3.7436757859E-002 -3.1006875149E-002 
17800000000.000 +8.9946789970E-003 +5.3603999863E-002  +1.0231807813E-001 +1.2051516976E-001  -1.4008141584E-001 +6.0933253346E-003  -1.3018012032E-002 +5.7027536447E-002 
18000000000.000 +2.3093080418E-002 -1.9422332205E-002  -1.5816845691E-001 -3.4662045218E-002  -1.3491154156E-002 -1.4189574814E-001  -5.7987612237E-002 -1.0984356558E-001 
18200000000.000 -3.0319059776E-002 -1.1534887807E-001  +1.3692388419E-001 -4.5588271582E-002  +1.2546690113E-001 -1.1417376702E-002  -4.6048738411E-002 +5.6594774387E-002 
18400000000.000 +5.6197047062E-003 +4.4206550799E-002  -7.0933791989E-002 +1.4536072361E-001  +3.8078719398E-002 +1.3585740446E-001  +1.6619700692E-002 -3.7020499958E-003 
18600000000.000 +1.0910949606E-002 -7.3489252521E-002  -6.5246619408E-002 -1.3836805403E-001  -1.1837293974E-001 +4.4543321346E-002  -6.1105067456E-002 -6.5528302870E-002 
18800000000.000 +2.0614388779E-003 +4.0687120689E-002  +1.2955364255E-001 +6.9266124231E-002  -8.3575252497E-002 -1.0875383963E-001  +4.8179368442E-003 -1.3772970962E-002 
19000000000.000 +8.5495096774E-002 -1.2084270728E-002  -1.4562365950E-001 +5.5031631419E-003  +1.0103673715E-001 -7.6585361267E-002  -3.2409388512E-002 -5.1789961154E-002 
19200000000.000 -3.1637639788E-002 -8.7355118002E-002  +1.1499645009E-001 -9.1485468282E-002  +7.9058017712E-002 +9.8518264634E-002  -1.9874763032E-002 +3.1593598372E-002 
19400000000.000 +6.1463153845E-002 +1.3514444177E-001  -4.2714727966E-002 +1.4559866556E-001  -8.7321440468E-002 +9.4538404111E-002  +1.0888670788E-001 -8.7805692725E-002 
19600000000.000 +4.0078871194E-002 -3.9058457038E-002  -6.5168780952E-002 -1.3076130728E-001  -1.1066467859E-001 -6.4852053496E-002  -9.7497213872E-002 -1.0858993816E-002 
19800000000.000 +3.6238020621E-002 +2.0869748190E-002  +1.4746009928E-001 +6.0317326258E-002  +7.6336136373E-002 -1.2309642553E-001  +2.3859926275E-002 -4.1280987061E-002 
20000000000.000 -1.4203473609E-002 +2.0166453037E-002  -1.4209490804E-001 +4.7297263135E-002  +9.3209533353E-002 +9.6149357901E-002  -1.3998562231E-005 +3.6822027850E-002 
20200000000.000 -3.0091103381E-003 -6.4542138685E-002  +1.0231070625E-001 -1.0094511279E-001  +3.2604669265E-002 +1.2885200092E-001  -4.4933479787E-002 -2.4115259497E-002 
20400000000.000 -1.3864978211E-002 +1.0489663869E-001  -3.2218967791E-002 +1.3784487766E-001  -1.2546863257E-001 +3.7587183991E-002  +1.3876935012E-002 -8.9095102213E-002 
20600000000.000 +6.9496076288E-003 +1.2708290836E-002  -6.6511352510E-002 -1.2011803502E-001  -4.7742839421E-002 -1.1603645612E-001  -2.8098284041E-002 +6.4950488929E-002 
20800000000.000 +4.6032849567E-002 -6.4914557121E-003  +1.3218501465E-001 +5.2868999649E-002  +1.2326363970E-001 -3.8081697266E-002  -3.8448223981E-002 -4.9782626079E-002 
21000000000.000 -7.1988755509E-002 +5.3890133656E-003  -1.1214708060E-001 +4.8912093668E-002  +2.3870743432E-003 +1.1520284383E-001  +2.5393780214E-002 -4.1939122079E-002 
21200000000.000 -3.9680789211E-003 +7.1903800596E-002  +5.1264393164E-002 -1.1608902187E-001  -1.1079491565E-001 +2.2287795659E-002  -1.2332440777E-001 +9.8737872683E-003 
21400000000.000 -2.6700502496E-002 -3.9552170929E-002  +2.0735073459E-002 +1.2858055894E-001  -4.2253087212E-002 -1.0807496323E-001  +8.9047071118E-002 -2.3123462744E-002 
21600000000.000 -6.1122561170E-003 +5.6439061326E-002  -8.9956208749E-002 -8.7750999748E-002  +7.1835848026E-002 -8.1406033263E-002  -5.5918212612E-002 -2.8970886850E-003 
21800000000.000 -6.0607899343E-002 -3.0996163571E-002  +1.1426002875E-001 +4.2712851620E-002  +9.6783918538E-002 +5.1770468047E-002  -1.5574293268E-002 -7.8474671072E-002 
22000000000.000 -3.8636768728E-002 -5.0933701577E-002  -1.0748891623E-001 +3.5404114980E-002  -3.6581815106E-002 +8.9881285329E-002  +1.4482491823E-002 +4.8280607178E-004 
22200000000.000 +5.4490627700E-002 +9.0979939508E-002  +6.8115929148E-002 -1.0503507009E-001  -1.0241470633E-001 -3.4418298751E-002  -3.9283473580E-002 +2.0789613466E-002 
22400000000.000 -6.0893136698E-002 -1.1587535148E-001  -2.9883267237E-003 +1.1505175142E-001  +2.4000489626E-002 -9.5849844129E-002  +1.0908320015E-001 -1.1401017823E-001 
22600000000.000 -1.3791791910E-002 +6.1712782602E-003  -7.3653367336E-002 -9.6450358606E-002  +1.0134540352E-001 +5.2977198351E-004  -8.2271702267E-002 +1.5235713725E-002 
