!  2-Port S-parameters saved by WinCal
! VAR MeasName=S-Parameters (CALIBRATED_DATA) read from VNA (MS4647B)
! VAR MeasDate=27-Apr-22 15:21:19
! VAR NAME=RAW_line_6.5mm_1
! VAR FILENAME=RAW_line_6.5mm_1.S2P
! VAR DATE=27-Apr-22 15:21:19
! VAR PHYS_PORTS=1,2
! VAR ObjTypeName=DATASET
! VAR IndexType=Frequency
! VAR ChuckHeaterState=Unknown
! VAR ChuckTemp=NaN
! VAR ChuckTempUnits=Unknown
!
# Hz S RI R 50
200000000.000 -1.9106016372E-002 -8.3153776336E-002  -2.6019582190E-001 -6.8144975678E-001  -3.8091589204E-001 -6.3734268961E-001  +1.9853742388E-002 -6.5747483956E-002 
400000000.000 +1.1741633837E-001 -1.0880145082E-001  -4.0657393058E-001 +5.4893970861E-001  -2.3331089224E-001 +6.5673059627E-001  -1.4155239956E-001 +1.1923999297E-002 
600000000.000 +6.3197624404E-002 -6.4822660733E-002  +5.8749697742E-001 +1.7971962226E-001  +5.6195316140E-001 -2.3551602363E-001  -5.3352516367E-002 +5.5076319420E-002 
800000000.000 +7.6151682865E-002 -1.9646604501E-001  -2.6408574305E-001 -6.0997278760E-001  -6.0292139258E-001 -2.4638865130E-001  +1.4655971472E-001 +5.0534723586E-002 
1000000000.000 +1.3773908854E-001 -1.9954601629E-001  -1.7608633895E-001 +6.8414842997E-001  +3.8015847780E-001 +5.5619041799E-001  +2.2875201722E-001 -6.4752843220E-002 
1200000000.000 +6.9445711359E-002 -2.3976828412E-001  +6.8801003816E-001 -2.5016621997E-001  +1.1849974825E-001 -6.7277528964E-001  -1.1998883884E-001 -1.2784192056E-001 
1400000000.000 +3.7095399622E-002 -1.6338514516E-001  -6.5674414443E-001 -3.2570249072E-001  -5.1719371329E-001 +4.3239326368E-001  -4.7014366574E-003 -4.3140236123E-002 
1600000000.000 +2.0249165406E-001 +1.1138041187E-001  +1.6668624313E-001 +5.9823399074E-001  +5.4459187423E-001 +4.2157522149E-002  -1.9167393139E-001 -5.4156138694E-002 
1800000000.000 +7.5002080796E-002 -5.1754709352E-003  +3.2467870788E-001 -4.1416122820E-001  -3.1272535591E-001 -3.3705052160E-001  +3.2153473673E-002 +1.0929566274E-001 
2000000000.000 +1.1787340046E-001 +2.1843304747E-002  -4.5387348572E-001 +9.3247286698E-003  -2.2786226118E-002 +3.8146603369E-001  +1.7184439410E-001 -9.1440047836E-003 
2200000000.000 +2.8163845029E-002 -1.4580519288E-001  +2.4780351610E-001 +3.4145737781E-001  +2.9365516102E-001 -2.2956182446E-001  -4.6116462971E-002 -1.9816340712E-001 
2400000000.000 +3.4208714385E-002 -1.6925934421E-001  -3.6379389598E-002 -4.1375945568E-001  -3.7674514487E-001 +6.2202256893E-002  -1.5873723968E-001 -5.2989004563E-003 
2600000000.000 +5.4161422461E-002 +3.5012197984E-002  -7.4949560243E-001 -9.3373354622E-002  -1.8542183721E-001 +4.8630316729E-001  +4.8033705335E-003 -2.2206174169E-002 
2800000000.000 +6.5497804631E-002 -1.8655609575E-001  +4.6466466826E-001 -7.3741847790E-001  -7.1726565399E-001 +4.4985325738E-002  -1.2079247120E-001 +7.2747930740E-002 
3000000000.000 -3.9142010634E-002 +5.2847949023E-002  +3.7132184709E-001 +7.9408115177E-001  -3.7391695932E-001 -6.6703298789E-001  +7.1917188685E-002 -2.7132212994E-002 
3200000000.000 -1.8268460937E-001 -2.3493935665E-001  -7.1472819405E-001 -7.8304942225E-002  +3.4252641579E-001 -5.3800620685E-001  +1.2335815982E-001 +1.7749967117E-001 
3400000000.000 +2.6358285140E-001 -1.1519976037E-001  +5.5878908444E-001 -5.9063285035E-001  +7.0483284550E-001 +2.4957971491E-001  -1.2589584130E-001 +1.4939538165E-001 
3600000000.000 +9.5115200481E-002 +7.0084326910E-002  +1.4260885704E-001 +8.2535759472E-001  +1.3162010150E-001 +8.4886896356E-001  -3.8809119174E-002 -5.9822508418E-002 
3800000000.000 -3.3711884155E-001 +5.1626621507E-003  -6.8895847720E-001 -5.3407268708E-001  -7.6419482675E-001 +2.5726244726E-001  +2.6699159352E-001 +9.8402974107E-002 
4000000000.000 +1.0879074084E-001 +7.7261710342E-002  +8.3444996644E-001 -2.5612022668E-001  -5.1205271755E-001 -5.5653400258E-001  -7.7921190978E-002 +1.5179417043E-002 
4200000000.000 +2.3061045140E-001 +1.3236247821E-001  -4.0806061751E-001 +7.8345616729E-001  +4.3438370841E-001 -6.9943243267E-001  -2.4490124551E-001 -3.2484666092E-002 
4400000000.000 -6.6903837138E-002 -6.9080782588E-002  -2.9189832756E-001 -8.0287762697E-001  +8.6974443077E-001 +1.8068743274E-001  +9.8602031783E-002 -1.4024480325E-002 
4600000000.000 -9.2129276777E-002 -1.3611562650E-001  +7.7950531888E-001 +3.2265015096E-001  -8.1845551287E-002 +8.3237871876E-001  +1.5434315066E-001 +5.2941550324E-002 
4800000000.000 -1.1038252554E-001 +7.2778360283E-002  -7.9565553674E-001 +2.8725356184E-001  -7.8606962012E-001 +1.4203198462E-001  +6.2462809991E-002 -8.8657774426E-002 
5000000000.000 -1.9730615970E-002 +2.9711450262E-001  +3.2256865340E-001 -6.9058317838E-001  -4.6000360463E-001 -6.8457911969E-001  -1.6766060934E-001 -1.6547286321E-001 
5200000000.000 -5.7302392171E-003 -1.1887800158E-001  +2.1245255519E-001 +7.6260187759E-001  +7.3659501570E-001 -5.1550359511E-001  +1.6306464983E-001 +1.7857287704E-001 
5400000000.000 -1.1823269280E-001 -5.1476716375E-004  -6.7925071374E-001 -3.5739400132E-001  +6.0108755962E-001 +5.4160375080E-001  -4.5671028776E-002 -3.0400032512E-002 
5600000000.000 +1.6236936182E-002 +9.6959175481E-002  +6.8528348668E-001 -1.8979840950E-001  -2.7264164406E-001 +7.0892070858E-001  -1.1181063585E-001 -4.3996445903E-002 
5800000000.000 -7.7138937172E-002 -1.5702001483E-002  -2.8982460741E-001 +6.0065383698E-001  -7.3957126813E-001 -1.5147156542E-001  -2.5109737234E-002 -1.0478281416E-001 
6000000000.000 +4.3682337695E-002 -1.4883704937E-001  -1.8172379099E-001 -6.2189383237E-001  +9.5178522178E-002 -7.5013571034E-001  +6.7007484147E-002 +3.0678557436E-002 
6200000000.000 +8.2483024892E-003 -4.5051704301E-002  +5.2130835753E-001 +3.6401188968E-001  +6.9330418558E-001 +7.8254273295E-003  +1.3071660311E-001 +6.8136953415E-002 
6400000000.000 -2.5492819352E-001 +1.2475886349E-001  -5.5818042475E-001 +2.0170437267E-001  +2.7844270828E-001 +5.8923888654E-001  -2.3747795421E-001 -2.7345970887E-001 
6600000000.000 +1.4862010613E-001 +7.4898425171E-003  +4.0140608488E-001 -4.7912606419E-001  -6.2134977726E-001 +2.7956567489E-001  +8.3705938364E-002 +1.3625059865E-002 
6800000000.000 +3.1245095143E-002 +8.0059322735E-002  +9.8073819010E-003 +6.1374075313E-001  -3.7037078957E-001 -5.6158798280E-001  -1.8250509153E-002 +1.2213672494E-001 
7000000000.000 -6.0571167030E-003 -1.9877644021E-002  -4.6214460010E-001 -3.9243054536E-001  +3.1949813763E-001 -5.2209647585E-001  +3.3728441374E-002 -2.3868461948E-002 
7200000000.000 -1.0529667636E-001 -9.0899799252E-002  +5.8268936274E-001 +3.1613680415E-002  +5.2192795897E-001 +2.1500485109E-001  +1.4741743043E-001 -6.7252357969E-002 
7400000000.000 -8.0673486586E-002 -9.1785271363E-004  -4.5282330901E-001 +3.4230867926E-001  -1.6248944765E-001 +5.6223923406E-001  -1.9944672716E-001 +7.0685528600E-004 
7600000000.000 +1.1306002923E-001 +1.6409307265E-002  +9.4063398597E-002 -5.6463896115E-001  -5.5436692022E-001 -5.7041865125E-002  +1.1819463823E-001 +3.0561077600E-002 
7800000000.000 -2.3916437899E-001 -1.2763854677E-001  +2.8137950033E-001 +4.5945499462E-001  -7.0817001018E-002 -4.8237580634E-001  -6.1120379253E-002 -1.0713506982E-001 
8000000000.000 +9.4155106099E-002 -2.5790206106E-002  -4.9986085844E-001 -1.7996885754E-001  +5.0145188875E-001 -1.1331050734E-001  +2.3451563880E-003 -1.8302764695E-002 
8200000000.000 -1.0663694127E-001 +1.0978588689E-001  +4.4110752345E-001 -2.1806420831E-001  +1.9620919757E-001 +4.4018506165E-001  -6.1657372046E-002 +8.3324873947E-002 
8400000000.000 +9.4128539389E-002 -8.1264656461E-003  -2.4628451435E-001 +3.8681406069E-001  -3.6572520031E-001 +2.6131688373E-001  +2.7353240765E-003 +1.2093515619E-002 
8600000000.000 +1.6846335109E-001 -3.8427722249E-002  -1.1974668789E-001 -3.8140909868E-001  -2.7439749562E-001 -2.8418772962E-001  +1.9012583150E-001 -9.3850933816E-002 
8800000000.000 -1.0433508519E-001 -6.1454153466E-002  +3.5916246164E-001 +1.9288601814E-001  +1.8187046656E-001 -3.6975849400E-001  -1.3205389744E-001 -4.4459258550E-003 
9000000000.000 -3.3416928508E-002 +2.5972749088E-002  -3.6859904554E-001 +6.6106165865E-002  +3.6233878522E-001 +1.4592281347E-001  -1.0350998962E-002 -1.4377775069E-002 
9200000000.000 -9.0165942730E-002 +7.6313546849E-002  +2.1335308481E-001 -3.0519043859E-001  -7.6531937293E-002 +3.5795339232E-001  +2.3429864906E-002 +1.5301354195E-001 
9400000000.000 +5.9888405454E-002 +1.9608089624E-002  +7.1105438571E-002 +3.4818986660E-001  -3.5286690553E-001 +3.1103755551E-002  +3.3536365833E-003 -5.4020590558E-002 
9600000000.000 -8.1453888346E-002 -7.4701690219E-002  -2.6690630964E-001 -2.2236530303E-001  -6.0867473047E-002 -3.4647206572E-001  -1.3192150321E-003 +5.4461989114E-003 
9800000000.000 +1.9299516645E-003 -2.0358707744E-002  +3.3584447458E-001 -1.5041441390E-002  +3.2300406217E-001 -1.3477709796E-001  -1.8699247495E-002 +6.7564893094E-002 
10000000000.000 -4.7568561583E-002 +1.6318397248E-002  -2.1846390469E-001 +2.2671093659E-001  +8.6781470373E-002 +3.0750114410E-001  -3.5756366425E-002 +6.2030205599E-002 
10200000000.000 +2.5694100352E-002 -7.8009401516E-003  +7.1710764826E-002 -3.1004344829E-001  -1.8343247084E-001 +2.5405128031E-001  -3.4158959099E-003 -6.6948654342E-002 
10400000000.000 +9.2075830518E-002 -1.7017998265E-002  +1.3612539025E-001 +2.5936839698E-001  -2.5187696365E-001 -1.9489873911E-001  -5.1084253358E-002 -3.2210948435E-002 
10600000000.000 -5.7194732267E-002 -9.2594784598E-002  -2.7726987002E-001 -8.4481162647E-002  +1.9001290339E-001 -2.2409160224E-001  -5.6511040359E-002 +1.4916518653E-001 
10800000000.000 -7.1127939019E-002 +1.5599511562E-002  +2.6774414832E-001 -7.4151407666E-002  +2.7181909183E-001 +9.8270766462E-002  +2.7387921390E-002 -6.1365257461E-002 
11000000000.000 +8.1320418040E-002 +1.5943824402E-002  -1.6997357465E-001 +2.2760370658E-001  -7.4010480244E-003 +2.9644576114E-001  +1.0168342005E-001 -1.5692408881E-002 
11200000000.000 -1.9898269839E-003 +5.7108217694E-002  -2.3828359138E-002 -2.6447188965E-001  -2.9008533071E-001 +2.7952428596E-002  -1.0600672084E-001 -4.2204105163E-002 
11400000000.000 +7.2168266415E-002 -8.2344575640E-002  +1.8235141598E-001 +1.8646975750E-001  -7.0912385998E-002 -2.8205097771E-001  +5.3655797149E-003 -1.3589166335E-002 
11600000000.000 +2.3352255799E-002 -9.8582249941E-003  -2.4441426646E-001 +2.2992401005E-002  +2.4514252907E-001 -1.0312808464E-001  +4.5300695759E-002 +1.4378163915E-001 
11800000000.000 -1.2490093060E-001 +8.9805294126E-002  +1.5226870547E-001 -1.9104894168E-001  +1.5333695898E-001 +2.1930797053E-001  +4.5084022512E-002 -1.0054444606E-001 
12000000000.000 +1.2823929147E-001 -3.0434765900E-002  -4.1118022404E-002 +2.2747998734E-001  -2.1532929235E-001 +1.3674421023E-001  -5.1836554818E-002 +6.8939371089E-002 
12200000000.000 -6.4901028578E-002 -5.3577306911E-002  -8.4071570415E-002 -2.1225283083E-001  -1.5127731396E-001 -2.0272603343E-001  -3.2768027338E-002 +3.7473134316E-002 
12400000000.000 -5.9745354179E-002 +5.0802078857E-003  +1.9106259118E-001 +1.1057840526E-001  +1.7031713926E-001 -1.7453529655E-001  +1.0224240590E-001 -2.4041008054E-002 
12600000000.000 -2.8633195760E-002 -4.7957213890E-002  -1.9788567803E-001 +8.6877086533E-002  +2.0859749803E-001 +1.2644256227E-001  -5.8341308874E-002 +6.9025147641E-002 
12800000000.000 +5.4486004989E-002 -4.7335318220E-003  +6.7703920427E-002 -2.0215726233E-001  -4.7034393341E-002 +2.4111504089E-001  -1.1385471620E-002 -1.0807219282E-001 
13000000000.000 +1.0082457423E-001 -1.0878522356E-002  +6.7698339047E-002 +1.9569541958E-001  -2.3501765144E-001 -1.2457122202E-002  -1.4850247075E-002 +1.3770444073E-001 
13200000000.000 -8.4044151831E-002 -1.9083579580E-001  -1.3767805651E-001 -1.3868829015E-001  +3.4247067551E-002 -2.0077146410E-001  +9.2360348064E-002 +1.5449437155E-002 
13400000000.000 +5.4672877901E-002 +1.2487125823E-001  +1.7247152661E-001 +9.7202578016E-002  +2.1331119499E-001 +7.6533306504E-002  -1.0517813644E-002 -1.7710922047E-003 
13600000000.000 -3.2815372716E-002 +1.4722558205E-002  -1.8726788448E-001 +8.8567908163E-002  +6.1365169944E-003 +2.3853530686E-001  -9.1330280094E-002 +1.8006208462E-002 
13800000000.000 +8.7373214513E-003 -7.4690824509E-002  +6.4732926726E-002 -1.9410006392E-001  -1.8469913427E-001 +1.1735732528E-001  +7.0893171487E-002 +1.1304011670E-002 
14000000000.000 +5.4357478049E-002 -4.9193064890E-003  +8.4752880141E-002 +1.6864007609E-001  -1.4081658014E-001 -1.4085908312E-001  -6.6676437613E-003 +1.0912394250E-001 
14200000000.000 -1.0027719715E-001 +3.4744659691E-002  -1.7076535903E-001 -1.0762846524E-001  +1.2594023543E-001 -1.6609359145E-001  -5.7419019194E-002 -1.0588367471E-001 
14400000000.000 +8.8231509969E-002 +3.9295165537E-002  +1.8869590862E-001 -2.0798243798E-002  +1.4960510248E-001 +1.4106427843E-001  -4.9644388833E-002 +5.0174726180E-002 
14600000000.000 +7.3947014982E-002 -2.7747641980E-002  -1.1504445174E-001 +1.3977842104E-001  -1.1269587841E-001 +1.4258616241E-001  +9.7210851633E-004 +5.3870299368E-002 
14800000000.000 -1.3166412311E-002 +1.3474438084E-002  -5.8504906940E-003 -1.9456861820E-001  -1.8208162212E-001 -7.2132513601E-002  +1.3673827086E-002 +4.6824987804E-002 
15000000000.000 -1.1773527948E-002 -4.8574161868E-002  +1.4497934999E-001 +1.2525118021E-001  +3.1204831729E-002 -1.8806147937E-001  -4.2721409262E-003 -8.6896018019E-002 
15200000000.000 -3.3657580671E-002 +9.6165566170E-002  -1.9427541376E-001 -9.4943764375E-003  +1.8261572368E-001 +1.0914372148E-002  -2.1934355189E-002 +4.3088401058E-002 
15400000000.000 +4.6118076662E-002 -5.9594118041E-003  +1.3122678440E-001 -1.3519908539E-001  +5.9621212063E-003 +1.7696825243E-001  -1.6283891662E-002 +8.7367823273E-002 
15600000000.000 -2.5408570657E-002 -3.7814941257E-002  -3.0848105058E-002 +1.9899821992E-001  -1.7335415426E-001 +6.9670948838E-002  -2.4628732406E-002 -8.7024472185E-002 
15800000000.000 -1.4295077889E-003 +3.9593917496E-002  -7.6986705322E-002 -1.9169306597E-001  -8.7306902861E-002 -1.6184853725E-001  +3.5492287845E-002 +9.9675499074E-002 
16000000000.000 +2.7215872402E-002 -2.2636940180E-002  +1.7403667682E-001 +8.0833808139E-002  +1.6398313987E-001 -6.1131134562E-002  -3.4861440922E-002 -5.3531753960E-002 
16200000000.000 -2.7489373573E-002 +8.4339482168E-002  -1.8966834490E-001 +4.8704183747E-002  +9.3474876870E-002 +1.4146115428E-001  -4.5302825045E-002 +5.4840059729E-002 
16400000000.000 +5.0142286948E-002 -2.0072944520E-002  +8.7121565359E-002 -1.6435602509E-001  -1.1590576414E-001 +1.1572751047E-001  +5.7543879889E-002 -3.2867603942E-002 
16600000000.000 -4.8118852262E-002 -3.2864996615E-002  +1.2868062954E-002 +1.7959622502E-001  -1.4545494817E-001 -7.9551430277E-002  -1.8598235217E-002 +2.2979155758E-002 
16800000000.000 -1.9495264100E-003 +7.8153433404E-002  -9.2975739187E-002 -1.5365514652E-001  +6.1491936651E-002 -1.4461144500E-001  -4.9899643960E-002 +7.2838317499E-002 
17000000000.000 -1.4002652724E-002 -1.0448655277E-002  +1.7298204233E-001 +4.9543878962E-002  +1.4959657320E-001 +4.6243265009E-002  +2.9871129440E-002 -9.5715676370E-002 
17200000000.000 +2.1070298075E-002 +1.5966963807E-003  -1.3012546814E-001 +1.1241290207E-001  -2.0616108646E-002 +1.5041803427E-001  +4.9291007376E-003 +1.3903519307E-001 
17400000000.000 +1.0457369974E-002 +7.2827567399E-002  +1.3313043745E-002 -1.5613858334E-001  -1.4074163314E-001 +5.8562177315E-003  -6.2694417985E-002 -2.4530541267E-002 
17600000000.000 -7.2833649503E-002 -4.1062945983E-002  +9.7926603200E-002 +1.2762350515E-001  -5.1041203898E-002 -1.3268441248E-001  +4.2226932256E-002 -4.3930245601E-004 
17800000000.000 -6.0225255076E-003 +6.9679040786E-002  -1.4674282003E-001 -4.8012049568E-002  +1.1391075584E-001 -7.6389951986E-002  -1.4137618959E-002 +7.6010525259E-002 
18000000000.000 +1.6601303688E-002 -8.5602554881E-004  +1.4344656760E-001 -6.0599213968E-002  +8.9174681049E-002 +1.0438029046E-001  -4.0367633459E-002 -8.2821723297E-002 
18200000000.000 -5.7129108050E-002 -8.2421376851E-002  -8.9424614084E-002 +1.2828269973E-001  -1.0229566909E-001 +9.0938178571E-002  -4.5094344124E-002 +1.1062632092E-001 
18400000000.000 -4.6544923389E-002 +6.9190419772E-002  -3.8502868985E-002 -1.3923645714E-001  -1.0588994087E-001 -6.8517616562E-002  +8.7081210419E-003 +4.5076202701E-002 
18600000000.000 -2.2914237998E-002 -8.0290288383E-002  +1.4385836647E-001 +6.2568623203E-002  +6.1624198827E-002 -1.1431037197E-001  -6.6541811297E-002 -3.6017585401E-002 
18800000000.000 -2.0957047456E-002 +3.9719293686E-002  -1.3687489478E-001 +3.6036509228E-002  +1.3051859130E-001 +2.2601825987E-002  +1.6335071034E-002 +2.6230478977E-002 
19000000000.000 +4.1924750210E-002 -3.2805608456E-002  +9.3304583645E-002 -1.2209001205E-001  -5.7997855192E-003 +1.3376697277E-001  -5.3534961957E-002 +6.2067538516E-004 
19200000000.000 -5.9354599464E-002 -1.2987576183E-001  -1.1743787320E-002 +1.3307381070E-001  -1.1398781011E-001 -1.0089012454E-002  -5.9783906293E-002 +5.7656660363E-002 
19400000000.000 +4.5506258836E-002 +9.2478793539E-002  -9.5276873962E-002 -1.1976501628E-001  -2.6253776591E-002 -1.2676245970E-001  +7.8931813088E-002 -5.8643958436E-002 
19600000000.000 +1.7655866999E-002 -7.1222828183E-002  +1.4877678262E-001 +3.1202571134E-002  +1.2423116022E-001 -4.7657699650E-002  -1.2002929228E-001 +3.5025211456E-002 
19800000000.000 +3.6785502687E-002 -2.6072593756E-002  -1.2241972331E-001 +8.7815075644E-002  +5.8936526233E-002 +1.2246090415E-001  +8.4422535929E-003 -3.1140043576E-003 
20000000000.000 -5.9273156214E-004 +6.2792530111E-004  +3.2593589494E-002 -1.4488519114E-001  -1.2928282245E-001 +2.8777474919E-002  -3.5900039756E-003 +4.4843901454E-002 
20200000000.000 -1.4286281516E-003 -7.9789547374E-002  +3.6018398412E-002 +1.3734203659E-001  -1.2576006681E-001 -3.6290113553E-002  -2.1455878441E-002 +6.3266870555E-003 
20400000000.000 -1.5570817454E-003 +6.7016130086E-002  -1.1389323939E-001 -8.1117122903E-002  +1.3639912044E-002 -1.2858574148E-001  +1.2181346580E-002 -3.0969194823E-002 
20600000000.000 +4.0233609848E-002 -7.2088700843E-003  +1.3488382178E-001 -5.1415403939E-003  +1.2274925071E-001 +1.0536417633E-002  -3.2925161671E-002 +1.0445642247E-001 
20800000000.000 +6.2572912892E-002 -2.9243660229E-002  -9.7415717478E-002 +9.6281680113E-002  -1.4180728920E-002 +1.2328926551E-001  +1.1291204963E-003 -2.7608639688E-002 
21000000000.000 -4.1043505987E-002 -3.6810043178E-002  -2.6274234960E-002 -1.1987747076E-001  -1.1347369460E-001 -2.0138850699E-002  +7.5808875346E-002 +1.1891716875E-002 
21200000000.000 +5.4562419642E-002 +5.8193056762E-002  +7.8731634805E-002 +8.6070327889E-002  +2.2536231666E-002 -1.0098373007E-001  -1.1224446643E-001 +6.3705761478E-002 
21400000000.000 +1.5700497429E-002 -3.4880213049E-002  -1.3069149792E-001 -6.2332118638E-003  +1.1464791842E-001 -1.8437943263E-002  +9.2397525943E-002 +1.3503147383E-002 
21600000000.000 +3.3956420969E-002 +4.6477535819E-002  +1.1314944720E-001 -6.8348927426E-002  +6.2924505524E-002 +9.4840196059E-002  -3.0382029151E-002 +4.2463740179E-002 
21800000000.000 -3.8481735294E-003 -1.5716432171E-002  -4.3839286484E-002 +9.6977361461E-002  -5.0987064608E-002 +8.0749729948E-002  -1.9423831225E-003 -1.7677652630E-002 
22000000000.000 -5.8192659725E-003 -1.8531201378E-003  -1.1201333823E-002 -1.2000604593E-001  -8.3990127304E-002 -5.9568429124E-002  +5.2265026423E-003 +4.7642567640E-002 
22200000000.000 +7.2712236399E-002 +1.1879785502E-001  +9.0453433252E-002 +7.2405880123E-002  +4.1669635452E-002 -9.0712038813E-002  -2.9878978823E-002 +6.8991598410E-002 
22400000000.000 -1.9371631518E-002 -8.9104536246E-002  -1.1930591913E-001 +5.3093221031E-003  +1.0075367929E-001 +1.8385875177E-002  +1.0503628579E-001 -5.4106314353E-002 
22600000000.000 +1.1073597043E-002 +6.1024449073E-002  +9.2119664502E-002 -5.8162317687E-002  -9.0986403997E-003 +9.0040229197E-002  -1.1226557421E-001 +5.0389926806E-002 
