!  2-Port S-parameters saved by WinCal
! VAR NAME=RAW_LRRM_line_0mm_1
! VAR DATE=08/08/2022 22:09:10
! VAR FILENAME=RAW_LRRM_line_0mm_1.S2P
! VAR PHYS_PORTS=1,2
! VAR ObjTypeName=DATASET
! VAR IndexType=Frequency
! VAR ChuckHeaterState=Unknown
! VAR ChuckTemp=NaN
! VAR ChuckTempUnits=Unknown
!
# Hz S RI R 50
200000000.000 -1.7305830922E-002 -8.5876248032E-002  -2.3281608943E-001 -6.9067798287E-001  -3.5262671315E-001 -6.5187608808E-001  +2.1700518893E-002 -6.0092756964E-002 
400000000.000 +1.1763165735E-001 -9.0637890526E-002  -4.5232333318E-001 +5.1304623126E-001  -2.8969651250E-001 +6.3396149620E-001  -1.3168211515E-001 -7.4312955037E-004 
600000000.000 +5.9228933371E-002 -6.6195411117E-002  +5.6046696004E-001 +2.5102199465E-001  +5.8664982641E-001 -1.6243673896E-001  -4.4878524572E-002 +5.0868697410E-002 
800000000.000 +8.5443267474E-002 -2.2322587875E-001  -1.5762516118E-001 -6.4251829429E-001  -5.4738651921E-001 -3.4482471730E-001  +1.7719548010E-001 +6.9754945849E-002 
1000000000.000 +9.8879502287E-002 -1.9095257317E-001  -3.1852721410E-001 +6.3141612001E-001  +2.5036398048E-001 +6.2800723276E-001  +1.8220293688E-001 -5.8302259504E-002 
1200000000.000 +9.5166548382E-002 -2.4296655444E-001  +7.2728573940E-001 -7.3877625719E-002  +2.8121329031E-001 -6.2107797022E-001  -1.2388814469E-001 -1.5197396555E-001 
1400000000.000 +1.0459379640E-001 -1.8998832674E-001  -5.3078535701E-001 -5.0391580181E-001  -6.2350832140E-001 +2.5896587406E-001  -3.9623318332E-002 -5.4667442620E-002 
1600000000.000 +1.3124172795E-001 +1.4147152005E-001  -3.6376496999E-002 +6.2719489520E-001  +5.0587319691E-001 +2.1925811682E-001  -1.5749459839E-001 -6.4165340265E-002 
1800000000.000 +9.7062108732E-002 -1.3203238686E-002  +4.5530436181E-001 -2.6764285448E-001  -1.6521518444E-001 -4.3021995252E-001  +4.5416461561E-002 +1.1327670842E-001 
2000000000.000 +8.7783659527E-002 +3.4440026209E-002  -4.2237625757E-001 -1.7362675185E-001  -1.7717364138E-001 +3.4178559080E-001  +1.3863461670E-001 -1.7704053126E-002 
2200000000.000 +1.0658654735E-001 -1.8672930068E-001  +5.6424975686E-002 +4.0884752950E-001  +3.5984428433E-001 -6.4066950503E-002  -1.5746962958E-002 -2.5583176036E-001 
2400000000.000 -2.1314076825E-002 -1.2284876029E-001  +1.6900920064E-001 -3.9477902294E-001  -3.7137275287E-001 -1.2936577814E-001  -1.1525961267E-001 +4.0444951222E-002 
2600000000.000 +5.5095996030E-002 +7.6896333667E-002  -5.9533191364E-001 -4.6927651168E-001  -4.1024972717E-001 +3.2217271430E-001  +1.3325236792E-002 -4.1014376361E-002 
2800000000.000 +4.2618801610E-002 -2.2647091332E-001  +7.9745264058E-001 -3.5516130248E-001  -6.2063326166E-001 -3.6206780502E-001  -1.2409101501E-001 +1.0429765765E-001 
3000000000.000 +1.2271431739E-001 +6.7842298819E-002  -1.8248856378E-001 +8.4222034776E-001  +1.0144754070E-001 -7.4619003850E-001  -4.7625520785E-002 -6.1222105315E-002 
3200000000.000 +2.8675622230E-002 -4.3032792882E-002  -5.5079543555E-001 -5.6823447726E-001  +6.6098632344E-001 -2.1337886116E-001  -2.3817954047E-002 +5.0327370053E-002 
3400000000.000 +2.8492384154E-001 +4.9143836301E-002  +7.9703425895E-001 -9.4763685931E-002  +3.7448384872E-001 +6.3869527294E-001  -1.9202317107E-001 +6.1108060240E-002 
3600000000.000 +7.2240696587E-002 -1.4647803019E-002  -4.7047493444E-001 +7.0110443833E-001  -4.9441135719E-001 +7.0386664698E-001  -1.0933225159E-001 +3.9512026832E-002 
3800000000.000 -3.2870731880E-001 -1.5200940539E-001  -1.1626082358E-001 -8.6367129272E-001  -7.2928763001E-001 -3.5905107649E-001  +1.9101790377E-001 +1.3292931763E-001 
4000000000.000 +4.4365172289E-002 +1.3398387857E-001  +7.5422122920E-001 +4.5592572151E-001  +7.7137346972E-002 -7.5918842180E-001  -5.7702128188E-002 -7.4560204120E-002 
4200000000.000 +4.0986201952E-002 +1.2852649433E-001  -8.7781976651E-001 +2.0211036827E-001  +8.3138704855E-001 -1.3041535466E-001  -1.2429237486E-001 -9.4713814361E-002 
4400000000.000 -3.5743669156E-002 -8.2778330888E-002  +4.6552527582E-001 -7.2250442372E-001  +3.8738879993E-001 +8.0433565038E-001  +1.0426869734E-001 +6.2087671997E-002 
4600000000.000 +2.6597304930E-002 -7.1671134182E-002  +1.9278384289E-001 +8.2784838322E-001  -7.2159710273E-001 +4.2013729476E-001  +3.6765415436E-002 +1.3207754505E-001 
4800000000.000 -9.7415352298E-002 -3.3154400989E-002  -6.7576386047E-001 -5.1222032980E-001  -5.5195439885E-001 -5.8190846839E-001  +6.1721773197E-002 +3.1864262170E-002 
5000000000.000 +1.5144727011E-002 +2.1764969310E-002  +7.9646861956E-001 -6.7301488990E-002  +3.8816207799E-001 -7.6588502895E-001  -9.4612616801E-002 -1.1367488463E-002 
5200000000.000 +1.2417333657E-001 -2.8344323756E-001  -5.6973357369E-001 +5.4410107065E-001  +8.0424660917E-001 +4.0709722126E-001  +1.3536822260E-001 +2.1779872055E-001 
5400000000.000 -1.4479085528E-001 -9.6729129635E-002  +3.6144837110E-002 -7.6201959999E-001  -2.3642071875E-001 +7.6333290596E-001  +5.5995465757E-002 -1.7491973265E-001 
5600000000.000 +1.5091298227E-002 +7.3511870005E-002  +4.4589748619E-001 +5.6220549034E-001  -7.6869835795E-001 +2.7014655089E-002  +5.0213369820E-002 -9.2690744891E-002 
5800000000.000 +6.1117181625E-002 +1.1081555702E-001  -6.8707041213E-001 -7.4562536082E-002  -1.0892832110E-001 -7.8401686883E-001  -5.1984298734E-002 +1.1322274366E-001 
6000000000.000 +1.3591680294E-001 -3.0850990993E-002  +5.2091554479E-001 -3.6932871428E-001  +7.2848891095E-001 -1.6149833105E-001  -6.8707441268E-002 +1.3484409373E-001 
6200000000.000 +1.0865076734E-001 -7.7791103166E-002  -2.0632289984E-001 +5.9954780985E-001  +1.8152227722E-001 +6.6834829257E-001  +1.6897718045E-001 +1.1741321438E-001 
6400000000.000 -1.2533797476E-001 +3.6521463641E-002  -3.4840468796E-001 -5.1824983421E-001  -5.2597348333E-001 +4.4137490706E-001  -7.1225265574E-002 -1.2131035910E-001 
6600000000.000 +1.6902780066E-001 +2.0331326857E-002  +5.4963728551E-001 +3.0251106261E-001  -3.9650232197E-001 -5.5220262518E-001  +8.1563244709E-002 +1.8153554009E-001 
6800000000.000 -7.7640634391E-002 -2.0962581786E-003  -6.1731052913E-001 +1.1031307921E-001  +4.9947371458E-001 -4.6716283430E-001  -8.8870873828E-002 +3.8452589821E-002 
7000000000.000 -2.9159299156E-002 -8.5451846503E-002  +3.4112274696E-001 -5.0177155045E-001  +5.4921969579E-001 +2.6077764903E-001  -1.2765321188E-002 -1.2171821961E-001 
7200000000.000 -1.3077872194E-002 +2.7331002348E-002  +9.6732482159E-003 +6.0144938416E-001  -1.7945230228E-001 +5.4937149906E-001  +9.9757870405E-002 -1.1320563464E-002 
7400000000.000 -3.3970475602E-002 +1.4425469126E-001  -3.4630603891E-001 -4.4539780274E-001  -5.5700910404E-001 -1.5601496308E-001  -2.6152466291E-001 +7.9373140191E-002 
7600000000.000 +2.5632866581E-001 +7.4778279178E-002  +5.5544677783E-001 +1.1265518418E-001  +7.2231983850E-002 -5.4845509652E-001  +1.9211052610E-001 +9.6851096777E-002 
7800000000.000 -8.5692029211E-002 -5.8119496759E-002  -4.7260174860E-001 +2.7827478893E-001  +4.8945752641E-001 -6.3769700696E-002  +2.6450533014E-002 -2.8988455500E-002 
8000000000.000 +8.0887253825E-002 +2.6697899097E-002  +2.3092340155E-001 -4.8273776531E-001  +6.2078220221E-002 +5.1447031783E-001  +3.7166026582E-002 -1.8842482407E-002 
8200000000.000 -1.9099132684E-001 +6.1223593293E-002  +1.6151848062E-001 +4.6518473265E-001  -4.6139646974E-001 +1.3884824788E-001  -7.3657821165E-002 +1.6785539206E-002 
8400000000.000 +2.5634280578E-002 -2.9931763978E-002  -3.3707069438E-001 -3.1340369540E-001  -1.9319990880E-001 -4.0766693964E-001  -7.0912324192E-003 +3.6060071261E-002 
8600000000.000 +8.0221979818E-002 -1.7983774965E-002  +4.1684825736E-001 -3.6792383789E-002  +3.4916015803E-001 -2.1595831478E-001  +9.2107587051E-002 +1.8565545606E-003 
8800000000.000 -1.3722009148E-001 -5.7528280810E-002  -2.8054726129E-001 +2.9471670690E-001  +3.0736503380E-001 +2.7143835806E-001  -2.2029541698E-001 +2.7414612191E-002 
9000000000.000 +6.6002286176E-002 +4.3145134004E-002  +3.9044297980E-002 -3.7795089802E-001  -2.4495110277E-001 +3.1121543065E-001  +2.7847205647E-002 -6.8862120710E-002 
9200000000.000 +2.0880674640E-002 +1.1069057628E-001  +2.0190315190E-001 +3.1000613131E-001  -3.0266686239E-001 -2.0358949054E-001  +9.7154105772E-002 +1.2924608449E-001 
9400000000.000 +1.1222583033E-001 +2.5141157470E-002  -3.4954760175E-001 -6.7635331479E-002  +1.0514456889E-001 -3.3793987198E-001  -5.4485483581E-003 -8.9647823465E-002 
9600000000.000 -3.1164016068E-002 -9.2111122989E-002  +3.1331476985E-001 -1.5751612889E-001  +3.4507642917E-001 +8.3017905271E-002  -2.4134858495E-002 -9.0934743367E-002 
9800000000.000 +6.2950683066E-003 +2.7944866823E-002  -1.3659904528E-001 +3.0549449579E-001  -2.4260124781E-002 +3.4791795062E-001  +2.9062759527E-002 +1.6157277011E-002 
10000000000.000 -1.1658648940E-001 +4.5580630769E-002  -8.1847653436E-002 -2.9894467778E-001  -3.0411669963E-001 -8.0683453997E-002  +1.4588414133E-002 +1.1293419269E-001 
10200000000.000 -2.9751615890E-002 +1.8136299085E-002  +2.3254387634E-001 +2.2355868705E-001  -1.2629348323E-001 -2.9110565829E-001  +4.4452831413E-002 -4.4461958445E-002 
10400000000.000 +7.9754074190E-002 +4.5088102536E-002  -2.9669641338E-001 -2.9312607013E-002  +3.0638077000E-001 -1.0621231452E-001  -5.8030516561E-003 -6.2224054032E-002 
10600000000.000 -7.5677152297E-002 -3.6669337217E-002  +2.3960649849E-001 -1.6876755838E-001  +6.1845643821E-002 +2.9017870621E-001  -1.4273576066E-002 +1.3941851274E-001 
10800000000.000 -6.9446579581E-002 +2.8178876625E-002  -1.1305394368E-001 +2.5756893286E-001  -2.5020438737E-001 +1.5079565288E-001  +1.9324949253E-002 -5.6903503660E-002 
11000000000.000 +8.7295414590E-002 +1.8067952097E-002  -5.7590587584E-002 -2.8088818175E-001  -2.1897717104E-001 -2.0413288233E-001  +6.0133399366E-002 -2.7440836080E-002 
11200000000.000 -3.1426057533E-002 +3.8851786829E-002  +2.0896048394E-001 +1.6848887091E-001  +1.8256736599E-001 -2.3095128889E-001  -1.0491637322E-001 -4.2858458594E-002 
11400000000.000 +3.4461902782E-002 -1.2652432708E-001  -2.6198709856E-001 -1.1218051067E-002  +2.4623004987E-001 +1.5730917763E-001  +1.3031431292E-002 +2.3521061762E-003 
11600000000.000 +1.2368573620E-002 -3.3902211951E-002  +1.7035985293E-001 -1.7891867201E-001  -1.1753800745E-001 +2.4053299180E-001  +4.9386611244E-002 +1.2493283585E-001 
11800000000.000 -1.2177647097E-001 +1.0444124671E-001  -7.0707127364E-004 +2.4475803015E-001  -2.5764905487E-001 -7.5703109807E-002  +6.8771987130E-002 -1.5735248525E-001 
12000000000.000 +1.2707399856E-001 -3.1098395577E-003  -1.0648703053E-001 -2.1024257632E-001  +8.9634367515E-002 -2.4416010466E-001  -1.4719898218E-002 +4.9724326152E-002 
12200000000.000 -5.3379413810E-002 -1.5642020460E-002  +1.9283382199E-001 +1.2896380279E-001  +2.4345701878E-001 +8.1221987025E-002  -4.8055165767E-002 +2.6857348710E-002 
12400000000.000 -5.8568338615E-002 +4.5844460952E-002  -2.2103226604E-001 +1.9289612842E-003  -5.7801467186E-002 +2.3674922316E-001  +9.2977768004E-002 -5.4174434293E-002 
12600000000.000 -4.9926285925E-002 -2.2935576718E-002  +1.3479836707E-001 -1.7458835285E-001  -2.4841798865E-001 -1.0030417014E-002  -3.7384131155E-002 +6.5594762459E-002 
12800000000.000 +1.8385556252E-002 -1.1405305990E-002  +3.3665795268E-002 +2.1582261052E-001  -7.1200461389E-002 -2.4106091841E-001  +1.7286527656E-003 -9.3445398901E-002 
13000000000.000 +7.6874313312E-002 -2.3018264855E-002  -1.4683619863E-001 -1.5307938045E-001  +2.2348461772E-001 -8.9823673973E-002  -1.5015246387E-002 +1.1819543022E-001 
13200000000.000 -1.0678214171E-001 -1.9841721929E-001  +1.7606161972E-001 +8.2114070304E-002  +3.7393315091E-002 +1.9862765543E-001  +1.2316740857E-001 -1.3865525552E-002 
13400000000.000 +3.9673823493E-002 +1.0286334716E-001  -2.0310691851E-001 -3.0465040873E-002  -2.3472552097E-001 +5.6802965393E-003  +2.6310897775E-002 +1.5032984246E-002 
13600000000.000 -3.3726924316E-002 +6.8147799919E-003  +1.5447927985E-001 -1.4205274356E-001  -7.8413809461E-002 -2.2813837938E-001  -8.9112399039E-002 +1.9997613563E-002 
13800000000.000 +1.0922425440E-002 -6.6051354185E-002  -1.3693276244E-002 +2.0773107400E-001  +1.5090379279E-001 -1.6348395269E-001  +7.6378014264E-002 -1.9654638689E-003 
14000000000.000 +4.6702806550E-002 -7.3467416909E-003  -1.2166416115E-001 -1.5027110534E-001  +1.7173539344E-001 +1.0954315402E-001  +1.6155677012E-002 +1.1294450822E-001 
14200000000.000 -9.6878268778E-002 +1.8755857927E-002  +1.9298911516E-001 +7.3099923867E-002  -9.1878622881E-002 +1.9194614876E-001  -4.8975474856E-002 -8.1879213322E-002 
14400000000.000 +9.7195049332E-002 +3.4206460272E-002  -1.8635494280E-001 +4.6297012091E-002  -1.6926465426E-001 -1.2055534455E-001  -5.3358566668E-002 +5.0139802874E-002 
14600000000.000 +7.0168342014E-002 -2.6844967623E-002  +1.0420867583E-001 -1.5294755265E-001  +1.0112709942E-001 -1.5579721924E-001  +1.1564136223E-002 +5.0858392201E-002 
14800000000.000 -1.4973506809E-002 +4.3953963102E-003  +1.8228872157E-002 +1.9738811211E-001  +1.8986796000E-001 +6.1053205709E-002  +2.1188108853E-002 +5.4193812077E-002 
15000000000.000 -4.5791175297E-003 -5.0013396274E-002  -1.4918279475E-001 -1.2476792567E-001  -2.8073380517E-002 +1.9133378851E-001  -1.0674232729E-002 -8.3107808663E-002 
15200000000.000 -3.4996624145E-002 +1.0286801301E-001  +1.9691474804E-001 +1.5134985585E-002  -1.8496509165E-001 -1.5611719780E-002  -2.3462948520E-002 +3.6050150014E-002 
15400000000.000 +3.7922231113E-002 -9.8503655600E-003  -1.4257849094E-001 +1.2860191836E-001  +5.2051847570E-003 -1.8009588346E-001  -1.3568250177E-002 +8.6147744694E-002 
15600000000.000 -2.2571887278E-002 -4.3289516543E-002  +5.3434451647E-002 -1.9682975764E-001  +1.8189611679E-001 -5.1286837181E-002  -3.0342564579E-002 -8.5641825031E-002 
15800000000.000 -2.9469803352E-003 +4.9232223708E-002  +4.6191796324E-002 +2.0484127384E-001  +6.2045850443E-002 +1.7627094357E-001  +2.4552211869E-002 +9.4660278084E-002 
16000000000.000 +1.4963552284E-002 -2.0126723906E-002  -1.5882541068E-001 -1.1389371863E-001  -1.7564315467E-001 +3.0470075514E-002  -3.7759497515E-002 -5.9512833762E-002 
16200000000.000 -2.7630404944E-002 +7.8616202367E-002  +1.9882721412E-001 -3.5749242732E-003  -5.9488315122E-002 -1.6145671886E-001  -4.4443496744E-002 +5.5230624304E-002 
16400000000.000 +5.4624564208E-002 -1.4967837293E-002  -1.3099024383E-001 +1.3629664489E-001  +1.4497342055E-001 -8.1206036849E-002  +5.3519785498E-002 -3.4229108001E-002 
16600000000.000 -6.0608520012E-002 -3.4194187249E-002  +4.5558443591E-002 -1.7869572393E-001  +1.1608196144E-001 +1.2354657732E-001  -2.8071606018E-002 +1.4084422805E-002 
16800000000.000 -8.7587704395E-003 +5.9092675166E-002  +3.5139255223E-002 +1.7688985811E-001  -1.0686933148E-001 +1.1582251195E-001  -5.2949493683E-002 +5.6140270674E-002 
17000000000.000 -6.9852789775E-003 -1.9643163802E-002  -1.4209445143E-001 -1.1643601812E-001  -1.2196604544E-001 -1.0333333931E-001  +2.1770045143E-002 -1.0703483489E-001 
17200000000.000 +6.0911049277E-003 +5.4148817364E-003  +1.7061949849E-001 -4.6792745845E-002  +8.5213626448E-002 -1.3058418430E-001  -1.3532402098E-002 +1.3505887277E-001 
17400000000.000 -1.1851704033E-002 +5.6541963926E-002  -8.0017351667E-002 +1.3247808375E-001  +1.2710268077E-001 +5.5763048192E-002  -8.5609153478E-002 -4.1635321562E-002 
17600000000.000 -7.4314627306E-002 -7.3123234488E-002  -1.3709006127E-002 -1.6146475097E-001  -2.7982779420E-002 +1.4013848946E-001  +3.5313625361E-002 -3.0973394072E-002 
17800000000.000 +7.9374326521E-003 +5.4649940406E-002  +1.0232384648E-001 +1.2094072451E-001  -1.4041912791E-001 +5.7300246244E-003  -1.2733735246E-002 +5.5106226903E-002 
18000000000.000 +2.2491451215E-002 -2.0519821490E-002  -1.5828014988E-001 -3.5002380780E-002  -1.3129534666E-002 -1.4206456964E-001  -5.6376856374E-002 -1.0871578859E-001 
18200000000.000 -2.8758760738E-002 -1.1549392975E-001  +1.3707102610E-001 -4.5071004262E-002  +1.2546626934E-001 -1.0895375938E-002  -4.7812157514E-002 +5.7058359171E-002 
18400000000.000 +5.1186776385E-003 +4.5338224978E-002  -7.1681627957E-002 +1.4560085856E-001  +3.7759493297E-002 +1.3644734287E-001  +1.6299062566E-002 -5.5902820006E-003 
18600000000.000 +1.0282929205E-002 -7.4242518466E-002  -6.5151742850E-002 -1.3890606982E-001  -1.1882001365E-001 +4.4448322392E-002  -5.9464057299E-002 -6.5670308209E-002 
18800000000.000 +2.9737368573E-003 +4.0273938968E-002  +1.2955293443E-001 +6.9523044411E-002  -8.3446271227E-002 -1.0902372018E-001  +4.5586414883E-003 -1.2054264424E-002 
19000000000.000 +8.5462501833E-002 -1.0767345618E-002  -1.4580995444E-001 +5.0075234864E-003  +1.0147563764E-001 -7.6205209627E-002  -3.3488415330E-002 -5.2869512719E-002 
19200000000.000 -3.2197164231E-002 -8.7880687014E-002  +1.1552328484E-001 -9.1465493103E-002  +7.8882564146E-002 +9.9155383033E-002  -1.8580768065E-002 +3.0988753349E-002 
19400000000.000 +6.1756774096E-002 +1.3445809266E-001  -4.2720506730E-002 +1.4592342216E-001  -8.7571323554E-002 +9.4611447774E-002  +1.0872969953E-001 -8.6280793689E-002 
19600000000.000 +4.0639719408E-002 -3.7973747676E-002  -6.4739772487E-002 -1.3083575141E-001  -1.1036732829E-001 -6.5244092183E-002  -9.8777278064E-002 -1.1603960107E-002 
19800000000.000 +3.5175607993E-002 +2.0548490935E-002  +1.4755011237E-001 +6.0989934192E-002  +7.7056722489E-002 -1.2301050153E-001  +2.4458222111E-002 -4.2659246601E-002 
20000000000.000 -1.3498860494E-002 +1.9584187672E-002  -1.4238155451E-001 +4.7245539241E-002  +9.3216719188E-002 +9.6590416287E-002  +6.6549985919E-004 +3.7853651361E-002 
20200000000.000 -2.4410719897E-003 -6.3840419302E-002  +1.0251532672E-001 -1.0069046278E-001  +3.2190892176E-002 +1.2890605909E-001  -4.5745740350E-002 -2.3173142190E-002 
20400000000.000 -1.5044759557E-002 +1.0489077343E-001  -3.2834824651E-002 +1.3775562341E-001  -1.2581496362E-001 +3.6899158974E-002  +1.3633201439E-002 -9.0371445393E-002 
20600000000.000 +7.1230119668E-003 +1.2033759709E-002  -6.6361090938E-002 -1.2069868905E-001  -4.7424336040E-002 -1.1660061634E-001  -2.7104087318E-002 +6.4711162417E-002 
20800000000.000 +4.6559705575E-002 -5.6168051845E-003  +1.3207226505E-001 +5.3006764704E-002  +1.2332925735E-001 -3.7810957171E-002  -3.8625623051E-002 -4.8727199008E-002 
21000000000.000 -7.2839634728E-002 +5.1182471531E-003  -1.1241346599E-001 +4.8232750795E-002  +1.6736584497E-003 +1.1516357798E-001  +2.4742393386E-002 -4.2632558767E-002 
21200000000.000 -4.0863906668E-003 +7.1173380355E-002  +5.2013655663E-002 -1.1629258152E-001  -1.1136402307E-001 +2.1865395392E-002  -1.2266984675E-001 +8.9437108908E-003 
21400000000.000 -2.5974834313E-002 -3.9064690515E-002  +2.0669688886E-002 +1.2893650492E-001  -4.2162196030E-002 -1.0842177276E-001  +8.9138248714E-002 -2.2052395259E-002 
21600000000.000 -6.8661393640E-003 +5.6960302812E-002  -8.9693369316E-002 -8.7789253609E-002  +7.1990885397E-002 -8.1057215284E-002  -5.6711433418E-002 -3.0552233121E-003 
21800000000.000 -6.0670102520E-002 -3.2054315726E-002  +1.1397660418E-001 +4.3532875257E-002  +9.6494224721E-002 +5.2517129648E-002  -1.5019526416E-002 -7.9338969705E-002 
22000000000.000 -3.7821560453E-002 -5.1206467513E-002  -1.0808766629E-001 +3.5259828461E-002  -3.7072894300E-002 +9.0176265442E-002  +1.4994116034E-002 +9.5868540276E-004 
22200000000.000 +5.3696793143E-002 +9.2024290883E-002  +6.8093818494E-002 -1.0492075589E-001  -1.0235315322E-001 -3.4477857476E-002  -4.0365300911E-002 +2.0837349978E-002 
22400000000.000 -6.0931544415E-002 -1.1674186733E-001  -3.5397495889E-003 +1.1484531277E-001  +2.4515332595E-002 -9.5507211540E-002  +1.0980358640E-001 -1.1454273832E-001 
22600000000.000 -1.2808069057E-002 +5.6514554555E-003  -7.3343512402E-002 -9.7195114895E-002  +1.0166198834E-001 +1.2001120259E-003  -8.1617037822E-002 +1.5504792169E-002 
22800000000.000 +1.3225549109E-002 +7.6163976407E-003  +1.0904163352E-001 +3.5584335262E-002  +3.1875754179E-003 +1.0555010973E-001  +2.3944303136E-002 -9.2869408248E-003 
