!  2-Port S-parameters saved by WinCal
! VAR MeasName=S-Parameters (CALIBRATED_DATA) read from VNA (MS4647B)
! VAR MeasDate=27-Apr-22 15:02:29
! VAR NAME=RAW_line_0.5mm_2
! VAR FILENAME=RAW_line_0.5mm_2.S2P
! VAR DATE=27-Apr-22 15:02:29
! VAR PHYS_PORTS=1,2
! VAR ObjTypeName=DATASET
! VAR IndexType=Frequency
! VAR ChuckHeaterState=Unknown
! VAR ChuckTemp=NaN
! VAR ChuckTempUnits=Unknown
!
# Hz S RI R 50
200000000.000 -1.7183362356E-002 -8.5109356782E-002  -2.3358793339E-001 -6.9040291240E-001  -3.5426074853E-001 -6.5146366085E-001  +2.1868450682E-002 -6.0581716358E-002 
400000000.000 +1.1839377582E-001 -9.2610417943E-002  -4.5030154202E-001 +5.1552623026E-001  -2.8622283773E-001 +6.3632284414E-001  -1.3347557040E-001 +8.9831361834E-004 
600000000.000 +5.8286163149E-002 -6.6813071996E-002  +5.6287798313E-001 +2.4684331374E-001  +5.8616215516E-001 -1.6762132150E-001  -4.4260138411E-002 +5.1162896205E-002 
800000000.000 +8.4034931383E-002 -2.1986218187E-001  -1.6483125787E-001 -6.4225816327E-001  -5.5279169376E-001 -3.3862070920E-001  +1.7391114052E-001 +6.7373694723E-002 
1000000000.000 +1.0383832665E-001 -1.9037601850E-001  -3.0929731057E-001 +6.3710535238E-001  +2.6109423594E-001 +6.2446593663E-001  +1.8795090529E-001 -5.7452757669E-002 
1200000000.000 +9.3489896142E-002 -2.4621251125E-001  +7.2704252732E-001 -8.5885605291E-002  +2.7032565015E-001 -6.2647885586E-001  -1.2631210497E-001 -1.5212878016E-001 
1400000000.000 +9.6155162264E-002 -1.8835067421E-001  -5.4202578733E-001 -4.9363548393E-001  -6.1790818193E-001 +2.7351009715E-001  -3.5536406713E-002 -5.0580661310E-002 
1600000000.000 +1.3876739939E-001 +1.4407785728E-001  -2.1038855959E-002 +6.2774803737E-001  +5.1061218303E-001 +2.0607086018E-001  -1.6147096132E-001 -6.6730313778E-002 
1800000000.000 +9.7555505611E-002 -1.4826984626E-002  +4.4855131351E-001 -2.7989346667E-001  -1.7694712320E-001 -4.2552675538E-001  +4.4862913062E-002 +1.1543393535E-001 
2000000000.000 +8.8122055121E-002 +3.2220606835E-002  -4.2780438806E-001 -1.6176022126E-001  -1.6696212827E-001 +3.4672603725E-001  +1.4105631987E-001 -1.8885173807E-002 
2200000000.000 +9.7331313267E-002 -1.8477533035E-001  +7.1743971382E-002 +4.0871045800E-001  +3.5837137360E-001 -7.7188769398E-002  -2.0829197750E-002 -2.5010484486E-001 
2400000000.000 -1.3458221642E-002 -1.2290874101E-001  +1.5279797283E-001 -3.9968162168E-001  -3.7414670600E-001 -1.1428829689E-001  -1.1506869433E-001 +3.2825151836E-002 
2600000000.000 +6.3184897008E-002 +7.1988169088E-002  -6.1378624501E-001 -4.4580869965E-001  -3.9855779903E-001 +3.3875415533E-001  +8.0565292608E-003 -4.2334540497E-002 
2800000000.000 +4.5020778083E-002 -2.1400592464E-001  +7.8255075236E-001 -3.8945354435E-001  -6.3856614445E-001 -3.3593610836E-001  -1.1968273592E-001 +9.7464689852E-002 
3000000000.000 +1.0451272793E-001 +6.1733014998E-002  -1.4287008513E-001 +8.5430813347E-001  +6.5278467920E-002 -7.5448106771E-001  -3.5976841888E-002 -4.9968093917E-002 
3200000000.000 +2.3970219568E-002 -7.6384921943E-002  -5.7942684629E-001 -5.3178365243E-001  +6.4369584829E-001 -2.5116788616E-001  -2.3206874367E-002 +7.2544929580E-002 
3400000000.000 +3.0009682797E-001 +4.1723309624E-002  +7.8991205357E-001 -1.3350677022E-001  +4.0445613905E-001 +6.1847674198E-001  -1.9820674666E-001 +6.5171169460E-002 
3600000000.000 +6.4649297834E-002 +1.3150226260E-003  -4.3097388753E-001 +7.2741081685E-001  -4.5640746246E-001 +7.3259603381E-001  -9.2891916724E-002 +3.0679151142E-002 
3800000000.000 -3.4612408224E-001 -1.5026770773E-001  -1.6356898767E-001 -8.5297650353E-001  -7.4677602672E-001 -3.1725060771E-001  +2.0121525624E-001 +1.4340019117E-001 
4000000000.000 +6.0991289026E-002 +1.2909144140E-001  +7.8130386066E-001 +4.0947800112E-001  +3.1380075282E-002 -7.6396300522E-001  -7.3050951645E-002 -6.6731502897E-002 
4200000000.000 +5.3379236031E-002 +1.5262630868E-001  -8.5969967152E-001 +2.5772844684E-001  +8.1933395860E-001 -1.8279044281E-001  -1.3789546945E-001 -1.0897435453E-001 
4400000000.000 -5.1469645209E-002 -8.4851004867E-002  +4.1670279373E-001 -7.5229576673E-001  +4.3923330891E-001 +7.7854579455E-001  +1.2108430197E-001 +5.7948515297E-002 
4600000000.000 +3.1182854279E-002 -9.3802758576E-002  +2.4909226861E-001 +8.1077080861E-001  -6.9125705092E-001 +4.6700975611E-001  +4.5611316415E-002 +1.4702598643E-001 
4800000000.000 -9.7513455229E-002 -1.8072930921E-002  -7.1186470249E-001 -4.6459278281E-001  -5.9299110751E-001 -5.4429749789E-001  +5.9512380032E-002 +2.0343864246E-002 
5000000000.000 -2.0392494675E-002 +3.6943520438E-002  +7.8635825626E-001 -1.3216140816E-001  +3.2406100572E-001 -7.9622222657E-001  -7.9354924609E-002 -3.5204201908E-002 
5200000000.000 +1.0982759476E-001 -2.9829288775E-001  -5.2542298593E-001 +5.8448923726E-001  +8.3205445809E-001 +3.4391129970E-001  +1.4840118431E-001 +2.2937784934E-001 
5400000000.000 -1.4100941948E-001 -8.2987367418E-002  -2.5950801748E-002 -7.6507745171E-001  -1.7518414958E-001 +7.8464940329E-001  +2.7764401951E-002 -1.7260419889E-001 
5600000000.000 +2.6644939237E-003 +8.1822777490E-002  +4.9178739891E-001 +5.2204438966E-001  -7.6412248300E-001 +9.2694607806E-002  +3.6259359737E-002 -1.1713330976E-001 
5800000000.000 +6.3597671766E-002 +8.1457276435E-002  -6.9191528090E-001 -1.0075877832E-002  -1.8361719377E-001 -7.7156496230E-001  -1.7343943831E-002 +1.0921896367E-001 
6000000000.000 +1.5419417267E-001 -4.1354001708E-002  +4.8464065413E-001 -4.1205280193E-001  +7.0888556039E-001 -2.2386448603E-001  -6.0554100951E-002 +1.5404423718E-001 
6200000000.000 +9.5731179213E-002 -7.5598080362E-002  -1.5145136907E-001 +6.1782407001E-001  +2.4298990055E-001 +6.5180946153E-001  +1.6524963093E-001 +1.0111494676E-001 
6400000000.000 -1.4817077751E-001 +1.9459702146E-002  -3.9913147743E-001 -4.7723514192E-001  -4.7543299778E-001 +4.9159033046E-001  -5.1273181939E-002 -1.4969138864E-001 
6600000000.000 +1.8178414841E-001 +1.5329515083E-002  +5.7564190652E-001 +2.4719740442E-001  -4.4711849628E-001 -5.1102639557E-001  +9.8140626560E-002 +1.9030426135E-001 
6800000000.000 -8.3813830330E-002 +2.3975652316E-002  -6.0128188022E-001 +1.7402929263E-001  +4.4737282754E-001 -5.1594149494E-001  -1.0753312046E-001 +4.2531798030E-002 
7000000000.000 -4.7264144899E-002 -8.6632608359E-002  +2.8750896730E-001 -5.3415983712E-001  +5.7325212051E-001 +2.0321838524E-001  -1.5709616604E-002 -1.2597561403E-001 
7200000000.000 +7.0820857362E-003 +6.3243389006E-003  +7.8657311592E-002 +5.9565849550E-001  -1.1607214096E-001 +5.6564396403E-001  +1.1400222618E-001 +1.8515888418E-003 
7400000000.000 -1.6333748505E-002 +1.4975399895E-001  -3.9157620640E-001 -4.0453761771E-001  -5.7041710292E-001 -9.5856827567E-002  -2.6391319903E-001 +8.9925755598E-002 
7600000000.000 +2.4920162533E-001 +5.5474370332E-002  +5.6869698573E-001 +4.9305852369E-002  +9.9269820751E-003 -5.5706824619E-001  +1.9909345054E-001 +7.5688873482E-002 
7800000000.000 -7.2866583765E-002 -8.7998602159E-002  -4.3162860213E-001 +3.3114340882E-001  +4.7488548582E-001 -1.2173426056E-001  +4.4981942022E-002 -3.8614830672E-002 
8000000000.000 +9.1701139093E-002 +3.9597104352E-002  +1.7135505146E-001 -5.0658639431E-001  +1.2317796416E-001 +5.0441573957E-001  +3.1236302648E-002 -1.3249199859E-002 
8200000000.000 -2.0852758247E-001 +7.3167938381E-002  +2.1692005478E-001 +4.3922300356E-001  -4.3944789760E-001 +1.9385965726E-001  -8.9159937839E-002 +1.0144092991E-002 
8400000000.000 +2.6833790175E-002 -3.1392669129E-002  -3.7382936448E-001 -2.6924168054E-001  -2.4250854585E-001 -3.8150585882E-001  +6.1405552255E-003 +3.4726703975E-002 
8600000000.000 +8.9078674632E-002 +1.3501008184E-003  +4.0722522244E-001 -9.4193542661E-002  +3.1603855592E-001 -2.6194894889E-001  +1.0517898061E-001 +2.5628465767E-002 
8800000000.000 -1.4675862849E-001 -4.9421389651E-002  -2.3929051661E-001 +3.2736728093E-001  +3.3908851591E-001 +2.2930878878E-001  -2.2769982413E-001 +3.9552000972E-002 
9000000000.000 +7.0539771857E-002 +1.9818071321E-002  -1.3946901890E-002 -3.7771382943E-001  -1.9877658555E-001 +3.4137600312E-001  +2.5357502105E-002 -8.3469259539E-002 
9200000000.000 +3.8373404293E-002 +1.0085477311E-001  +2.4087546855E-001 +2.8053367473E-001  -3.2705829113E-001 -1.6203776861E-001  +1.0219046836E-001 +1.2483564893E-001 
9400000000.000 +1.0774574315E-001 +2.3215926512E-002  -3.5645592066E-001 -1.8333835096E-002  +5.7767459969E-002 -3.5056758518E-001  -1.8029556276E-002 -8.4459882314E-002 
9600000000.000 -3.4558797231E-002 -1.0998856539E-001  +2.8448525646E-001 -2.0095681913E-001  +3.5165758199E-001 +3.1426157898E-002  -4.2259404942E-002 -9.9954983929E-002 
9800000000.000 +2.2889207621E-002 +3.1128315886E-002  -9.0360826107E-002 +3.2093965769E-001  +2.6467974050E-002 +3.4700582790E-001  +3.1995121002E-002 +6.9080182917E-003 
10000000000.000 -1.2338496087E-001 +6.4015528092E-002  -1.2352732860E-001 -2.8334125242E-001  -3.1213039952E-001 -3.6197977985E-002  +2.3031475946E-002 +1.1560768432E-001 
10200000000.000 -3.1303236298E-002 +2.0213137243E-002  +2.6362270419E-001 +1.8580723126E-001  -1.6888746452E-001 -2.6913364685E-001  +4.3743941575E-002 -5.4072422185E-002 
10400000000.000 +9.8108053547E-002 +5.4901477005E-002  -2.9640523548E-001 +1.9380266092E-002  +2.8407072862E-001 -1.5453561755E-001  -3.0417998337E-003 -7.8811544281E-002 
10600000000.000 -7.4994883175E-002 -2.3198787481E-002  +2.1038983625E-001 -2.0383623185E-001  +1.0575312999E-001 +2.7751793364E-001  -8.1874299493E-003 +1.3808185197E-001 
10800000000.000 -6.8733481149E-002 +2.0943934454E-002  -6.9868462253E-002 +2.7280607118E-001  -2.2319505865E-001 +1.8959133664E-001  +1.1955788216E-002 -5.3343011384E-002 
11000000000.000 +9.6558512820E-002 +1.9153350794E-002  -1.0268936568E-001 -2.6742656313E-001  -2.4940005931E-001 -1.6559209733E-001  +5.3229983948E-002 -2.9304027954E-002 
11200000000.000 -4.3078045546E-002 +4.8948941526E-002  +2.3517115066E-001 +1.3075030101E-001  +1.4092165558E-001 -2.5941479834E-001  -9.8234546271E-002 -3.9652431159E-002 
11400000000.000 +1.5844159270E-002 -1.3259141927E-001  -2.5934242727E-001 +3.3265298288E-002  +2.6870460717E-001 +1.1297024399E-001  +1.1719599585E-002 +8.6983600882E-003 
11600000000.000 +1.2534686649E-002 -3.7143562565E-002  +1.3686903806E-001 -2.0559328094E-001  -7.4238946232E-002 +2.5738364807E-001  +4.3240864688E-002 +1.1437843997E-001 
11800000000.000 -1.1923443291E-001 +1.1383497500E-001  +4.1459603669E-002 +2.3983065968E-001  -2.6586344696E-001 -2.9824015407E-002  +6.7957793593E-002 -1.7562704026E-001 
12000000000.000 +1.2798184181E-001 -2.9988732310E-003  -1.4250779922E-001 -1.8809790352E-001  +4.4875767827E-002 -2.5674287079E-001  -1.3755954341E-002 +4.5288700786E-002 
12200000000.000 -3.4265856392E-002 -1.2026929832E-002  +2.1386288058E-001 +8.9613768547E-002  +2.5460913728E-001 +3.3071725118E-002  -5.9141263406E-002 +2.2995745388E-002 
12400000000.000 -4.9938911298E-002 +6.3738232301E-002  -2.1614780083E-001 +4.1165387432E-002  -1.4704663414E-002 +2.4228257848E-001  +9.0089448303E-002 -6.2674770093E-002 
12600000000.000 -5.7668777973E-002 -1.2776806174E-002  +1.0027529047E-001 -1.9656608033E-001  -2.4627616763E-001 +3.5744531649E-002  -3.1599240206E-002 +6.7247008471E-002 
12800000000.000 +9.9298294545E-003 -1.0532541906E-002  +7.4223667980E-002 +2.0580215676E-001  -1.1611027180E-001 -2.2363842301E-001  +1.4166234524E-003 -9.3242344182E-002 
13000000000.000 +6.7598800584E-002 -1.2802413756E-002  -1.7574863357E-001 -1.2040839619E-001  +2.0162089697E-001 -1.3406127806E-001  -1.7727127225E-002 +1.0354598028E-001 
13200000000.000 -1.2672064930E-001 -1.9877475659E-001  +1.8584306173E-001 +4.9233600191E-002  +7.1020938875E-002 +1.8709092671E-001  +1.3267966254E-001 -2.9570014365E-002 
13400000000.000 +3.2793084615E-002 +9.3306022983E-002  -2.0654911475E-001 +1.2382614462E-002  -2.3045257621E-001 +5.4244287981E-002  +4.0417466139E-002 +9.0506349717E-003 
13600000000.000 -3.2955824104E-002 +1.1398908017E-002  +1.2199263148E-001 -1.7099331105E-001  -1.2386949174E-001 -2.0789465257E-001  -8.3087157792E-002 +1.1260369569E-002 
13800000000.000 +5.3490386082E-003 -5.9319404942E-002  +2.8707294865E-002 +2.0569904331E-001  +1.1458334828E-001 -1.9029790034E-001  +8.4925321839E-002 -9.6936312543E-003 
14000000000.000 +4.2019654651E-002 -1.6009869000E-002  -1.4949791671E-001 -1.2308540150E-001  +1.9069842009E-001 +7.3493658129E-002  +3.0923919423E-002 +1.1493912601E-001 
14200000000.000 -9.3550215970E-002 +9.2130979664E-003  +2.0501200602E-001 +2.8774448105E-002  -4.7660204668E-002 +2.0841389028E-001  -3.5248336794E-002 -7.3574099626E-002 
14400000000.000 +9.2524550063E-002 +2.6844554406E-002  -1.7294476338E-001 +8.6255490406E-002  -1.9283486905E-001 -8.1851048775E-002  -4.2655335697E-002 +5.4563496079E-002 
14600000000.000 +6.4313493840E-002 -4.0564820357E-002  +7.0119180790E-002 -1.7083999489E-001  +6.6915645014E-002 -1.7321622658E-001  +2.3652229759E-002 +5.1161486374E-002 
14800000000.000 -1.0978757936E-002 -5.4545598429E-003  +6.2578289229E-002 +1.8868902511E-001  +1.9953843253E-001 +1.6530219709E-002  +3.0102624414E-002 +5.3586813448E-002 
15000000000.000 -3.1341150411E-003 -4.8298524977E-002  -1.7337335542E-001 -8.8458518612E-002  +1.5526629681E-002 +1.9321947874E-001  -9.9647995666E-003 -8.2165357278E-002 
15200000000.000 -3.3575716385E-002 +1.0402160719E-001  +1.9545974949E-001 -3.0098944597E-002  -1.8426572856E-001 +2.6659836433E-002  -1.9808738493E-002 +3.8852198222E-002 
15400000000.000 +4.7397558638E-002 -8.5462582767E-003  -1.0986750552E-001 +1.5743570826E-001  -3.5122268558E-002 -1.7704517070E-001  -4.4641925760E-003 +9.1986789157E-002 
15600000000.000 -1.7819733692E-002 -3.8740021054E-002  +5.1945657916E-003 -2.0406945852E-001  +1.6499935032E-001 -9.3393510247E-002  -2.1953824035E-002 -7.6648508316E-002 
15800000000.000 -8.3455376341E-004 +4.3441165893E-002  +9.3938566520E-002 +1.8796685801E-001  +1.0257842658E-001 +1.5655523388E-001  +3.4796214426E-002 +9.8001134037E-002 
16000000000.000 +2.4979399012E-002 -2.6709786359E-002  -1.8158606517E-001 -7.3986703592E-002  -1.6433646187E-001 +7.0840053731E-002  -3.0351736136E-002 -5.4818753431E-002 
16200000000.000 -2.2471355291E-002 +8.2452963587E-002  +1.9239734269E-001 -5.1730979405E-002  -9.7204650982E-002 -1.4253544353E-001  -4.3320027323E-002 +5.9007781191E-002 
16400000000.000 +5.1362292326E-002 -1.6353097597E-002  -9.3560344298E-002 +1.6437148290E-001  +1.2101996736E-001 -1.1454489368E-001  +5.3311701646E-002 -3.2870188900E-002 
16600000000.000 -5.3819142777E-002 -3.2557735256E-002  -3.6474184870E-004 -1.8391189140E-001  +1.4282212621E-001 +9.0742563870E-002  -2.0800894912E-002 +1.9456927749E-002 
16800000000.000 -3.7117086813E-003 +7.1872663787E-002  +7.7948459869E-002 +1.6470746127E-001  -7.6555872439E-002 +1.3982932562E-001  -5.0437848059E-002 +6.9782449139E-002 
17000000000.000 -1.2599582001E-002 -1.2540546557E-002  -1.6689560061E-001 -7.5466523734E-002  -1.4410311180E-001 -6.8241776376E-002  +2.3388689379E-002 -9.7589304257E-002 
17200000000.000 +1.3573149279E-002 +4.5670872188E-003  +1.5205520416E-001 -8.8807914541E-002  +4.8575040803E-002 -1.4761512003E-001  -3.5525843448E-003 +1.3847238210E-001 
17400000000.000 -1.0220746095E-003 +6.7276255190E-002  -4.6011531962E-002 +1.5027760435E-001  +1.3930493353E-001 +2.3458995483E-002  -7.4561623049E-002 -2.9369016368E-002 
17600000000.000 -7.8576531221E-002 -5.5067796670E-002  -5.9997816320E-002 -1.5261998583E-001  +1.3201037042E-002 +1.4434132864E-001  +3.3851224281E-002 -1.3257785738E-002 
17800000000.000 -1.8642748960E-003 +5.9129048569E-002  +1.2933467808E-001 +8.9178736127E-002  -1.3312425832E-001 +4.1743953416E-002  -1.7576929098E-002 +6.4635328012E-002 
18000000000.000 +1.7226794718E-002 -1.3956224977E-002  -1.6064934515E-001 +9.5877742005E-003  -5.1282715541E-002 -1.3237836398E-001  -5.3917854350E-002 -9.5380210979E-002 
18200000000.000 -4.6086149894E-002 -1.0612346789E-001  +1.2612521354E-001 -8.1930787039E-002  +1.2393359311E-001 -4.4274290412E-002  -5.5008472715E-002 +7.9628905024E-002 
18400000000.000 -2.1900622912E-002 +4.5137504195E-002  -2.2279083267E-002 +1.5509339444E-001  +7.5716145964E-002 +1.1412843170E-001  +2.2891135612E-003 +1.4542262683E-002 
18600000000.000 +5.2040119389E-005 -8.3707299237E-002  -1.0049956293E-001 -1.1790998714E-001  -1.0394616671E-001 +7.5014013959E-002  -6.8478187821E-002 -5.7205220255E-002 
18800000000.000 -4.7426932002E-003 +3.6536738643E-002  +1.4239285408E-001 +3.1033749835E-002  -1.0927279493E-001 -8.1442927620E-002  +2.6712831553E-003 +3.3012159237E-003 
19000000000.000 +7.5241065140E-002 -2.7868934380E-002  -1.4350966212E-001 +4.9361502779E-002  +7.7760797504E-002 -1.0694858496E-001  -5.1900485420E-002 -3.9061974471E-002 
19200000000.000 -3.2784689064E-002 -1.0847758207E-001  +8.0628744671E-002 -1.1643228389E-001  +1.0017334107E-001 +6.9120199423E-002  -3.8746582380E-002 +3.0994974937E-002 
19400000000.000 +6.8410350530E-002 +1.1965695855E-001  +2.3159720814E-003 +1.5491998670E-001  -5.6825279352E-002 +1.1820612521E-001  +9.4790149593E-002 -8.6273476388E-002 
19600000000.000 +3.9801118794E-002 -5.2249988976E-002  -9.8898242050E-002 -1.0969624989E-001  -1.2529046072E-001 -3.3403497574E-002  -1.1446440809E-001 -1.1632909674E-003 
19800000000.000 +4.7792858958E-002 +6.7123235837E-003  +1.5859575156E-001 +1.1286089373E-002  +3.4219842350E-002 -1.3998864863E-001  +8.8086051498E-003 -3.5107904054E-002 
20000000000.000 -5.3581192946E-003 +1.8995655828E-002  -1.2221677266E-001 +8.7598001032E-002  +1.1756679333E-001 +6.4850422762E-002  -1.4029547093E-003 +3.7237369459E-002 
20200000000.000 +1.5007195309E-004 -6.7299309909E-002  +6.8208217848E-002 -1.2657693292E-001  +6.8633276067E-002 +1.1373030241E-001  -4.5529895878E-002 -9.9524145700E-003 
20400000000.000 -6.9718354489E-004 +9.9067844924E-002  +1.3652519910E-002 +1.4429546749E-001  -1.0964794750E-001 +7.7034520116E-002  -3.6995247605E-003 -7.5970058199E-002 
20600000000.000 +2.0284327219E-002 +1.6464773573E-002  -9.8044687630E-002 -9.3990398961E-002  -7.8704743214E-002 -9.5799383229E-002  -3.8703874193E-002 +7.1637034608E-002 
20800000000.000 +5.4654084505E-002 -7.2725384692E-003  +1.4056882380E-001 +9.7755946245E-003  +1.0484546787E-001 -7.3077286490E-002  -3.4335118236E-002 -3.4560081446E-002 
21000000000.000 -5.3980249098E-002 +7.0714574677E-003  -9.3987078278E-002 +8.7443167510E-002  +4.2349417382E-002 +1.1323139020E-001  +1.6958745717E-002 -1.6767062996E-002 
21200000000.000 +1.3211690721E-002 +8.4453115786E-002  +1.2216604646E-002 -1.2067790956E-001  -9.4177068230E-002 +5.2828444649E-002  -1.3567195941E-001 +2.4628253835E-002 
21400000000.000 -2.1801235924E-002 -2.6709632478E-002  +6.1485769342E-002 +1.1738003331E-001  -7.5354349089E-002 -9.0796613538E-002  +8.0478261641E-002 -1.7140237811E-002 
21600000000.000 +2.9166211794E-003 +6.5016444614E-002  -1.1221227632E-001 -5.7488925341E-002  +4.5062194026E-002 -9.9135252711E-002  -6.3863864503E-002 +1.2342392302E-002 
21800000000.000 -5.6311047508E-002 -8.6273369015E-003  +1.2409391209E-001 -3.6421252695E-003  +1.1106131437E-001 +1.1854644866E-002  -3.5746842976E-002 -6.3735230288E-002 
22000000000.000 -4.7260570793E-002 -3.4532555107E-002  -9.1051682175E-002 +6.4410631639E-002  -8.7439188582E-003 +9.5105031625E-002  +1.1124083550E-003 +4.0136145459E-003 
22200000000.000 +4.8671713201E-002 +1.0002865577E-001  +2.7738208172E-002 -1.2090401853E-001  -1.0697417335E-001 +2.3726583584E-003  -5.1970396214E-002 +3.1856522986E-002 
22400000000.000 -6.5872617781E-002 -1.0004437062E-001  +3.6657359785E-002 +1.1511148336E-001  -8.8641145929E-003 -1.0324602037E-001  +8.7922898623E-002 -1.1053632231E-001 
22600000000.000 -2.8095625532E-002 +2.3208803034E-002  -9.9263507109E-002 -6.1637030754E-002  +9.1316559555E-002 -3.3876091575E-002  -9.8743048366E-002 +1.0352752422E-002 
