!  2-Port S-parameters saved by WinCal
! VAR MeasName=S-Parameters (CALIBRATED_DATA) read from VNA (MS4647B)
! VAR MeasDate=27-Apr-22 15:18:04
! VAR NAME=RAW_line_5mm_2
! VAR FILENAME=RAW_line_5mm_2.S2P
! VAR DATE=27-Apr-22 15:18:04
! VAR PHYS_PORTS=1,2
! VAR ObjTypeName=DATASET
! VAR IndexType=Frequency
! VAR ChuckHeaterState=Unknown
! VAR ChuckTemp=NaN
! VAR ChuckTempUnits=Unknown
!
# Hz S RI R 50
200000000.000 -1.8649610944E-002 -8.3671498176E-002  -2.5380522045E-001 -6.8391209739E-001  -3.7323826587E-001 -6.4065804273E-001  +2.0421565611E-002 -6.4460763457E-002 
400000000.000 +1.1797910302E-001 -1.0469427815E-001  -4.1784116581E-001 +5.4059476803E-001  -2.4697535610E-001 +6.5226166800E-001  -1.3975435237E-001 +9.0188327276E-003 
600000000.000 +6.1976548083E-002 -6.5111939269E-002  +5.8171252674E-001 +1.9726722088E-001  +5.6894739488E-001 -2.1877507753E-001  -5.1160336184E-002 +5.3869683277E-002 
800000000.000 +7.7524137571E-002 -2.0243342305E-001  -2.3895342110E-001 -6.1992967003E-001  -5.9188796763E-001 -2.7062650976E-001  +1.5384233225E-001 +5.3959249164E-002 
1000000000.000 +1.2958855767E-001 -1.9574228072E-001  -2.1111705325E-001 +6.7500044579E-001  +3.5214048018E-001 +5.7578998357E-001  +2.1895972225E-001 -6.1239846511E-002 
1200000000.000 +7.4929340697E-002 -2.4216365558E-001  +7.0141986820E-001 -2.0960130235E-001  +1.5771021268E-001 -6.6484190068E-001  -1.2263619936E-001 -1.3377823776E-001 
1400000000.000 +5.0392336974E-002 -1.7264777563E-001  -6.3237423823E-001 -3.7175453480E-001  -5.4677807446E-001 +3.9580432050E-001  -1.2678186124E-002 -4.3213198548E-002 
1600000000.000 +1.8848737631E-001 +1.2285805382E-001  +1.2073477051E-001 +6.1102979376E-001  +5.4101833247E-001 +8.3646499852E-002  -1.8478445108E-001 -5.9086534625E-002 
1800000000.000 +7.9700138390E-002 -8.9469776813E-003  +3.6024945251E-001 -3.8490574203E-001  -2.8187744884E-001 -3.6357817888E-001  +3.5525127612E-002 +1.0983944218E-001 
2000000000.000 +1.1161378993E-001 +2.6725414782E-002  -4.5338938301E-001 -3.4442111620E-002  -5.9825732260E-002 +3.7828316439E-001  +1.6389465292E-001 -9.1457238326E-003 
2200000000.000 +4.2207980939E-002 -1.6182731533E-001  +2.0600938642E-001 +3.6743292525E-001  +3.1749833519E-001 -1.9409154017E-001  -4.4387402960E-002 -2.1371304168E-001 
2400000000.000 +2.6528989097E-002 -1.5428991863E-001  +1.0123309655E-002 -4.1796018636E-001  -3.8352261051E-001 +1.9512269359E-002  -1.4482012429E-001 +3.1379594558E-004 
2600000000.000 +5.9089428070E-002 +4.3582210667E-002  -7.3250612933E-001 -1.8736820880E-001  -2.4537399694E-001 +4.5990933323E-001  +4.1599325427E-003 -2.7649623905E-002 
2800000000.000 +5.7112108560E-002 -1.9233767227E-001  +5.6195640856E-001 -6.6774206245E-001  -7.1771366114E-001 -5.3337313005E-002  -1.1746390114E-001 +7.9380192115E-002 
3000000000.000 -1.9478782209E-003 +3.7736408312E-002  +2.4548088159E-001 +8.4155523300E-001  -2.6857227085E-001 -7.1546580405E-001  +4.2226361842E-002 -1.9578797549E-002 
3200000000.000 -1.1844212526E-001 -2.2256747685E-001  -7.1131397613E-001 -1.8780893381E-001  +4.2747154197E-001 -4.9110308763E-001  +7.7929929288E-002 +1.7038314234E-001 
3400000000.000 +2.9019192938E-001 -8.2388245934E-002  +6.4520807030E-001 -4.8870947711E-001  +6.5187206808E-001 +3.6061228019E-001  -1.5231514850E-001 +1.3772710433E-001 
3600000000.000 +7.9366121315E-002 +5.5853164919E-002  -4.3694993017E-003 +8.4039775362E-001  -2.1055497335E-002 +8.6120897168E-001  -3.8218647588E-002 -2.9009121344E-002 
3800000000.000 -3.5858571919E-001 -2.8360851474E-002  -5.8008778949E-001 -6.4856412846E-001  -7.9862689344E-001 +1.1481563593E-001  +2.5573862758E-001 +1.1784696357E-001 
4000000000.000 +1.0343723658E-001 +9.8843574411E-002  +8.7171065995E-001 -9.0206433644E-002  -3.9520679977E-001 -6.4879723053E-001  -8.9307561528E-002 -7.0754946503E-003 
4200000000.000 +1.9210522526E-001 +1.6111523086E-001  -5.5613212297E-001 +6.8918879797E-001  +5.6448342773E-001 -6.0202723206E-001  -2.2937401656E-001 -6.5604075493E-002 
4400000000.000 -6.1859818997E-002 -7.6516430504E-002  -1.1522368071E-001 -8.4839700557E-001  +8.1335107143E-001 +3.6156955695E-001  +1.1398226675E-001 +2.1796023746E-003 
4600000000.000 -5.8332049168E-002 -1.4336208054E-001  +6.8990293455E-001 +4.8568036919E-001  -2.6220503653E-001 +7.9246568633E-001  +1.4266595701E-001 +9.0471458358E-002 
4800000000.000 -1.2890995247E-001 +4.7638243698E-002  -8.4031557845E-001 +9.6638509336E-002  -7.9702016182E-001 -4.1724207165E-002  +8.5304049238E-002 -6.7641012888E-002 
5000000000.000 -6.4681859038E-002 +2.3969089106E-001  +4.8027577216E-001 -6.0295985696E-001  -2.8876645251E-001 -7.8346969635E-001  -1.2070089973E-001 -1.5108481866E-001 
5200000000.000 -1.6317793163E-002 -1.7477297974E-001  +1.4814148271E-002 +7.9033666161E-001  +8.4167511942E-001 -3.1629739124E-001  +1.6394684014E-001 +1.9488021616E-001 
5400000000.000 -1.4718482030E-001 -1.4528275821E-002  -5.6167681106E-001 -5.2421407215E-001  +4.3636324115E-001 +6.8231891116E-001  -6.1573262248E-002 -8.3359292818E-002 
5600000000.000 +1.3440303325E-002 +9.1343921508E-002  +7.1319527461E-001 +1.1013817234E-003  -4.5392194999E-001 +6.1292705876E-001  -9.0448736563E-002 -9.1392065707E-002 
5800000000.000 -2.2687359136E-002 -2.4097808951E-002  -4.4954608911E-001 +5.0403823359E-001  -6.8070938821E-001 -3.5257278443E-001  +2.2697684622E-002 -5.8041262562E-002 
6000000000.000 +8.5377509928E-002 -1.5117828821E-001  +5.5508480984E-003 -6.4477809368E-001  +3.0382405518E-001 -6.8676319659E-001  +6.3512483935E-002 +8.1515771389E-002 
6200000000.000 +1.8402555879E-002 -8.0513377170E-002  +3.8871492584E-001 +5.0340670628E-001  +6.5974950088E-001 +2.1489380421E-001  +1.5313564137E-001 +6.2029634036E-002 
6400000000.000 -2.5414918360E-001 +8.0018050544E-002  -5.9764931245E-001 +2.9198910687E-002  +9.5490684852E-002 +6.4857288556E-001  -1.6876817120E-001 -2.8906587104E-001 
6600000000.000 +1.5093386911E-001 +5.8427080355E-003  +5.3263684804E-001 -3.2876384681E-001  -6.7777196922E-001 +6.9091593502E-002  +1.2450422454E-001 +4.2899350342E-002 
6800000000.000 -8.8475128413E-003 +9.3301410960E-002  -1.8700515448E-001 +5.8708024752E-001  -1.7197895231E-001 -6.5078057855E-001  -5.2288490461E-002 +1.2319755831E-001 
7000000000.000 -2.3549407539E-002 -2.1171930369E-002  -3.0528335813E-001 -5.2575206127E-001  +4.7719809193E-001 -3.8530801053E-001  +3.6025873960E-003 -2.3328262823E-002 
7200000000.000 -6.0443464572E-002 -9.8451235503E-002  +5.4162686866E-001 +2.2637769844E-001  +4.2118919167E-001 +3.7970129401E-001  +1.5537787866E-001 -3.9261188619E-002 
7400000000.000 -2.9472077470E-002 -3.3144972205E-003  -5.4691156349E-001 +1.5970089919E-001  -3.5436259029E-001 +4.6979920718E-001  -1.8642000877E-001 +2.6933647687E-002 
7600000000.000 +1.5789077247E-001 -2.6583592798E-002  +2.9842078442E-001 -4.9309129127E-001  -4.9695400723E-001 -2.5859034081E-001  +1.5619833624E-001 +9.1061540864E-003 
7800000000.000 -1.9980278967E-001 -1.6480705372E-001  +9.6215938121E-002 +5.2603581983E-001  +1.0760864214E-001 -4.7154744108E-001  -2.1943819031E-002 -1.2139174078E-001 
8000000000.000 +1.0752064243E-001 -2.1384346579E-002  -3.9617323879E-001 -3.5640346338E-001  +5.0923597639E-001 +8.4248637179E-002  -1.6629473989E-003 -3.0408708660E-002 
8200000000.000 -1.2704163523E-001 +1.3432668833E-001  +4.8936499039E-001 -3.0102905348E-002  +1.0310289147E-002 +4.8079193516E-001  -8.6186658293E-002 +7.4284717716E-002 
8400000000.000 +7.9066471252E-002 +2.3697086402E-002  -3.8030397467E-001 +2.5666355386E-001  -4.3938830422E-001 +9.4177297147E-002  +1.7138944431E-002 +2.1944934054E-002 
8600000000.000 +1.6500519333E-001 -6.0122040544E-003  +3.9509525591E-002 -4.0026817937E-001  -1.4109217681E-001 -3.7107778931E-001  +2.1638241014E-001 -4.3821725039E-002 
8800000000.000 -1.0003974840E-001 -5.1040020981E-002  +2.4767411001E-001 +3.2625860491E-001  +3.2069376348E-001 -2.6161904561E-001  -1.2866788628E-001 +3.0149911617E-002 
9000000000.000 -1.8755443726E-002 -9.1364429305E-003  -3.6095529304E-001 -9.3119473075E-002  +2.6747638918E-001 +2.8287675559E-001  -2.4882482422E-002 -3.5940035663E-002 
9200000000.000 -7.7652446286E-002 +2.4392379357E-002  +3.3014020559E-001 -1.8495695436E-001  -2.2761502135E-001 +2.9422303947E-001  +1.4626596979E-002 +1.2462252968E-001 
9400000000.000 +6.8584473931E-002 -1.0543917241E-002  -9.1683886551E-002 +3.4441715286E-001  -3.3058571286E-001 -1.2967558906E-001  -2.0866251202E-002 -5.0393079792E-002 
9600000000.000 -8.6422790877E-002 -9.3673483145E-002  -1.3878114278E-001 -3.1682263924E-001  +1.0001257101E-001 -3.3605048255E-001  -4.6185341559E-002 +8.8345067430E-003 
9800000000.000 +1.9750642615E-002 -2.1899840530E-002  +3.0518850088E-001 +1.4125244836E-001  +3.4912347677E-001 +2.9094644689E-002  -3.9325492156E-002 +4.6858169150E-002 
10000000000.000 -2.4973666276E-002 +4.8449965057E-002  -3.0379232878E-001 +9.7994125273E-002  -6.9703012670E-002 +3.1640796865E-001  -1.3909597366E-002 +3.7215336359E-002 
10200000000.000 +4.4432067817E-002 +2.7812686123E-002  +2.0782790108E-001 -2.3622527979E-001  -2.7906943542E-001 +1.3501705504E-001  +2.4655872558E-003 -9.7967344947E-002 
10400000000.000 +1.2143001947E-001 -1.5499536639E-002  -4.8712130401E-003 +2.9126665748E-001  -1.2728611211E-001 -2.9006675073E-001  -6.5238123617E-002 -5.9747153444E-002 
10600000000.000 -1.6856351608E-002 -9.1716968590E-002  -2.0343800859E-001 -2.1169589514E-001  +2.7863641087E-001 -1.0412567913E-001  -6.4604916888E-002 +1.3051223006E-001 
10800000000.000 -6.1421814835E-002 +2.0275601841E-002  +2.7033828242E-001 +6.9771112496E-002  +1.8728275977E-001 +2.2186572660E-001  +2.5021647871E-002 -5.6082872776E-002 
11000000000.000 +7.5163793755E-002 +1.0372964856E-002  -2.6317448923E-001 +1.1074259309E-001  -1.5742695611E-001 +2.5324509467E-001  +9.9980362460E-002 +6.5622858028E-003 
11200000000.000 -5.3847783564E-003 +7.4433679221E-002  +1.1594006268E-001 -2.4007142025E-001  -2.6408317419E-001 -1.2584221595E-001  -1.0047814149E-001 -4.0402621376E-002 
11400000000.000 +5.0851001969E-002 -3.8905338624E-002  +5.7858111687E-002 +2.5625296739E-001  +8.8444254022E-002 -2.7940349661E-001  +1.1918936050E-002 -1.7143491562E-002 
11600000000.000 +2.6749092878E-004 +5.6167542434E-003  -2.2000568918E-001 -1.1295798976E-001  +2.6420928524E-001 +4.5164906061E-002  +2.5269035741E-002 +1.4067679492E-001 
11800000000.000 -1.1083408220E-001 +7.6255396725E-002  +2.3556959833E-001 -7.8328248773E-002  +9.8647200889E-003 +2.7133959999E-001  -3.4605557712E-003 -1.0782786309E-001 
12000000000.000 +1.5505878220E-001 -3.2298011118E-002  -1.5742418645E-001 +1.6683330292E-001  -2.5281093685E-001 -2.5220641181E-003  -7.7628323425E-002 +5.0973601130E-002 
12200000000.000 -4.3929779826E-002 -7.8425539653E-002  +4.7679860863E-002 -2.2184273291E-001  -1.2960992782E-002 -2.5094098009E-001  -4.3162404083E-002 +5.4209253351E-002 
12400000000.000 -1.5340803118E-002 -2.3666974944E-002  +9.8031428479E-002 +2.0501608308E-001  +2.4609487261E-001 -4.8846843091E-002  +7.9343310582E-002 -6.8355539934E-003 
12600000000.000 +1.5642836824E-002 -3.3588258353E-002  -2.1518979952E-001 -4.0445459880E-002  +1.0205355406E-001 +2.2482861495E-001  -6.6838646949E-002 +5.3653251298E-002 
12800000000.000 +6.0503784881E-002 +4.2374661455E-002  +1.7056755076E-001 -1.2554809551E-001  -1.7598442591E-001 +1.6881649085E-001  -8.2592367330E-003 -1.2404697753E-001 
13000000000.000 +1.0591010365E-001 +1.4465703368E-002  -5.8292655430E-002 +1.9749555617E-001  -1.8273407095E-001 -1.4575583959E-001  -4.3766147002E-002 +1.4651661318E-001 
13200000000.000 -6.6129159031E-002 -1.4070709185E-001  -3.0523396383E-002 -2.0796833313E-001  +1.5844747126E-001 -1.5180954708E-001  +2.9048710999E-002 -3.1534458296E-003 
13400000000.000 +2.8597088936E-002 +1.6344484213E-001  +7.8630843363E-002 +1.7248180741E-001  +1.2227124901E-001 +1.7985408682E-001  -2.6052781068E-002 -5.5293233230E-002 
13600000000.000 -4.0030406325E-002 +1.0763174584E-002  -2.0333427556E-001 -4.5397562598E-002  -1.4204185495E-001 +1.9318518150E-001  -1.0449434460E-001 +7.1666729880E-003 
13800000000.000 +3.6331105248E-002 -8.1676328028E-002  +1.7349434834E-001 -1.1532159008E-001  -2.2165992489E-001 -2.1308051125E-002  +4.1709771399E-002 +5.5188723446E-003 
14000000000.000 +4.7729344028E-002 +2.5400849054E-002  -3.4770339659E-002 +1.8890470459E-001  -2.7808117747E-002 -2.0114158311E-001  -2.5947634089E-002 +6.2266852271E-002 
14200000000.000 -1.4401444273E-001 +3.9244154673E-002  -5.9952326875E-002 -1.8311209249E-001  +1.9390381910E-001 -4.5462188100E-002  -3.6783892417E-002 -1.5967943087E-001 
14400000000.000 +7.3985893103E-002 +4.4346576255E-002  +1.5932100695E-001 +1.0458109112E-001  +2.5422714569E-002 +2.0502128925E-001  -4.7674943167E-002 +2.9667579759E-002 
14600000000.000 +6.0054089397E-002 +1.1777142495E-002  -1.8297922888E-001 +3.7590115249E-002  -1.8297303736E-001 +4.2256658706E-002  -2.6493308965E-002 +2.2016799628E-002 
14800000000.000 -5.4978705176E-002 +2.5379630697E-002  +1.2122345850E-001 -1.4594096460E-001  -8.7238435086E-002 -1.6968845453E-001  +1.9965914658E-003 +1.4980839805E-002 
15000000000.000 -1.4957072647E-002 -6.7705349254E-002  +2.4998524861E-002 +1.9009671515E-001  +1.4836572256E-001 -1.1984085071E-001  +6.0422137446E-003 -8.7689413077E-002 
15200000000.000 -2.0371477792E-002 +9.2696189202E-002  -1.3821596985E-001 -1.3762851974E-001  +1.2875507317E-001 +1.3085662934E-001  -2.9177943027E-002 +3.8176136539E-002 
15400000000.000 +2.4523134494E-002 -1.9364656441E-002  +1.9047808266E-001 -1.3990087014E-002  -1.1423713705E-001 +1.3795997824E-001  -2.5540351063E-002 +5.0289726592E-002 
15600000000.000 -3.3789328922E-002 -6.5652808648E-002  -1.5856530676E-001 +1.1983127994E-001  -1.7024891408E-001 -6.9882871347E-002  -1.7076280370E-002 -1.2597012151E-001 
15800000000.000 -5.5869823813E-003 +4.8832299310E-002  +7.8360940156E-002 -1.9231919131E-001  +5.0213084694E-002 -1.7802641152E-001  +2.0580863619E-002 +8.2597452335E-002 
16000000000.000 -1.1385134376E-002 -1.5798705425E-002  +7.2618019216E-002 +1.7804007857E-001  +1.6232923135E-001 +6.7333630273E-002  -5.2573159489E-002 -7.8987318935E-002 
16200000000.000 -3.8928895395E-002 +6.0847398671E-002  -1.6784413758E-001 -9.8745510932E-002  -3.3680219734E-002 +1.6545656820E-001  -3.8384559172E-002 +3.9251627549E-002 
16400000000.000 +6.3440052197E-002 -1.6689247277E-002  +1.7875298140E-001 -5.3118366546E-002  -1.6438409677E-001 -1.6278427005E-003  +6.4351392828E-002 -3.1948604461E-002 
16600000000.000 -6.4443568205E-002 -3.6598437904E-002  -1.2182248228E-001 +1.3611291977E-001  -4.4842884622E-002 -1.6215482395E-001  -3.8354535451E-002 +3.7821687409E-003 
16800000000.000 -8.6707348586E-003 +3.7118989623E-002  +4.0206135871E-002 -1.7066220073E-001  +1.4173700138E-001 -5.8755547597E-002  -4.2644061694E-002 +2.9666560823E-002 
17000000000.000 +1.3012944237E-002 -2.9600245972E-002  +7.8408910345E-002 +1.6358560667E-001  +6.5493893850E-002 +1.4383926606E-001  +3.6921645929E-002 -1.2174017367E-001 
17200000000.000 +1.2983172637E-004 +4.9407956176E-003  -1.7426617675E-001 -2.0895241258E-002  -1.2764014086E-001 +8.7692829421E-002  -2.2329742931E-002 +1.2889080445E-001 
17400000000.000 -2.0445977125E-002 +3.8547647453E-002  +1.1497142029E-001 -9.7129491688E-002  -9.9504794825E-002 -9.1282387665E-002  -9.3029840083E-002 -6.4074207271E-002 
17600000000.000 -5.6290869518E-002 -9.1152287513E-002  -4.0120201148E-002 +1.4931693154E-001  +7.1235849472E-002 -1.1641565164E-001  +5.2459943338E-002 -4.9916275801E-002 
17800000000.000 +2.3228509683E-002 +5.9272442001E-002  -6.2257824732E-002 -1.4648328002E-001  +1.3639941939E-001 +3.6519464104E-002  +1.0324302585E-003 +5.2115465163E-002 
18000000000.000 +2.7429784773E-002 -2.1727276535E-002  +1.4237837066E-001 +7.4357600433E-002  -2.4485670144E-002 +1.3945049447E-001  -5.4836877796E-002 -1.1950486135E-001 
18200000000.000 -1.3798261260E-002 -1.1767208146E-001  -1.3768777245E-001 +1.6178610357E-002  -1.2010997897E-001 -1.4426367173E-002  -3.4571523835E-002 +4.3106956242E-002 
18400000000.000 +2.3720752692E-002 +5.9013703454E-002  +1.0438826665E-001 -1.2341809246E-001  -3.2909518276E-003 -1.4105507919E-001  +3.6746355968E-002 -1.1533765371E-002 
18600000000.000 +1.2756534218E-002 -6.5823688183E-002  +4.2466316481E-002 +1.4604223016E-001  +1.2342267027E-001 -2.4860096560E-002  -5.3103546815E-002 -6.6695797387E-002 
18800000000.000 +5.0888705820E-003 +4.2460375741E-002  -1.1843430023E-001 -8.5194300864E-002  +6.7712695501E-002 +1.1849720063E-001  +7.6280888761E-003 -1.7451340403E-002 
19000000000.000 +8.6172268162E-002 -3.7281975024E-003  +1.4177074501E-001 +8.9636780579E-003  -1.0574065984E-001 +6.3825731930E-002  -2.5787943718E-002 -5.4602475535E-002 
19200000000.000 -3.5282450632E-002 -8.3328583715E-002  -1.2181119026E-001 +8.2112395377E-002  -7.0403799786E-002 -1.0485298204E-001  -1.3435486533E-002 +3.4228039398E-002 
19400000000.000 +5.9855441750E-002 +1.3589900182E-001  +4.7256071724E-002 -1.4229659703E-001  +9.0027748535E-002 -8.9705929440E-002  +1.1045762199E-001 -8.4783582526E-002 
19600000000.000 +4.0494623289E-002 -3.7640871695E-002  +6.3605081337E-002 +1.2956116088E-001  +1.0854001958E-001 +6.5414647938E-002  -9.9702227047E-002 -1.0999452403E-002 
19800000000.000 +3.5779466410E-002 +1.7945900666E-002  -1.4772505447E-001 -5.5742801731E-002  -7.2889455634E-002 +1.2311254373E-001  +2.2986256476E-002 -4.2374450064E-002 
20000000000.000 -1.1061571568E-002 +1.9788217800E-002  +1.3766170413E-001 -5.5213741311E-002  -9.7189031059E-002 -9.0071344481E-002  +1.4837624015E-003 +3.7713665386E-002 
20200000000.000 -2.2306863050E-003 -6.4117264386E-002  -9.1904262417E-002 +1.0842051297E-001  -4.2535171765E-002 -1.2397252686E-001  -4.5414470042E-002 -1.7907644433E-002 
20400000000.000 -9.5740348685E-003 +1.0199607426E-001  +1.4090782781E-002 -1.4065427021E-001  +1.1966620636E-001 -5.2636896847E-002  +4.8292765216E-003 -8.5030718647E-002 
20600000000.000 +1.5151325046E-002 +1.5104438150E-002  +8.2207508028E-002 +1.0669057041E-001  +6.2648805824E-002 +1.0586371714E-001  -3.3368837539E-002 +6.6536073034E-002 
20800000000.000 +5.0302104347E-002 -5.7238568710E-003  -1.3719516632E-001 -2.7210925463E-002  -1.1239675048E-001 +5.8487806616E-002  -3.4557972807E-002 -3.9949967103E-002 
21000000000.000 -5.9713578193E-002 +5.2735465209E-003  +9.9764512252E-002 -7.5559670633E-002  -2.9558739750E-002 -1.1410691061E-001  +1.7987300829E-002 -2.3319185927E-002 
21200000000.000 +1.0841151803E-002 +8.3050017486E-002  -1.9745962623E-002 +1.1869217751E-001  +9.6822234942E-002 -4.5894087094E-002  -1.3464541003E-001 +2.0027144346E-002 
21400000000.000 -2.3506722367E-002 -2.7627087702E-002  -5.5593764493E-002 -1.1777363613E-001  +6.9932492042E-002 +9.2484182804E-002  +8.3459007002E-002 -1.7970591767E-002 
21600000000.000 +2.1798395325E-003 +6.2783226010E-002  +1.1071608951E-001 +5.7918766387E-002  -4.5830592118E-002 +9.7658433767E-002  -6.2455120504E-002 +1.3321374047E-002 
21800000000.000 -5.2527478523E-002 -7.4246002203E-003  -1.2160430720E-001 +7.1342585958E-003  -1.0917510105E-001 -8.7974472113E-003  -3.7009827388E-002 -6.0970772473E-002 
22000000000.000 -4.7826896387E-002 -3.0851514583E-002  +8.6798061792E-002 -6.6800484900E-002  +5.0287322235E-003 -9.3578020708E-002  +3.7449715232E-005 +4.4693195981E-003 
22200000000.000 +4.7880588637E-002 +1.0169258562E-001  -1.8266328011E-002 +1.2069739837E-001  +1.0463850350E-001 -9.9703514730E-003  -5.1686424998E-002 +3.6192218901E-002 
22400000000.000 -6.1926492225E-002 -9.4609427031E-002  -5.0297405137E-002 -1.1006665159E-001  +2.0884034910E-002 +1.0170450028E-001  +8.2242455092E-002 -1.0350711001E-001 
22600000000.000 -2.9704975537E-002 +3.3619652620E-002  +1.0250016189E-001 +4.5707275309E-002  -8.2578083934E-002 +4.3963624706E-002  -1.0634949618E-001 +1.0845923081E-002 
