!  2-Port S-parameters saved by WinCal
! VAR MeasName=S-Parameters (CALIBRATED_DATA) read from VNA (MS4647B)
! VAR MeasDate=27-Apr-22 15:07:42
! VAR NAME=RAW_line_1mm_2
! VAR FILENAME=RAW_line_1mm_2.S2P
! VAR DATE=27-Apr-22 15:07:42
! VAR PHYS_PORTS=1,2
! VAR ObjTypeName=DATASET
! VAR IndexType=Frequency
! VAR ChuckHeaterState=Unknown
! VAR ChuckTemp=NaN
! VAR ChuckTempUnits=Unknown
!
# Hz S RI R 50
200000000.000 -1.7639675601E-002 -8.4421355703E-002  -2.3531078483E-001 -6.9081333988E-001  -3.5724203162E-001 -6.5087487160E-001  +2.2211760018E-002 -6.0553538834E-002 
400000000.000 +1.1935286711E-001 -9.3731208123E-002  -4.4732342723E-001 +5.1934432990E-001  -2.8174179595E-001 +6.3943100640E-001  -1.3449166915E-001 +1.1161754465E-003 
600000000.000 +5.8896699559E-002 -6.7079926881E-002  +5.6525948145E-001 +2.4195825321E-001  +5.8531109749E-001 -1.7337909477E-001  -4.5355024405E-002 +5.1742348978E-002 
800000000.000 +8.2428215506E-002 -2.1807947316E-001  -1.7264996658E-001 -6.4127424803E-001  -5.5867522162E-001 -3.3142848856E-001  +1.7239343662E-001 +6.4959725110E-002 
1000000000.000 +1.0686691298E-001 -1.8952443500E-001  -2.9953276341E-001 +6.4315828488E-001  +2.7243482644E-001 +6.2058225955E-001  +1.9079757268E-001 -5.6679998847E-002 
1200000000.000 +9.1819182309E-002 -2.4566129407E-001  +7.2617668870E-001 -9.9714429859E-002  +2.5793999786E-001 -6.3323092459E-001  -1.2570594620E-001 -1.5007528026E-001 
1400000000.000 +9.0116481188E-002 -1.8832936285E-001  -5.5397297239E-001 -4.8200154388E-001  -6.1232279408E-001 +2.8888147408E-001  -3.3809986981E-002 -4.9116549902E-002 
1600000000.000 +1.4406024536E-001 +1.4293426510E-001  -5.3959773608E-003 +6.2839562415E-001  +5.1668425525E-001 +1.9265788730E-001  -1.6362004148E-001 -6.6290707417E-002 
1800000000.000 +9.5471455809E-002 -1.4180543268E-002  +4.4070598455E-001 -2.9312917635E-001  -1.9048815326E-001 -4.2022341036E-001  +4.3545604054E-002 +1.1399989759E-001 
2000000000.000 +9.1504257544E-002 +3.2278573951E-002  -4.3271985414E-001 -1.4806509680E-001  -1.5507877554E-001 +3.5251753642E-001  +1.4364180007E-001 -1.6299958221E-002 
2200000000.000 +9.0693646351E-002 -1.8484300074E-001  +8.6787828120E-002 +4.0731872201E-001  +3.5657067606E-001 -9.1214936338E-002  -2.4404446269E-002 -2.4779287253E-001 
2400000000.000 -7.8644002888E-003 -1.2470526252E-001  +1.3685544075E-001 -4.0493234824E-001  -3.7831515172E-001 -9.9148187977E-002  -1.1720309472E-001 +2.8466221909E-002 
2600000000.000 +6.3836480794E-002 +6.9705046133E-002  -6.3285643090E-001 -4.1893959572E-001  -3.8405551874E-001 +3.5576259599E-001  +7.9094196141E-003 -4.0785378442E-002 
2800000000.000 +4.4242523671E-002 -2.1146455174E-001  +7.6447013332E-001 -4.2673959036E-001  -6.5401105849E-001 -3.0490858758E-001  -1.1865241088E-001 +9.6704438883E-002 
3000000000.000 +9.4545270247E-002 +5.3120495382E-002  -9.9712457780E-002 +8.6349026683E-001  +2.7430022667E-002 -7.5858885300E-001  -3.0143178058E-002 -4.3138349961E-002 
3200000000.000 +1.6535523406E-002 -1.0047761577E-001  -6.0737576657E-001 -4.9425607035E-001  +6.2564681614E-001 -2.8702139220E-001  -1.6740231685E-002 +8.8075053074E-002 
3400000000.000 +3.0475739674E-001 +2.8616498600E-002  +7.8245659927E-001 -1.7703478366E-001  +4.3882553625E-001 +5.9618562243E-001  -1.9577996911E-001 +7.5806699485E-002 
3600000000.000 +6.2610659048E-002 +7.1285767282E-003  -3.8593569093E-001 +7.5324370539E-001  -4.1111318479E-001 +7.6013853083E-001  -8.4583175522E-002 +2.8788405438E-002 
3800000000.000 -3.5374357576E-001 -1.3854218375E-001  -2.1681653415E-001 -8.4230419911E-001  -7.6574571576E-001 -2.6938768084E-001  +2.0780708589E-001 +1.4273169633E-001 
4000000000.000 +6.7454959981E-002 +1.2982219213E-001  +8.0780692737E-001 +3.5578500996E-001  -2.0446572603E-002 -7.6506353981E-001  -7.7192647071E-002 -6.2402833936E-002 
4200000000.000 +6.6611132440E-002 +1.6240707402E-001  -8.3915492962E-001 +3.1732067606E-001  +8.0367391055E-001 -2.3921300524E-001  -1.5001692423E-001 -1.0884043190E-001 
4400000000.000 -5.2573615928E-002 -8.5822805438E-002  +3.6002088450E-001 -7.8179140388E-001  +4.9603968457E-001 +7.4472093985E-001  +1.2252885954E-001 +5.1814286127E-002 
4600000000.000 +2.6055197528E-002 -1.0435931868E-001  +3.1055115701E-001 +7.8924911978E-001  -6.5445828395E-001 +5.1891701222E-001  +5.9900003403E-002 +1.4632610699E-001 
4800000000.000 -1.0691363152E-001 -1.3342578595E-002  -7.4704321328E-001 -4.0586902535E-001  -6.3450627605E-001 -4.9505571701E-001  +7.0378242958E-002 +1.3780287322E-002 
5000000000.000 -4.1109378564E-002 +5.3413211961E-002  +7.7083728024E-001 -1.9929798202E-001  +2.5387507445E-001 -8.2072058298E-001  -7.5325857676E-002 -4.9063132031E-002 
5200000000.000 +8.8420243005E-002 -2.9584001061E-001  -4.7340169870E-001 +6.2918733399E-001  +8.5963656512E-001 +2.7097667832E-001  +1.5161084957E-001 +2.2598077360E-001 
5400000000.000 -1.4828329569E-001 -7.6157448955E-002  -9.4924872037E-002 -7.6088224892E-001  -1.0459379541E-001 +7.9911055603E-001  +1.3483128581E-002 -1.7202842757E-001 
5600000000.000 +2.2066287347E-003 +8.2993995259E-002  +5.3947444940E-001 +4.7355688266E-001  -7.5222400750E-001 +1.6381120123E-001  +2.1735368833E-002 -1.2402299129E-001 
5800000000.000 +6.6044687081E-002 +6.3051207119E-002  -6.8965178318E-001 +5.9644064576E-002  -2.6084039675E-001 -7.4871355911E-001  +7.1772136404E-004 +9.6143679834E-002 
6000000000.000 +1.5774458139E-001 -5.7045555187E-002  +4.4263247663E-001 -4.5819441924E-001  +6.8397865015E-001 -2.9158053839E-001  -4.1402438523E-002 +1.5730235964E-001 
6200000000.000 +8.8230165835E-002 -8.3963894586E-002  -8.6230302177E-002 +6.3064137186E-001  +3.0915730954E-001 +6.2371428272E-001  +1.6837274733E-001 +9.7692377765E-002 
6400000000.000 -1.6426383726E-001 +1.3640417945E-002  -4.4816326205E-001 -4.2917125617E-001  -4.1697050868E-001 +5.3835024380E-001  -4.9611546233E-002 -1.7498988302E-001 
6600000000.000 +1.8047567684E-001 +1.2218014396E-002  +5.9998999514E-001 +1.8180360719E-001  -5.0085924779E-001 -4.5941671840E-001  +1.1583446962E-001 +1.7882911523E-001 
6800000000.000 -8.5432691877E-002 +3.8410156459E-002  -5.7666150708E-001 +2.4189466241E-001  +3.8551531051E-001 -5.6236999407E-001  -1.1033114875E-001 +5.6547362091E-002 
7000000000.000 -5.2558757046E-002 -7.9602030065E-002  +2.2345258596E-001 -5.6484981221E-001  +5.9424655970E-001 +1.3587587501E-001  -2.6150089839E-002 -1.1478365415E-001 
7200000000.000 +1.4238672493E-002 -1.0255963159E-002  +1.5116871908E-001 +5.8108328188E-001  -4.6706442699E-002 +5.7494489091E-001  +1.2222717713E-001 +1.9136553291E-003 
7400000000.000 -4.3816752063E-004 +1.3696079364E-001  -4.3993833283E-001 -3.5436717309E-001  -5.8024791073E-001 -2.5901725575E-002  -2.4975547085E-001 +9.4182445595E-002 
7600000000.000 +2.5151050172E-001 +3.7269938870E-002  +5.7198160928E-001 -2.3324343226E-002  -6.0574153574E-002 -5.5498274653E-001  +2.0301090157E-001 +6.6326609565E-002 
7800000000.000 -7.2933146753E-002 -1.1013502598E-001  -3.8312149602E-001 +3.8245316195E-001  +4.5309915903E-001 -1.8072986307E-001  +4.9211068378E-002 -5.4464963372E-002 
8000000000.000 +1.0013951225E-001 +3.8275035404E-002  +1.0191240410E-001 -5.2557585970E-001  +1.8992535032E-001 +4.8385775911E-001  +3.2047117883E-002 -1.8689699491E-002 
8200000000.000 -2.1155781198E-001 +8.7426226514E-002  +2.7405892970E-001 +4.0523657478E-001  -4.0884059092E-001 +2.5134234781E-001  -9.7787720289E-002 +1.6220958040E-002 
8400000000.000 +2.4576511671E-002 -2.1051843179E-002  -4.0816797029E-001 -2.1427584108E-001  -2.9381598749E-001 -3.4380476509E-001  +8.0815850715E-003 +3.4530119276E-002 
8600000000.000 +9.5831066748E-002 +1.2895342530E-002  +3.8767527573E-001 -1.5331341803E-001  +2.7332177883E-001 -3.0494201874E-001  +1.2402220745E-001 +3.5883021758E-002 
8800000000.000 -1.4506178250E-001 -4.3610256122E-002  -1.8909472580E-001 +3.5932903257E-001  +3.6922000120E-001 +1.7825182195E-001  -2.2021326842E-001 +5.3739897702E-002 
9000000000.000 +6.9639611928E-002 +4.0343526444E-003  -7.0571621176E-002 -3.6981431256E-001  -1.4445562318E-001 +3.6603392664E-001  +1.4132701670E-002 -8.7958069836E-002 
9200000000.000 +4.4003842253E-002 +8.1277710859E-002  +2.8262295740E-001 +2.4254780944E-001  -3.5058540310E-001 -1.1125883028E-001  +9.8425596119E-002 +1.1127129715E-001 
9400000000.000 +1.0924025863E-001 +1.5279484000E-002  -3.5524597780E-001 +3.7715057693E-002  +2.3973131088E-003 -3.5556547352E-001  -2.2434673114E-002 -8.2100577558E-002 
9600000000.000 -3.9553549284E-002 -1.1881490881E-001  +2.4801375350E-001 -2.4288926727E-001  +3.5076897512E-001 -2.5002492463E-002  -6.0707920225E-002 -9.4180106299E-002 
9800000000.000 +3.2091993081E-002 +2.9112090287E-002  -3.7617997780E-002 +3.3088876343E-001  +8.1819662348E-002 +3.3797233808E-001  +2.2232562390E-002 -3.3824289671E-003 
10000000000.000 -1.1848267376E-001 +7.9165591847E-002  -1.6861920823E-001 -2.6070485316E-001  -3.1520362751E-001 +1.4636406309E-002  +3.4995359612E-002 +1.0717302396E-001 
10200000000.000 -2.8363339066E-002 +3.1778411096E-002  +2.9095321084E-001 +1.3723349118E-001  -2.1219091168E-001 -2.3554066065E-001  +4.8563110346E-002 -6.2034356154E-002 
10400000000.000 +1.1238789700E-001 +5.7192464667E-002  -2.8696403904E-001 +7.0982451339E-002  +2.5152993260E-001 -2.0109421054E-001  -1.0126046724E-002 -8.9757846372E-002 
10600000000.000 -6.2984224961E-002 -1.5257997488E-002  +1.7233367709E-001 -2.3884066665E-001  +1.5358929973E-001 +2.5595448030E-001  -7.4776167374E-003 +1.2772938268E-001 
10800000000.000 -6.7848975608E-002 +2.0723096855E-002  -1.9355099638E-002 +2.8111342831E-001  -1.8546749199E-001 +2.2689267241E-001  +1.3008794436E-002 -4.9613033122E-002 
11000000000.000 +9.8956030178E-002 +1.6370383263E-002  -1.5019018127E-001 -2.4422835307E-001  -2.7578980259E-001 -1.1744297641E-001  +4.6459449500E-002 -2.0125822645E-002 
11200000000.000 -4.8625070802E-002 +5.7477703646E-002  +2.5560479635E-001 +8.4128899943E-002  +8.9853567803E-002 -2.8118164093E-001  -9.7100404734E-002 -4.1554867653E-002 
11400000000.000 -1.2782780679E-003 -1.2629172454E-001  -2.4877625377E-001 +8.1455944072E-002  +2.8544619966E-001 +6.0893947622E-002  +1.7461994728E-002 +9.9158795725E-003 
11600000000.000 +5.6236636969E-003 -3.8276533002E-002  +9.4838799275E-002 -2.2828964279E-001  -2.3461133426E-002 +2.6704962768E-001  +3.6016172307E-002 +1.1178215355E-001 
11800000000.000 -1.1316813489E-001 +1.1646710292E-001  +8.6873431455E-002 +2.2740152583E-001  -2.6682017599E-001 +2.1619562313E-002  +5.4134145825E-002 -1.9108899706E-001 
12000000000.000 +1.3427442382E-001 +6.6054474468E-004  -1.7779120515E-001 -1.5481481237E-001  -8.2730404179E-003 -2.6025243093E-001  -1.4070738859E-002 +3.3044153462E-002 
12200000000.000 -1.8377358686E-002 -1.4104950367E-002  +2.2683473859E-001 +4.2891143684E-002  +2.5483335585E-001 -2.0082764330E-002  -6.7432923067E-002 +2.7413731907E-002 
12400000000.000 -3.3616772087E-002 +7.3380043936E-002  -2.0472510633E-001 +8.3107636667E-002  +3.3467908998E-002 +2.4137191229E-001  +7.8762075211E-002 -6.7313811952E-002 
12600000000.000 -5.5633577732E-002 +2.1552133647E-003  +5.7592734282E-002 -2.1440672289E-001  -2.3471384004E-001 +8.6714751938E-002  -2.6318101570E-002 +6.0268177634E-002 
12800000000.000 -1.0399207185E-003 -4.9057631707E-004  +1.1749312616E-001 +1.8495592879E-001  -1.6226022471E-001 -1.9331525137E-001  +7.9008197206E-003 -9.3213203129E-002 
13000000000.000 +6.0153007631E-002 -2.2012728555E-003  -1.9834431082E-001 -7.7606375082E-002  +1.6620471308E-001 -1.7585395594E-001  -2.9223333940E-002 +9.5367804582E-002 
13200000000.000 -1.4257803859E-001 -1.9047746255E-001  +1.9304429913E-001 +1.1992604426E-002  +1.0666970358E-001 +1.7059060345E-001  +1.3337592660E-001 -5.2994045370E-002 
13400000000.000 +1.6713326799E-002 +9.0452932521E-002  -1.9793357026E-001 +6.1733084208E-002  -2.1117391047E-001 +1.0773584467E-001  +5.8124657854E-002 -4.1823716824E-003 
13600000000.000 -3.2983984295E-002 +1.1645350856E-002  +8.0044094286E-002 -1.9444313992E-001  -1.6770925690E-001 -1.7458689155E-001  -8.3062154442E-002 +4.3686937399E-003 
13800000000.000 +7.5485288632E-003 -5.1468503922E-002  +7.4799978951E-002 +1.9443322996E-001  +6.8850983521E-002 -2.1173957034E-001  +8.5305954606E-002 -2.2846650454E-002 
14000000000.000 +3.2575122472E-002 -1.8570754445E-002  -1.7548877811E-001 -8.6540234565E-002  +2.0448751749E-001 +2.8379842226E-002  +4.9409716908E-002 +1.0618801376E-001 
14200000000.000 -9.9143985734E-002 -4.7377065725E-003  +2.0485871516E-001 -2.3719570014E-002  +6.0217926010E-003 +2.1295070305E-001  -1.3282910763E-002 -6.8954149609E-002 
14400000000.000 +8.7477025157E-002 +2.0067091654E-002  -1.4747888554E-001 +1.2618283264E-001  -2.0740715910E-001 -3.3012011108E-002  -3.4542147085E-002 +5.3113318661E-002 
14600000000.000 +5.2277247955E-002 -4.8198488643E-002  +2.8832102217E-002 -1.8387614768E-001  +2.5451659826E-002 -1.8544411911E-001  +3.7814946678E-002 +4.2314412991E-002 
14800000000.000 -1.5783407036E-002 -1.9040880802E-002  +1.0863765400E-001 +1.6628499652E-001  +1.9708677047E-001 -3.4685328799E-002  +4.2109065259E-002 +5.0371134027E-002 
15000000000.000 +1.7836874178E-003 -5.0201426996E-002  -1.9027649759E-001 -4.1890660144E-002  +6.3383754666E-002 +1.8332256135E-001  -1.0871509765E-002 -7.9181194048E-002 
15200000000.000 -3.0863122964E-002 +1.0776808673E-001  +1.8158303652E-001 -7.8835835078E-002  -1.7160097771E-001 +7.2608000113E-002  -1.6191578245E-002 +3.6134408166E-002 
15400000000.000 +5.4937369697E-002 -1.2216647933E-002  -6.7200194302E-002 +1.8067353904E-001  -7.8732098514E-002 -1.6312871225E-001  +1.0263881053E-002 +9.3575833451E-002 
15600000000.000 -9.3118668601E-003 -4.0109901986E-002  -4.9101474168E-002 -1.9763816390E-001  +1.3394162973E-001 -1.3328764753E-001  -8.7775340630E-003 -7.0035823029E-002 
15800000000.000 -8.2465846889E-004 +3.9169527959E-002  +1.4034618076E-001 +1.5614536230E-001  +1.4004816299E-001 +1.2378612996E-001  +4.3662879044E-002 +9.4436433133E-002 
16000000000.000 +2.8947170930E-002 -3.8744509437E-002  -1.9630713407E-001 -2.3809482521E-002  -1.4118579782E-001 +1.1207711143E-001  -1.7686606196E-002 -5.5862540710E-002 
16200000000.000 -1.4607178999E-002 +8.1074865098E-002  +1.7127417862E-001 -1.0254703835E-001  -1.3241946340E-001 -1.1104718164E-001  -3.9997834866E-002 +6.4304086616E-002 
16400000000.000 +4.9798875021E-002 -1.4209761199E-002  -4.5153405135E-002 +1.8375012241E-001  +8.5158774005E-002 -1.4322038322E-001  +5.1914517514E-002 -3.1289888204E-002 
16600000000.000 -4.8678567415E-002 -3.4335301208E-002  -5.0434225379E-002 -1.7635806038E-001  +1.6186008731E-001 +4.8262095311E-002  -9.7452509565E-003 +1.8082288874E-002 
16800000000.000 +8.7392601211E-003 +7.9614284881E-002  +1.2279091452E-001 +1.3879657569E-001  -3.5444320563E-002 +1.5816154053E-001  -3.9612520025E-002 +8.3988659473E-002 
17000000000.000 -1.1865592023E-002 -6.0268662844E-004  -1.8048241274E-001 -2.4436872876E-002  -1.5648791390E-001 -2.4347691321E-002  +2.9407986261E-002 -8.9040347503E-002 
17200000000.000 +1.8700345591E-002 +3.2726925552E-004  +1.2017554104E-001 -1.2767827052E-001  +4.8288564188E-003 -1.5480812132E-001  +7.1553068948E-003 +1.3432563029E-001 
17400000000.000 +1.6046337410E-002 +7.0110183562E-002  -1.5161744605E-003 +1.6149464846E-001  +1.4409158089E-001 -1.7315957122E-002  -5.4520591106E-002 -2.3752866598E-002 
17600000000.000 -6.9223642583E-002 -3.5767678753E-002  -1.0546328807E-001 -1.2464698747E-001  +5.8617954796E-002 +1.3203342203E-001  +4.3538310423E-002 +5.6834787667E-003 
17800000000.000 -9.3998775500E-003 +7.0645779553E-002  +1.4846166846E-001 +4.8206297947E-002  -1.1495277445E-001 +7.7528726486E-002  -1.7783748980E-002 +7.5659060125E-002 
18000000000.000 +1.5829663857E-002 -5.4359749553E-003  -1.4894333892E-001 +5.6675568673E-002  -8.7438780627E-002 -1.0993477847E-001  -4.1654046558E-002 -8.5347902634E-002 
18200000000.000 -5.6015805258E-002 -8.5820371457E-002  +9.9537011028E-002 -1.2328674873E-001  +1.0968808390E-001 -8.4856031969E-002  -4.8415405247E-002 +1.0866916965E-001 
18400000000.000 -4.4988668029E-002 +6.2669833945E-002  +2.6326886664E-002 +1.4605387534E-001  +1.0193959150E-001 +7.9852700419E-002  +2.1589363880E-003 +3.9519934395E-002 
18600000000.000 -1.6681062218E-002 -8.6621639374E-002  -1.3388044046E-001 -8.3384516804E-002  -7.7948881488E-002 +1.0465167137E-001  -7.0451215000E-002 -4.4217742840E-002 
18800000000.000 -1.3963833429E-002 +3.7558079153E-002  +1.4420894187E-001 -1.2883570327E-002  -1.2787486582E-001 -4.4803903723E-002  +1.0444211000E-002 +1.9622829435E-002 
19000000000.000 +5.3963577605E-002 -3.5919887354E-002  -1.2084750628E-001 +9.9008724474E-002  +3.6863152418E-002 -1.3110650311E-001  -6.0088260961E-002 -1.3249687977E-002 
19200000000.000 -4.5744431534E-002 -1.2617498497E-001  +4.0903597754E-002 -1.3033940832E-001  +1.1181725320E-001 +3.4897426422E-002  -5.5750422426E-002 +4.2655690256E-002 
19400000000.000 +6.3221207931E-002 +1.0112207445E-001  +5.5810192075E-002 +1.4653308884E-001  -1.3439589530E-002 +1.3192800675E-001  +8.2457744370E-002 -7.5164140080E-002 
19600000000.000 +3.0832764993E-002 -6.5023036313E-002  -1.3114918659E-001 -7.5448016822E-002  -1.3242424654E-001 +7.0819488211E-003  -1.2366789257E-001 +1.7611863519E-002 
19800000000.000 +4.8829126085E-002 -1.3272999061E-002  +1.5033826471E-001 -4.2562081896E-002  -1.4848586151E-002 -1.4044059076E-001  +1.2634369491E-003 -1.8752490958E-002 
20000000000.000 +1.5818063840E-003 +1.2309494623E-002  -8.6800304786E-002 +1.2350241737E-001  +1.3264479059E-001 +2.2702327944E-002  -3.7298535220E-003 +3.9244246943E-002 
20200000000.000 +8.8185134392E-004 -7.2653364914E-002  +2.2955335333E-002 -1.4223665863E-001  +1.0199048822E-001 +8.5137475599E-002  -3.7231482410E-002 +2.0722516339E-003 
20400000000.000 +6.7470942639E-003 +8.4131568814E-002  +6.5945400008E-002 +1.3006803627E-001  -7.4467477863E-002 +1.1221645193E-001  -7.7912813661E-003 -5.1985923937E-002 
20600000000.000 +3.4244562300E-002 +1.1738832180E-002  -1.2253864229E-001 -5.6946005614E-002  -1.0462702136E-001 -6.5132206516E-002  -4.4119650967E-002 +8.5911409851E-002 
20800000000.000 +6.1765663379E-002 -1.4130146283E-002  +1.3464340140E-001 -3.7450707661E-002  +7.3873155834E-002 -1.0293916812E-001  -2.1677682223E-002 -2.4471987837E-002 
21000000000.000 -3.6483028823E-002 -6.3079774324E-003  -5.2518276773E-002 +1.2032733320E-001  +8.5720178241E-002 +8.8910357232E-002  +3.1423761754E-002 +1.1072640763E-002 
21200000000.000 +3.4794096167E-002 +8.4473357118E-002  -2.5608181334E-002 -1.1411188555E-001  -6.9959826712E-002 +7.6836420021E-002  -1.3618133588E-001 +4.4655152858E-002 
21400000000.000 -7.9796305063E-003 -1.9399754400E-002  +1.0150758605E-001 +8.8174588577E-002  -1.0448351549E-001 -5.7990851092E-002  +7.6302532400E-002 -4.3284065407E-003 
21600000000.000 +1.7676678641E-002 +6.6669433811E-002  -1.2752099768E-001 -1.6817774780E-002  +9.5021542815E-003 -1.1043904300E-001  -6.0702418774E-002 +3.0284536520E-002 
21800000000.000 -3.5241567467E-002 +5.1244754388E-003  +1.0808196547E-001 -5.2647783322E-002  +1.0255628256E-001 -3.3650303362E-002  -3.7694901727E-002 -3.6778415073E-002 
22000000000.000 -4.4632168258E-002 -1.4775350706E-002  -6.6268115736E-002 +9.0966968876E-002  +2.2195533988E-002 +9.3671077139E-002  -9.1418748364E-003 +1.7118103368E-002 
22200000000.000 +5.1155428860E-002 +1.1203454911E-001  -1.8480171334E-002 -1.2007591638E-001  -9.6401956889E-002 +4.0626093186E-002  -5.5453035672E-002 +4.9177481109E-002 
22400000000.000 -5.7343526542E-002 -8.1536276660E-002  +8.2676385179E-002 +9.4786753525E-002  -5.1054994023E-002 -9.5023191063E-002  +7.4130685628E-002 -9.0154870068E-002 
22600000000.000 -2.7628653728E-002 +4.5572805037E-002  -1.0935611351E-001 -2.0969649088E-002  +6.9604395874E-002 -6.1166041816E-002  -1.1448282022E-001 +1.8636059013E-002 
