!  2-Port S-parameters saved by WinCal
! VAR NAME=RAW_LRRM_short_0.5mm_1
! VAR DATE=08/08/2022 22:11:22
! VAR FILENAME=RAW_LRRM_short_0.5mm_1.S2P
! VAR MeasName=S-Parameters (CALIBRATED_DATA) read from VNA (MS4647B)
! VAR MeasDate=26-Apr-22 16:28:34
! VAR PHYS_PORTS=1,2
! VAR ObjTypeName=DATASET
! VAR IndexType=Frequency
! VAR ChuckHeaterState=Unknown
! VAR ChuckTemp=NaN
! VAR ChuckTempUnits=Unknown
!
# Hz S RI R 50
200000000.000 -5.2517562303E-003 +7.6997315252E-001  +4.7603323263E-006 -1.1224084799E-006  +3.6109101455E-006 -3.5623986898E-006  +5.2775961919E-001 +3.5455527228E-001 
400000000.000 +8.1535117018E-001 -8.4494355072E-002  +3.7156099582E-006 +2.7471964040E-006  -1.2133466415E-005 +1.2177240003E-005  -4.5603914810E-001 -5.7055545413E-001 
600000000.000 +1.5323441910E-001 -6.6076459061E-001  -2.2501377279E-005 +2.0393431914E-006  -1.6999659978E-005 -1.3284507602E-005  -1.6446772528E-002 +6.5004962401E-001 
800000000.000 -6.2302377127E-001 -2.1867547250E-001  -9.6079081785E-006 +6.1860320239E-007  -4.9976406554E-006 -7.6237205176E-006  +3.3413741068E-001 -5.1090116183E-001 
1000000000.000 +3.3114630391E-001 +4.9328640297E-001  -1.5246436059E-005 -5.8666984316E-006  -9.6875909387E-006 +1.8128099484E-005  -2.5900195016E-002 +5.6208885011E-001 
1200000000.000 +7.5333608982E-001 -4.3141169705E-001  +5.6240156480E-006 -1.2010625208E-006  -1.1292346362E-006 -5.4879222287E-006  +2.3075845956E-001 -7.4834518679E-001 
1400000000.000 -2.7373848582E-001 -7.5698343452E-001  +1.8703356384E-005 -9.6827870563E-006  -1.4560503759E-007 -3.5643543566E-006  -5.7349146255E-001 +3.9191831850E-001 
1600000000.000 -3.6259560396E-001 +4.7599833459E-001  +1.0364541316E-006 +4.8695606587E-006  -6.6106376977E-006 -1.4480956092E-006  +3.3256351854E-001 -3.7808441933E-001 
1800000000.000 +4.5874989275E-001 +3.8899355487E-001  -1.7453219703E-006 +4.8079004791E-006  -2.2906772796E-006 -9.8500458798E-006  -4.2638118434E-001 +2.3787065726E-001 
2000000000.000 +3.8385247987E-001 -3.0303918924E-001  -3.3944212186E-006 -6.3754803861E-006  -3.4419248673E-006 +3.1438443980E-006  +5.6752275207E-001 -2.3126963110E-002 
2200000000.000 -2.3845572443E-001 -4.2348584189E-001  -2.8441221076E-006 +4.0515252381E-006  +1.8095502416E-006 +4.6134670411E-006  -3.7702560068E-001 -4.0294224635E-001 
2400000000.000 -1.4679279012E-001 +2.3871867319E-001  +9.1642772655E-006 -6.4180894298E-006  -2.9373104707E-006 -2.1296811185E-006  +2.8835959148E-001 +1.1524341594E-001 
2600000000.000 +4.1905228118E-001 +7.4635151113E-001  +8.2567572322E-006 -4.3963217748E-006  -6.2289979938E-006 -6.5719151402E-009  +1.6560445772E-001 -5.1252955488E-001 
2800000000.000 -8.1106463349E-001 +9.9112130877E-002  +1.8977601939E-005 +9.8430738607E-006  +3.9067672830E-006 -1.4861863961E-005  +5.1918963766E-001 +2.9598784637E-001 
3000000000.000 -1.5986044320E-001 -8.9717554825E-001  -5.1577519141E-007 -8.5116969028E-006  -2.4731711197E-006 -1.4858507534E-005  -3.2104447347E-001 +5.4882348450E-001 
3200000000.000 +8.0925246172E-001 -2.5101292345E-001  +9.4057664902E-006 -2.8010644044E-005  +5.7797041393E-006 +3.0791463504E-005  -6.0819021684E-001 -2.2717591849E-001 
3400000000.000 +6.4956398134E-002 +8.0694110484E-001  -5.4947971180E-006 +1.6505277365E-005  -4.0323167603E-006 -5.2785515861E-006  +1.1609127780E-001 -5.9774754959E-001 
3600000000.000 -7.5318359534E-001 -3.6910486767E-001  +2.4517929607E-006 -1.4051802895E-006  -3.2120151068E-006 -1.1814187345E-005  +6.1911276556E-001 +4.5088377211E-001 
3800000000.000 +2.6170620431E-001 -8.8521553254E-001  +5.2543618913E-006 -1.6351177994E-005  +9.8138531729E-007 -2.1347473577E-005  -3.7760771218E-001 +5.6209366181E-001 
4000000000.000 +5.9061628983E-001 +8.7815371676E-001  -1.3310947402E-005 +3.8576742689E-007  +6.8222601633E-006 +1.0659761418E-005  -4.8594335985E-001 -6.7237554787E-001 
4200000000.000 -8.0712365828E-001 +3.1501641218E-001  -6.0269860534E-006 -1.7310682087E-006  -8.2291622587E-006 +6.6196031669E-006  +5.9948554579E-001 -4.8387769732E-001 
4400000000.000 -3.5986123293E-002 -1.0095636640E+000  -2.3472718182E-006 +3.2160366629E-006  -9.8161432035E-006 -1.4532833535E-005  +2.3474920824E-001 +8.5760442900E-001 
4600000000.000 +7.5215888088E-001 +3.2079496685E-001  -6.3160893928E-006 -2.3568762623E-006  +5.3633275248E-006 -1.6374652167E-005  -7.5645157403E-001 +1.2427482804E-001 
4800000000.000 -7.7033959127E-001 +4.9311105286E-001  +1.0695608240E-005 +1.8322964120E-005  +1.9946312491E-005 -1.7095917653E-006  +2.6147525268E-001 -7.5461218821E-001 
5000000000.000 -2.1364807024E-001 -7.1353855278E-001  -1.9015391190E-005 -2.4347720932E-006  +1.2503398103E-006 +2.0284521496E-005  +7.4672154740E-001 +1.8786283002E-001 
5200000000.000 +9.3346551932E-001 +1.0424863378E-002  -1.6925420465E-005 -4.5058395589E-006  -5.4103886008E-006 +5.7187598257E-006  -3.0698232281E-001 +8.6434342421E-001 
5400000000.000 -6.5775030595E-001 +6.0244224685E-001  -8.3523488070E-006 +2.4932413372E-006  +3.4669320816E-006 +1.0361736832E-005  -3.8876467917E-001 -7.5720056724E-001 
5600000000.000 -4.5896931873E-001 -5.3315488743E-001  -5.0457050950E-006 -1.7230504384E-005  +2.2169678501E-005 -1.2770440121E-005  +6.7385516672E-001 -3.8664596799E-001 
5800000000.000 +6.9260812599E-001 -1.9505611477E-001  +2.4344024596E-005 -5.8260644323E-006  +4.4864252620E-006 +2.3064393140E-005  +2.2435664720E-003 +8.9124064159E-001 
6000000000.000 +4.4469101108E-002 +5.7740872051E-001  -1.1189246895E-005 +1.8702811309E-005  -1.8767464685E-005 +2.1700844499E-005  -7.6802787382E-001 +7.8919977055E-003 
6200000000.000 -4.6666406683E-001 -4.3629643818E-001  +6.2589016781E-006 -3.1350930472E-005  -1.0356383367E-005 -3.3085906002E-005  +6.1731192865E-001 -4.2100056090E-001 
6400000000.000 +2.1265588429E-001 -4.9999439598E-001  +2.3765295318E-005 +2.1315701655E-005  +1.1881828225E-005 -5.3167919518E-005  +4.0937543515E-001 +3.2131172230E-001 
6600000000.000 +3.4956694941E-001 +5.9918073966E-001  -3.9134455466E-005 -1.3866824260E-006  +2.9449124071E-005 +1.1985385674E-005  -5.7673581757E-001 +3.4368503100E-001 
6800000000.000 -6.7258984336E-001 +7.2954368527E-003  +4.3240179749E-005 -4.3225164656E-005  -2.9177029676E-006 +7.9001187964E-005  +9.7767667747E-003 -6.7140986628E-001 
7000000000.000 +2.0656865750E-001 -5.9523497656E-001  +2.6696306013E-005 +5.5054832803E-005  -5.9072420346E-005 +2.7147091373E-005  +6.2411700146E-001 -2.2386882514E-002 
7200000000.000 +3.7418853213E-001 +4.5721668442E-001  -7.1697085667E-005 -3.0880969234E-005  -4.4330518029E-005 -4.6701716411E-005  -1.6776623601E-001 +5.2487441313E-001 
7400000000.000 -6.0786820972E-001 +2.0141909598E-001  +4.9495960167E-005 -2.4232525886E-005  +1.2895741105E-005 -4.7110664633E-005  -6.0884403947E-001 -3.1005104649E-001 
7600000000.000 +3.7512426722E-001 -5.6968045359E-001  -4.8131633110E-005 +5.3400206566E-005  +6.2634936613E-005 +4.3299421548E-005  +6.8344969832E-001 -1.0870606602E-001 
7800000000.000 +3.5393507888E-001 +1.7992721291E-001  -3.8621715709E-005 -6.9060142008E-005  +1.6049600951E-005 +6.4658339222E-005  +1.4348088508E-001 +4.4496471592E-001 
8000000000.000 -4.1825905480E-001 +1.7488053304E-001  +6.5618846231E-005 +2.0370640045E-005  -5.7444791803E-005 +2.4933743951E-005  -4.8598112025E-001 -5.5095371452E-002 
8200000000.000 -2.2021299957E-001 -4.2899079490E-001  -4.6164958403E-005 +3.8617288071E-005  -4.0652318562E-005 -4.2629336624E-005  +1.0032145033E-001 -3.9200042124E-001 
8400000000.000 +4.9540303606E-001 +2.0971189409E-001  +2.1466208279E-005 -3.2303442199E-005  +3.0979653730E-005 -3.1033840450E-005  +2.4855884811E-001 +3.4231315184E-001 
8600000000.000 -2.0509869977E-001 +3.2603592412E-001  +1.7044458217E-005 +3.9351884493E-005  +3.1159795910E-005 +2.6676396459E-005  -2.3171417537E-001 +1.7860489330E-001 
8800000000.000 -2.8567021497E-001 -4.0505376973E-001  -2.8876326641E-005 -1.3412700383E-005  -2.1260577223E-005 +3.6604050366E-005  -3.2335050160E-001 -3.4709445539E-001 
9000000000.000 +4.1313136673E-001 +2.8063586287E-002  +4.4932399179E-005 -2.0060413867E-007  -3.0396923600E-005 -1.0098412839E-005  +4.3397903138E-001 -3.0722480304E-002 
9200000000.000 -1.8518592260E-001 +3.9143701929E-001  -2.3158653863E-005 +9.9038032245E-006  +7.2845036965E-006 -3.5332323630E-005  -4.1691399437E-002 +4.3530885739E-001 
9400000000.000 -8.9702275227E-002 -3.2598596043E-001  +1.1915084656E-005 -2.4172645304E-005  +2.6574882805E-005 +2.4243171547E-007  -3.0218749497E-001 -2.2271157811E-001 
9600000000.000 +2.8562734900E-001 -2.1036995101E-001  +2.4147660167E-005 +3.5859665174E-005  +4.2230088298E-006 +3.9190711980E-005  +2.4855067839E-001 -2.7014677393E-001 
9800000000.000 -4.0827031066E-002 +3.2779479402E-001  -3.7746089594E-005 +3.0661552939E-006  -4.3321941105E-005 -2.3257082624E-006  +1.3870119963E-001 +3.4761211666E-001 
10000000000.000 -2.5472584279E-001 -1.8708800461E-001  +2.1783028786E-005 -2.0819731568E-005  -6.9113503575E-006 -2.8706038277E-005  -2.8992756823E-001 +1.3959069350E-001 
10200000000.000 +3.2536099211E-001 +6.2375648276E-003  -2.0816693093E-005 +1.9571709305E-005  +3.0960218149E-005 -2.4586501881E-005  -9.2598404955E-004 -3.3869442089E-001 
10400000000.000 -3.6798591679E-002 +3.2381880804E-001  -1.6921949604E-005 -4.4586024152E-005  +3.0692977820E-005 +3.3464066081E-005  +2.9436313051E-001 -2.6630337188E-002 
10600000000.000 -2.0674150268E-001 -3.0280389274E-001  +2.0954380169E-005 +1.6352087569E-005  -1.9340091615E-005 +2.4789496006E-005  -1.6060389367E-001 +3.5340850846E-001 
10800000000.000 +2.4060431589E-001 -1.0918992925E-003  -3.6418066337E-005 -3.3916548245E-006  -3.1514472918E-005 -1.6757815154E-005  -1.5709853506E-001 -2.5355181827E-001 
11000000000.000 +2.5278614520E-003 +2.8044873783E-001  +2.0688712431E-005 -2.3711216987E-005  -6.4192627038E-007 -4.6525926945E-005  +3.2243208573E-001 -1.5222115029E-001 
11200000000.000 -2.3141515685E-001 -1.3425573869E-001  -2.8175099451E-006 +2.9480278542E-005  +4.2003637510E-005 +3.2997856222E-006  -5.9517755181E-002 +2.5595051668E-001 
11400000000.000 +2.8316805621E-001 -1.9198813477E-001  -2.3229970446E-005 -1.4846585690E-005  +1.1196646235E-006 +2.6234303665E-005  -2.4263893297E-001 -3.4461273079E-002 
11600000000.000 +1.6378470948E-002 +2.5986193676E-001  +3.6224963831E-005 -1.4801286743E-006  -2.0768912883E-005 -1.3203822489E-006  +1.5468318196E-001 -7.6003027411E-002 
11800000000.000 -3.4572260790E-001 +4.1834311162E-002  -2.1277488328E-005 +1.6296590215E-005  -8.5461985019E-006 -2.3514416498E-005  +2.3412791527E-001 +1.5561658431E-002 
12000000000.000 +3.2669225160E-001 -1.2758562592E-001  +7.4930610117E-006 -2.1450158297E-005  +2.3705626219E-005 -7.1774907405E-006  -2.7276213287E-001 +9.7942332262E-002 
12200000000.000 -2.0542504375E-003 +2.0698205848E-001  +2.8883408027E-006 +3.2076078107E-005  +1.7176008385E-005 +2.6174846651E-005  -3.2371272731E-003 -2.3180504104E-001 
12400000000.000 -2.3491922723E-001 -4.3320577269E-002  -1.8030209162E-005 -1.2621632024E-005  -1.7940163526E-005 +8.2417801790E-006  +2.7700762304E-001 +5.7481507768E-002 
12600000000.000 +8.4701522303E-002 -2.1180857696E-001  +1.3580012265E-005 -1.1702034936E-005  -2.5887178257E-005 -1.1468192541E-005  -2.0369608659E-001 +1.8959974809E-001 
12800000000.000 +1.7726858554E-001 +1.8417534780E-001  -2.0543088197E-005 +1.4039081282E-005  +6.0941098920E-006 -1.7840945526E-005  -8.5896214209E-002 -2.8775746781E-001 
13000000000.000 -1.5127582852E-001 +7.1517838140E-002  +5.5320914559E-006 -2.5248486992E-005  +2.2243484433E-005 +1.0352551878E-005  +2.0127090257E-001 +8.6787709678E-002 
13200000000.000 -2.9788157350E-002 -3.1491388774E-001  +3.1258982813E-006 +1.2852782671E-005  -7.3667224315E-006 +1.1528453476E-005  +4.2877399245E-002 +1.6659672240E-001 
13400000000.000 +5.0612589138E-002 +2.9261900736E-001  -1.4562290763E-006 -1.4613500131E-005  -1.3722192721E-005 -7.3510501333E-006  -7.0636278385E-002 -2.0549179659E-001 
13600000000.000 -2.6181847636E-001 +4.4862737547E-002  +1.5488645962E-005 -5.0288995502E-007  +1.8636298579E-005 -1.4880108011E-005  +1.3410969936E-001 -3.2839827215E-002 
13800000000.000 +3.0825549171E-002 -2.7123337117E-001  -1.7906413038E-005 +4.6238360045E-006  +2.1869332447E-005 +7.5138078123E-006  +1.0614318327E-001 +1.8879547895E-001 
14000000000.000 +1.8512508990E-001 +7.4133428035E-002  +1.5049107164E-005 -1.3206287941E-005  -1.0351590242E-005 +2.1981059953E-005  -1.7823170186E-001 +8.2783412776E-002 
14200000000.000 -2.7326476929E-001 +7.2255773541E-002  -1.0053803113E-005 +2.0015152187E-005  -1.8939737317E-005 -3.2430464401E-006  +5.8931203738E-002 -2.8601621279E-001 
14400000000.000 +7.6907557428E-002 -1.7265697448E-001  -1.0686179055E-005 -2.6123167021E-005  +1.6454158100E-005 -2.8566409167E-005  +5.1039821298E-002 +2.4306129742E-001 
14600000000.000 +2.0195650260E-001 +3.7031799205E-002  +1.9208376299E-005 +1.1974622025E-005  +2.2028053792E-005 +6.8421111775E-007  -1.6447716329E-001 +7.6912591034E-002 
14800000000.000 -1.9078009678E-001 +8.0155096696E-002  -2.1984915207E-005 +9.8559941134E-007  -2.8657421682E-006 +2.2681129299E-005  +5.7507543133E-003 -1.4253551406E-001 
15000000000.000 -3.7523605366E-002 -2.4134212093E-001  +2.2369019475E-005 -3.2312222294E-005  -3.7284176568E-005 -8.1330565878E-007  +1.7975654304E-001 -5.0337438168E-002 
15200000000.000 +1.5962346854E-001 +1.4100626013E-001  +5.9779449220E-006 +3.2319400434E-005  -4.3510227959E-006 -3.2495994425E-005  -1.3263689049E-001 +1.8628547794E-001 
15400000000.000 -5.4882513307E-002 +1.1623349553E-001  -3.8124044587E-005 -1.2722324190E-005  +1.9058288142E-005 -1.2192439883E-005  -1.3049541607E-001 -6.0278611985E-002 
15600000000.000 -7.9984738265E-002 -2.2524575562E-001  +3.4305446254E-005 -1.4739954790E-005  +2.0850587405E-005 +2.3347760968E-005  +1.5130295309E-001 -1.7704134515E-001 
15800000000.000 +2.0866769670E-001 +7.6048584285E-002  -2.7598722039E-005 +5.2740304308E-005  -1.9876439814E-005 +4.6304218723E-005  +6.1839132334E-002 +2.7655699676E-001 
16000000000.000 -1.0781567106E-001 +1.0036133733E-001  -1.1116752277E-005 -2.5317796165E-005  -2.9763206459E-005 -1.1317926280E-005  -1.9279983140E-001 -1.1118768818E-001 
16200000000.000 -8.9296185250E-002 -9.9810348544E-002  +2.5398057743E-005 +1.3475384691E-005  +9.1456982286E-006 -2.2645400554E-005  +6.1573424818E-002 -7.8892139411E-002 
16400000000.000 +2.3323617748E-001 -3.3490213936E-002  -2.4865581916E-005 +5.1378884415E-006  +2.4109975551E-005 -6.9739491940E-006  +1.4919982928E-001 +1.0950180874E-001 
16600000000.000 -9.5210762994E-002 +1.2678776460E-001  +1.9066097905E-005 -2.0735821947E-005  +8.2810174823E-006 +2.2539475545E-005  -1.9112561069E-001 +5.2111972415E-002 
16800000000.000 -8.7184318344E-002 -5.4765086951E-002  +1.5844641115E-006 +1.5261343073E-005  -1.0606474882E-005 +4.4549170457E-006  -7.3260445363E-003 -9.6828054007E-002 
17000000000.000 +1.7987600908E-001 -9.7333294163E-003  +8.7408593965E-007 -6.0784564064E-006  -2.3241764922E-006 -6.7577811576E-006  +1.6565072918E-001 -2.9572829620E-002 
17200000000.000 -8.3708190036E-003 +1.7127357295E-001  +1.7296426416E-005 +1.3014209312E-005  +2.0010958065E-005 -3.8574692165E-006  -9.8015054766E-002 +2.5372846272E-001 
17400000000.000 -1.0345406163E-001 -1.5558308327E-002  -1.0989193853E-005 +5.2622113052E-006  +3.3116215077E-006 +1.2610250184E-005  -1.5413937722E-001 -1.5101581436E-001 
17600000000.000 +5.6895130080E-002 -1.2253714317E-001  +6.2246725005E-006 -3.0126617535E-007  -7.0005003726E-006 +8.9434393445E-007  +1.8058779846E-001 -6.2137955221E-002 
17800000000.000 +4.4522803637E-003 +2.2620012928E-001  -8.1842886597E-006 +2.1945537555E-006  +5.9276036802E-006 -1.0277508043E-005  -4.4902292994E-003 +2.1004284270E-001 
18000000000.000 -1.1780393523E-001 -3.5049209887E-002  +1.5484735439E-005 -2.9254614583E-005  +2.9871044537E-005 +5.9598498027E-006  -1.9268352904E-001 -1.5187726865E-001 
18200000000.000 +5.4800528307E-002 -1.6015802117E-001  +1.2862558606E-005 +1.6034434444E-005  +6.3288242509E-006 +1.6585034540E-005  +5.5191773140E-002 -2.4018204456E-002 
18400000000.000 -1.6011182358E-003 +2.1341636016E-001  -1.6657108173E-005 -1.8901469098E-005  -2.4759622549E-005 -6.4872341678E-006  +8.2412873073E-002 +1.2765746953E-001 
18600000000.000 -1.8531470170E-001 -8.2794805894E-002  +4.8385681752E-005 -3.0165949458E-005  -2.5684325067E-005 -4.4009011016E-005  -1.8553339907E-001 -1.5191297447E-002 
18800000000.000 +5.9284195294E-002 -5.7541920229E-002  +9.5902435576E-006 +3.5648334966E-005  +7.7484944081E-006 -3.2230130684E-005  -4.2169684950E-002 -1.3816815948E-001 
19000000000.000 +9.3157647088E-002 +9.7049439198E-002  -1.4047601401E-005 -2.7086089121E-005  +1.6226923265E-005 +4.2259434625E-006  +9.3762936463E-002 -2.4591932061E-002 
19200000000.000 -1.8547608552E-001 -1.3827063044E-001  +2.4708798134E-005 +1.5167836314E-005  -2.6487240790E-005 +2.1466034356E-005  -1.1774408140E-001 +1.3325820968E-001 
19400000000.000 +5.8679082932E-002 -4.3880367881E-002  -5.7362481516E-005 +2.0154694809E-005  -5.2814951011E-005 -4.1538875657E-007  +6.5748763858E-002 -2.1586334707E-001 
19600000000.000 +1.0299573336E-001 +3.4256195109E-002  +2.3885834832E-006 -3.2138319485E-005  -1.3583503661E-005 -2.5930261465E-005  +2.9829280376E-002 -4.6917238167E-002 
19800000000.000 -1.0434814148E-001 -4.2487872586E-002  +1.7795551195E-005 +3.5086058711E-005  +3.1646338315E-005 -1.0238428943E-005  +6.7161493145E-002 +1.0259871974E-001 
20000000000.000 +8.0439635727E-002 -1.1001663877E-001  -3.0417384892E-005 -4.3870178782E-006  +5.8541445215E-006 +2.0103505198E-005  -1.3338464795E-001 -2.9633442975E-003 
20200000000.000 +6.3424711847E-002 +2.7340922221E-002  +1.8684589726E-005 -1.5260500030E-006  -2.7700200768E-006 +1.9688196627E-005  -4.7083493123E-002 -1.5989210902E-001 
20400000000.000 -1.2045073548E-001 +7.7006465180E-002  -1.0247022779E-005 +6.4653480636E-006  -1.9178019536E-005 -9.9952113234E-006  +1.4262944471E-001 -3.0718192553E-002 
20600000000.000 +1.0878389965E-001 -1.1248642488E-001  +9.8509816738E-006 -1.4362685471E-005  +5.9403974081E-006 -1.1071680037E-005  -1.0166802587E-001 +1.7790883608E-001 
20800000000.000 +1.0319068853E-001 +8.8720982541E-002  -3.9352555016E-006 +9.4246681320E-006  +1.0163713845E-005 +5.4395775643E-006  -1.2691360109E-001 -1.4518929159E-001 
21000000000.000 -1.4243571309E-001 -4.7770007244E-002  +4.0243834524E-006 -1.2874963527E-006  -2.6448266282E-006 -9.7823787315E-008  +1.4238665957E-001 -7.4612180816E-002 
21200000000.000 +1.2419907822E-001 -5.2127206544E-004  -9.5102442160E-007 +2.0021510506E-005  +7.4936810654E-006 -1.2288296841E-005  -1.1668681639E-001 +1.3437753458E-001 
21400000000.000 +5.8170105345E-002 +8.7497484027E-002  -3.8144646623E-005 -1.0765631101E-005  +3.3761631368E-005 +7.1257827284E-006  -4.0564758297E-002 -4.8449787872E-002 
21600000000.000 -8.6319610410E-002 +6.8425412626E-002  +2.9591523188E-005 -1.4610650446E-005  +2.0161362088E-005 +2.1424561853E-005  -1.3533095556E-002 -1.0155871940E-001 
21800000000.000 +1.8557028199E-002 -9.5862811126E-002  -2.4869851117E-005 +2.1400859262E-005  -3.1040440973E-005 +1.9966088111E-005  +6.4265475818E-002 +5.0790700832E-003 
22000000000.000 +3.7455312445E-002 +8.5117912002E-002  +6.6888377653E-006 -6.7768846623E-005  -3.0169302479E-005 -4.4183681772E-005  -8.2210708199E-002 +4.4444567720E-002 
22200000000.000 -3.3618843588E-002 +1.5208826694E-001  +7.5927557587E-005 +9.2536908835E-006  -1.1184097811E-005 -7.1215110988E-005  -5.0713781440E-002 -8.9878673831E-002 
22400000000.000 -2.3835915108E-002 -1.8428826073E-001  -4.2806063102E-005 +1.4868937743E-005  +3.9513497117E-005 -8.3892472663E-006  +1.9922108238E-001 -7.1267111485E-002 
22600000000.000 +6.5812677281E-002 +1.0795904405E-001  +5.0175852160E-005 -3.2108486241E-005  +1.3896391778E-007 +5.2026743045E-005  -1.5932286472E-001 +9.1902502203E-002 
