!  2-Port S-parameters saved by WinCal
! VAR MeasName=S-Parameters (CALIBRATED_DATA) read from VNA (MS4647B)
! VAR MeasDate=27-Apr-22 15:22:54
! VAR NAME=RAW_line_6.5mm_2
! VAR FILENAME=RAW_line_6.5mm_2.S2P
! VAR DATE=27-Apr-22 15:22:54
! VAR PHYS_PORTS=1,2
! VAR ObjTypeName=DATASET
! VAR IndexType=Frequency
! VAR ChuckHeaterState=Unknown
! VAR ChuckTemp=NaN
! VAR ChuckTempUnits=Unknown
!
# Hz S RI R 50
200000000.000 -2.0036958223E-002 -8.3459099723E-002  -2.5989157317E-001 -6.8078647541E-001  -3.8021874436E-001 -6.3671264497E-001  +1.9196953380E-002 -6.5104076719E-002 
400000000.000 +1.1718515152E-001 -1.0705276462E-001  -4.0650955513E-001 +5.4867947636E-001  -2.3337525397E-001 +6.5615110581E-001  -1.4005206489E-001 +1.1159917441E-002 
600000000.000 +6.5637435618E-002 -6.4526492155E-002  +5.8704229409E-001 +1.7896685683E-001  +5.6151007221E-001 -2.3581767661E-001  -5.5648241509E-002 +5.5373478624E-002 
800000000.000 +7.6005895405E-002 -1.9990224118E-001  -2.6341487654E-001 -6.0936519060E-001  -6.0212332391E-001 -2.4624478555E-001  +1.4960614873E-001 +5.1063258293E-002 
1000000000.000 +1.3363094399E-001 -1.9799848947E-001  -1.7663338342E-001 +6.8391469240E-001  +3.7997319075E-001 +5.5623024981E-001  +2.2457283897E-001 -6.5254424196E-002 
1200000000.000 +7.1971016419E-002 -2.3486707119E-001  +6.8775642299E-001 -2.5068394549E-001  +1.1779365487E-001 -6.7340996100E-001  -1.1514754181E-001 -1.2598435155E-001 
1400000000.000 +4.1841619922E-002 -1.6724624873E-001  -6.5568821658E-001 -3.2575817087E-001  -5.1716762804E-001 +4.3223228060E-001  -9.6172541760E-003 -4.6049485690E-002 
1600000000.000 +1.9811900775E-001 +1.0781602533E-001  +1.6706023217E-001 +5.9954624140E-001  +5.4535339138E-001 +4.1920295112E-002  -1.8779081466E-001 -5.0476440277E-002 
1800000000.000 +7.2284863989E-002 -2.6359429153E-004  +3.2364584902E-001 -4.1464431750E-001  -3.1319141643E-001 -3.3619773148E-001  +2.9307767052E-002 +1.0498699286E-001 
2000000000.000 +1.2243595007E-001 +2.3723834357E-002  -4.5276527559E-001 +1.0385387407E-002  -2.1768651958E-002 +3.8076646035E-001  +1.7381005116E-001 -4.7304633080E-003 
2200000000.000 +3.0496512352E-002 -1.5059895703E-001  +2.4611894030E-001 +3.4179428046E-001  +2.9387376606E-001 -2.2836352397E-001  -4.6416323900E-002 -2.0316939779E-001 
2400000000.000 +2.9121998516E-002 -1.6951658531E-001  -3.6691789426E-002 -4.1526815642E-001  -3.7805730316E-001 +6.2675702051E-002  -1.5733718748E-001 -8.4723102559E-005 
2600000000.000 +4.6480391588E-002 +4.3574533765E-002  -7.4990056121E-001 -9.1834846636E-002  -1.8416128921E-001 +4.8734346681E-001  +1.1850313406E-002 -2.3621841259E-002 
2800000000.000 +5.5870587787E-002 -1.9650059494E-001  +4.6380448282E-001 -7.3694964550E-001  -7.1621146370E-001 +4.5765370069E-002  -1.1787024374E-001 +8.2644995651E-002 
3000000000.000 -2.7373279641E-002 +4.3701009695E-002  +3.6916267584E-001 +7.9457783792E-001  -3.7263422227E-001 -6.6668513441E-001  +6.0787803895E-002 -2.4260812354E-002 
3200000000.000 -1.7598616346E-001 -2.2471366628E-001  -7.1949804899E-001 -8.0012079342E-002  +3.4534064375E-001 -5.4075825329E-001  +1.2020119777E-001 +1.6926785990E-001 
3400000000.000 +2.4792185626E-001 -1.1301859158E-001  +5.5708018306E-001 -5.9597828546E-001  +7.0780875525E-001 +2.4611569153E-001  -1.1354041684E-001 +1.4648514552E-001 
3600000000.000 +9.3595035755E-002 +5.4568144359E-002  +1.4388377048E-001 +8.2607940170E-001  +1.3201065022E-001 +8.4879534301E-001  -3.6041968394E-002 -4.5754709347E-002 
3800000000.000 -3.1962256385E-001 +8.8059662467E-003  -6.9418429156E-001 -5.3150212530E-001  -7.6475545643E-001 +2.6106404719E-001  +2.5373182468E-001 +9.5501448804E-002 
4000000000.000 +1.0124059368E-001 +9.2000066683E-002  +8.3462036679E-001 -2.5820210041E-001  -5.1295752858E-001 -5.5674458458E-001  -7.6881250772E-002 +1.7338127527E-003 
4200000000.000 +2.1952538695E-001 +1.1898677271E-001  -4.0632933302E-001 +7.8773914106E-001  +4.3359370039E-001 -7.0347554758E-001  -2.3057599812E-001 -2.8661878533E-002 
4400000000.000 -5.2261260557E-002 -7.8344651989E-002  -2.9426748613E-001 -8.0154616234E-001  +8.7113581252E-001 +1.7781982783E-001  +9.1529271620E-002 +5.5145976272E-004 
4600000000.000 -9.1498696892E-002 -1.1873035975E-001  +7.8331865737E-001 +3.1938162820E-001  -7.7032671007E-002 +8.3470547446E-001  +1.4138054002E-001 +4.3660629422E-002 
4800000000.000 -1.2619247058E-001 +6.8128216788E-002  -7.9276077718E-001 +2.8874527545E-001  -7.8304405963E-001 +1.4377503978E-001  +7.2241158043E-002 -9.9687963643E-002 
5000000000.000 -9.9339431925E-003 +2.8553872091E-001  +3.2220057792E-001 -6.9470894624E-001  -4.6388100070E-001 -6.8591665573E-001  -1.5739622681E-001 -1.5491654277E-001 
5200000000.000 +1.3063932673E-003 -1.0250602425E-001  +2.1843953016E-001 +7.6116989527E-001  +7.3317648114E-001 -5.2076504656E-001  +1.4827465249E-001 +1.8612772554E-001 
5400000000.000 -1.3301627607E-001 +1.6829413246E-004  -6.7933259652E-001 -3.5628150757E-001  +6.0072178716E-001 +5.4115421758E-001  -4.9908808545E-002 -4.4717134764E-002 
5600000000.000 +2.0177453100E-002 +8.3620208155E-002  +6.8535350209E-001 -1.9281532181E-001  -2.7025290064E-001 +7.1137459785E-001  -9.7744313824E-002 -4.5842908503E-002 
5800000000.000 -6.7020185558E-002 -8.7427578299E-003  -2.8938543470E-001 +6.0343055603E-001  -7.4322775532E-001 -1.4998152653E-001  -2.6931566859E-002 -9.1361065023E-002 
6000000000.000 +3.1981254569E-002 -1.4184103145E-001  -1.8748869327E-001 -6.2107829859E-001  +8.8202360855E-002 -7.5211759211E-001  +5.3901957786E-002 +2.4231431520E-002 
6200000000.000 +6.5999256551E-003 -5.6252583254E-002  +5.2203023799E-001 +3.6216888608E-001  +6.9256976022E-001 +6.1703970806E-003  +1.3937939861E-001 +5.9232882640E-002 
6400000000.000 -2.4413416150E-001 +1.2514176472E-001  -5.5969004118E-001 +2.0523861038E-001  +2.8288298108E-001 +5.9046552070E-001  -2.3063745637E-001 -2.6460952785E-001 
6600000000.000 +1.4206790241E-001 +1.6573928258E-002  +3.9789588880E-001 -4.8222803533E-001  -6.1896101913E-001 +2.8474366322E-001  +7.1295667078E-002 +1.7488322341E-002 
6800000000.000 +2.5571539771E-002 +7.0842396215E-002  +1.3511491722E-002 +6.1498951302E-001  -3.7525720781E-001 -5.6067955187E-001  -1.7390950515E-002 +1.1059790906E-001 
7000000000.000 +4.2762729096E-003 -2.3281472789E-002  -4.6478123735E-001 -3.8868037855E-001  +3.1455053514E-001 -5.2382173788E-001  +4.4477375102E-002 -2.4390623110E-002 
7200000000.000 -1.0732997770E-001 -8.0880181214E-002  +5.8360330152E-001 +2.8051377437E-002  +5.2462592992E-001 +2.1207514822E-001  +1.4432972741E-001 -5.8903005902E-002 
7400000000.000 -8.8880823790E-002 -6.1787079957E-003  -4.4887787344E-001 +3.4535236323E-001  -1.5723923404E-001 +5.6214575461E-001  -2.0790043285E-001 -4.0545741877E-003 
7600000000.000 +1.2098501811E-001 +1.2940419045E-002  +9.2279964325E-002 -5.6525913099E-001  -5.5467265344E-001 -5.5173260536E-002  +1.2345929688E-001 +2.4750065097E-002 
7800000000.000 -2.3957962271E-001 -1.1803325288E-001  +2.8624848933E-001 +4.5789885539E-001  -7.5325581076E-002 -4.8256511124E-001  -5.7264684493E-002 -1.0086462532E-001 
8000000000.000 +8.7252502475E-002 -3.0140384477E-002  -5.0066256311E-001 -1.7593071614E-001  +4.9975635391E-001 -1.1673558360E-001  -4.0660274528E-003 -1.4822503437E-002 
8200000000.000 -1.0082307492E-001 +1.0472836875E-001  +4.3927116211E-001 -2.2139927132E-001  +1.9940558111E-001 +4.3839317197E-001  -6.2732919862E-002 +7.6600982390E-002 
8400000000.000 +9.5084579148E-002 -2.1134690519E-003  -2.4389667275E-001 +3.8772117789E-001  -3.6365197092E-001 +2.6291423213E-001  +8.5389160300E-003 +1.2570976842E-002 
8600000000.000 +1.6300140138E-001 -4.0957586658E-002  -1.2270476597E-001 -3.8166220010E-001  -2.7677248343E-001 -2.8291959186E-001  +1.8862683480E-001 -8.9165055043E-002 
8800000000.000 -1.0087211081E-001 -6.5748827871E-002  +3.6069727881E-001 +1.8987718534E-001  +1.7849594619E-001 -3.7108868350E-001  -1.3775565144E-001 -6.1239943529E-003 
9000000000.000 -3.1591403102E-002 +3.1601179012E-002  -3.6832922743E-001 +6.9675074340E-002  +3.6386174049E-001 +1.4290167428E-001  -7.3730865056E-003 -1.8449489457E-002 
9200000000.000 -9.4972787002E-002 +7.6882735620E-002  +2.1033989377E-001 -3.0601901944E-001  -7.3248600448E-002 +3.5732319526E-001  +2.7239349852E-002 +1.5647983931E-001 
9400000000.000 +6.2820896732E-002 +1.6143590637E-002  +7.3030506511E-002 +3.4758810075E-001  -3.5250456930E-001 +3.3129897508E-002  +9.3051434522E-004 -5.0605856924E-002 
9600000000.000 -7.8829744570E-002 -7.0269899765E-002  -2.6903710257E-001 -2.2050198334E-001  -6.3779329299E-002 -3.4631649976E-001  -2.9387159129E-003 +1.1203662553E-003 
9800000000.000 -3.0692122090E-003 -1.9763840494E-002  +3.3553837659E-001 -1.8280627412E-002  +3.2160469163E-001 -1.3767393591E-001  -1.4118533777E-002 +6.6094320570E-002 
10000000000.000 -4.5399327045E-002 +1.2601499460E-002  -2.1592351183E-001 +2.2816733029E-001  +8.9392536932E-002 +3.0614675773E-001  -3.4960224633E-002 +6.6601488652E-002 
10200000000.000 +2.6956076910E-002 -3.8972248738E-003  +6.9416521196E-002 -3.0998421461E-001  -1.8148147135E-001 +2.5498844389E-001  -6.9830613584E-003 -6.5291031649E-002 
10400000000.000 +8.7411152210E-002 -1.7965363413E-002  +1.3801455678E-001 +2.5799818405E-001  -2.5336491220E-001 -1.9278658672E-001  -5.1129251287E-002 -3.6067182677E-002 
10600000000.000 -5.4536855031E-002 -9.5224158256E-002  -2.7757735492E-001 -8.2356468141E-002  +1.8832963877E-001 -2.2509099882E-001  -5.2539844766E-002 +1.4996925287E-001 
10800000000.000 -7.0088688470E-002 +1.9808036720E-002  +2.6713727952E-001 -7.6391980980E-002  +2.7251828693E-001 +9.6282511151E-002  +2.6136922579E-002 -5.7900726530E-002 
11000000000.000 +7.7232107457E-002 +1.5242777291E-002  -1.6790766578E-001 +2.2897927241E-001  -4.6984502391E-003 +2.9648711625E-001  +9.7845070280E-002 -1.7957407185E-002 
11200000000.000 +4.3674583505E-005 +5.3328402169E-002  -2.6037445890E-002 -2.6373554652E-001  -2.8949167766E-001 +3.0487439510E-002  -1.0319835943E-001 -4.4960280018E-002 
11400000000.000 +7.4203644524E-002 -7.9428658402E-002  +1.8316129953E-001 +1.8486297884E-001  -7.2759017592E-002 -2.8106230781E-001  +7.1576901168E-003 -9.9064759353E-003 
11600000000.000 +1.9707504841E-002 -9.3477364601E-003  -2.4431271936E-001 +2.4490520301E-002  +2.4459006962E-001 -1.0480598910E-001  +4.1915543910E-002 +1.4478156596E-001 
11800000000.000 -1.2410648233E-001 +8.6363165122E-002  +1.5078245927E-001 -1.9237141284E-001  +1.5536250479E-001 +2.1826792610E-001  +4.5103932315E-002 -1.0484798323E-001 
12000000000.000 +1.3035135950E-001 -2.7358311194E-002  -3.8847518017E-002 +2.2795761612E-001  -2.1382885736E-001 +1.3903631860E-001  -4.7673022736E-002 +7.0203009815E-002 
12200000000.000 -6.8600794753E-002 -5.2053991008E-002  -8.5609766657E-002 -2.1119039354E-001  -1.5279815033E-001 -2.0101023420E-001  -3.5568102450E-002 +3.9746826148E-002 
12400000000.000 -5.9320803493E-002 +2.1331341254E-003  +1.9178666217E-001 +1.0900568537E-001  +1.6883530615E-001 -1.7557003656E-001  +1.0077479319E-001 -2.7596962301E-002 
12600000000.000 -2.5785865586E-002 -4.6695921632E-002  -1.9744915797E-001 +8.8466012320E-002  +2.0975762410E-001 +1.2502123951E-001  -5.4621524220E-002 +6.8476393898E-002 
12800000000.000 +5.1948330298E-002 -2.2670075652E-003  +6.5846200369E-002 -2.0311556406E-001  -4.4792060287E-002 +2.4191711991E-001  -1.1001535616E-002 -1.0428408595E-001 
13000000000.000 +9.9008323618E-002 -1.4365265677E-002  +6.9635316584E-002 +1.9497415946E-001  -2.3513926566E-001 -1.0076900403E-002  -1.7946026287E-002 +1.3682346990E-001 
13200000000.000 -8.1687498561E-002 -1.9024414573E-001  -1.3879733670E-001 -1.3742459202E-001  +3.2576164329E-002 -2.0112290092E-001  +9.5090912639E-002 +1.2665462676E-002 
13400000000.000 +5.1983771138E-002 +1.2569887772E-001  +1.7350700491E-001 +9.5190747523E-002  +2.1414760741E-001 +7.4162781663E-002  -9.1292967201E-003 +2.1081330335E-003 
13600000000.000 -3.4286850012E-002 +1.1807670250E-002  -1.8630400797E-001 +9.0161241359E-002  +8.4719572209E-003 +2.3839989975E-001  -9.4533877151E-002 +1.7817017011E-002 
13800000000.000 +1.1455209049E-002 -7.5061797910E-002  +6.3096977642E-002 -1.9496806424E-001  -1.8374767386E-001 +1.1917838928E-001  +7.1289477319E-002 +7.9746186238E-003 
14000000000.000 +5.3737412826E-002 -2.6846825514E-003  +8.6646108532E-002 +1.6784414881E-001  -1.4263045901E-001 -1.3942604450E-001  -3.0895455406E-003 +1.1005498913E-001 
14200000000.000 -1.0188764387E-001 +3.2332378568E-002  -1.7215372362E-001 -1.0515837115E-001  +1.2372862132E-001 -1.6777763337E-001  -5.8453335724E-002 -1.0225367918E-001 
14400000000.000 +9.0653940845E-002 +3.7832252227E-002  +1.8818852393E-001 -2.2836977872E-002  +1.5088054259E-001 +1.3937908895E-001  -5.0610434864E-002 +4.7806090745E-002 
14600000000.000 +7.3822041283E-002 -2.5965113724E-002  -1.1367666548E-001 +1.4082703053E-001  -1.1130530125E-001 +1.4388160875E-001  +3.9878731162E-003 +5.3649199721E-002 
14800000000.000 -1.4979987121E-002 +1.1647164401E-002  -7.9940421099E-003 -1.9461991986E-001  -1.8301959656E-001 -6.9948178574E-002  +1.4514625406E-002 +4.9556481576E-002 
15000000000.000 -9.8801495319E-003 -4.9995634549E-002  +1.4635205066E-001 +1.2347871809E-001  +2.8951828684E-002 -1.8845170538E-001  -6.6750119617E-003 -8.7006857417E-002 
15200000000.000 -3.3024786057E-002 +9.8384792702E-002  -1.9436006735E-001 -7.1666991072E-003  +1.8270837302E-001 +8.8207204668E-003  -2.0726860599E-002 +4.1125439523E-002 
15400000000.000 +4.4494372509E-002 -6.1188569436E-003  +1.2935757953E-001 -1.3660738810E-001  +8.1511212310E-003 +1.7662207368E-001  -1.4304375501E-002 +8.8941167488E-002 
15600000000.000 -2.4148362979E-002 -3.9506287463E-002  -2.8378010703E-002 +1.9905045080E-001  -1.7231760122E-001 +7.1453633452E-002  -2.5686740636E-002 -8.5505305478E-002 
15800000000.000 -5.0000474480E-004 +4.1041975125E-002  -7.9041058870E-002 -1.9079150154E-001  -8.9009232515E-002 -1.6084818007E-001  +3.5353463377E-002 +9.8003986675E-002 
16000000000.000 +2.5950361580E-002 -2.3145593563E-002  +1.7505021885E-001 +7.8819269452E-002  +1.6334535123E-001 -6.2941659562E-002  -3.2808439352E-002 -5.3213061999E-002 
16200000000.000 -2.6487392623E-002 +8.3079000505E-002  -1.8900065991E-001 +5.1142917135E-002  +9.5149588588E-002 +1.4021847833E-001  -4.5731738229E-002 +5.6255631680E-002 
16400000000.000 +5.1020952925E-002 -1.9281773036E-002  +8.5062332207E-002 -1.6537112473E-001  -1.1444738505E-001 +1.1709161285E-001  +5.6652556628E-002 -3.3612664782E-002 
16600000000.000 -4.8831727948E-002 -3.2437405334E-002  +1.4977396526E-002 +1.7928524563E-001  -1.4628716570E-001 -7.7781226558E-002  -1.7172081949E-002 +2.2435423158E-002 
16800000000.000 -1.3632867969E-003 +7.7651506569E-002  -9.5066677398E-002 -1.5223963117E-001  +5.9465765438E-002 -1.4538417593E-001  -4.9440699556E-002 +7.4311983539E-002 
17000000000.000 -1.3243195113E-002 -9.5884553641E-003  +1.7325284390E-001 +4.7444529596E-002  +1.5000903460E-001 +4.4285787919E-002  +2.9508312319E-002 -9.5589174609E-002 
17200000000.000 +2.0881682467E-002 +1.7759407184E-003  -1.2859763301E-001 +1.1410063697E-001  -1.8746119112E-002 +1.5053924495E-001  +5.6265258980E-003 +1.3833491961E-001 
17400000000.000 +1.0988435523E-002 +7.2434218788E-002  +1.1277816220E-002 -1.5634061922E-001  -1.4061911566E-001 +7.7417269860E-003  -6.1521189324E-002 -2.4144575280E-002 
17600000000.000 -7.1985659777E-002 -4.0463351749E-002  +9.9521044043E-002 +1.2607051686E-001  -5.2807820402E-002 -1.3177721080E-001  +4.2557315913E-002 +2.4782535133E-004 
17800000000.000 -6.1022807522E-003 +7.0335031246E-002  -1.4718820840E-001 -4.5993550968E-002  +1.1281034834E-001 -7.7663011795E-002  -1.3894491580E-002 +7.6201570062E-002 
18000000000.000 +1.6700606337E-002 -5.0054239721E-004  +1.4236924573E-001 -6.2542353538E-002  +9.0376308781E-002 +1.0302267767E-001  -3.9677755618E-002 -8.2476237560E-002 
18200000000.000 -5.7207234986E-002 -8.1389237772E-002  -8.7541714537E-002 +1.2964711858E-001  -1.0103283517E-001 +9.2383718916E-002  -4.4376128640E-002 +1.1131344287E-001 
18400000000.000 -4.6890266070E-002 +6.9979849750E-002  -4.0192044569E-002 -1.3839478618E-001  -1.0643245618E-001 -6.7059233942E-002  +9.5204350658E-003 +4.5777473354E-002 
18600000000.000 -2.3215117812E-002 -7.9736116284E-002  +1.4469944397E-001 +6.0648041166E-002  +5.9981495351E-002 -1.1509639512E-001  -6.6223672017E-002 -3.5125194582E-002 
18800000000.000 -2.1597552292E-002 +4.0223285156E-002  -1.3624462527E-001 +3.7643077727E-002  +1.3068743637E-001 +2.0946416682E-002  +1.6509906512E-002 +2.6459944342E-002 
19000000000.000 +4.0970758802E-002 -3.2907646678E-002  +9.1386919703E-002 -1.2330380981E-001  -3.7518650316E-003 +1.3365366915E-001  -5.2498159179E-002 +1.0143617595E-003 
19200000000.000 -5.9528906887E-002 -1.2978705514E-001  -1.0169215135E-002 +1.3301595399E-001  -1.1404235704E-001 -8.7038528768E-003  -5.9784844796E-002 +5.9061217645E-002 
19400000000.000 +4.4472290369E-002 +9.3042683506E-002  -9.6833265288E-002 -1.1820356029E-001  -2.8064182909E-002 -1.2624549084E-001  +7.8367435716E-002 -5.8152623798E-002 
19600000000.000 +1.6343404646E-002 -7.1869731049E-002  +1.4917877617E-001 +2.9056028424E-002  +1.2355622741E-001 -4.9534243253E-002  -1.1920404882E-001 +3.4949854535E-002 
19800000000.000 +3.7067074811E-002 -2.6322916262E-002  -1.2097360006E-001 +8.9254606731E-002  +6.0502484524E-002 +1.2149124677E-001  +9.8605601490E-003 -2.3232309843E-003 
20000000000.000 -1.3157692362E-003 +1.1880318102E-003  +3.0560724504E-002 -1.4522165367E-001  -1.2887945846E-001 +3.0585592701E-002  -4.3412135892E-003 +4.5689381382E-002 
20200000000.000 -2.2659951532E-003 -8.0720654292E-002  +3.7940060957E-002 +1.3675691916E-001  -1.2625115193E-001 -3.4474493659E-002  -2.1834861440E-002 +5.5521879766E-003 
20400000000.000 -1.0102180470E-003 +6.6265934535E-002  -1.1491236988E-001 -7.9205696842E-002  +1.1734646531E-002 -1.2849988762E-001  +1.4108268147E-002 -3.1432091956E-002 
20600000000.000 +3.9855830098E-002 -6.7193229628E-003  +1.3467014763E-001 -7.1071951022E-003  +1.2277940450E-001 +8.8454175233E-003  -3.2042305742E-002 +1.0593837979E-001 
20800000000.000 +6.1557909626E-002 -3.0524939619E-002  -9.6048139841E-002 +9.7681516665E-002  -1.2381922028E-002 +1.2345495767E-001  +2.9186267390E-004 -2.7900443907E-002 
21000000000.000 -4.0552839590E-002 -3.7679679469E-002  -2.8189135745E-002 -1.1903822149E-001  -1.1339706761E-001 -1.8184589518E-002  +7.6949553057E-002 +9.8558012857E-003 
21200000000.000 +5.4261490161E-002 +5.8396147925E-002  +7.9806061817E-002 +8.5003455002E-002  +2.1240234501E-002 -1.0129170050E-001  -1.1056408511E-001 +6.4583595307E-002 
21400000000.000 +1.4659253123E-002 -3.6194976396E-002  -1.3063050678E-001 -4.2899807193E-003  +1.1420525418E-001 -2.0065229329E-002  +9.1821895115E-002 +1.4494532458E-002 
21600000000.000 +3.4943099559E-002 +4.4814662660E-002  +1.1209328669E-001 -7.0327305735E-002  +6.4605162740E-002 +9.3812396456E-002  -3.0205260768E-002 +4.0824348727E-002 
21800000000.000 -3.2484116113E-003 -1.5495795740E-002  -4.2239122951E-002 +9.7164599239E-002  -4.9554818582E-002 +8.1115223110E-002  +9.0410150826E-005 -1.8253529071E-002 
22000000000.000 -6.3383521838E-003 -2.4437190663E-003  -1.2893622554E-002 -1.1972968963E-001  -8.4729906255E-002 -5.8328893416E-002  +5.4411679173E-003 +4.9178095935E-002 
22200000000.000 +7.3624121226E-002 +1.1728238817E-001  +9.1663122957E-002 +7.1175172731E-002  +4.0413118017E-002 -9.1523513339E-002  -3.0375449300E-002 +6.8082030094E-002 
22400000000.000 -1.7947447427E-002 -8.9010002185E-002  -1.1871624963E-001 +7.4961229069E-003  +1.0062649377E-001 +1.6437987954E-002  +1.0736241280E-001 -5.5066020717E-002 
22600000000.000 +1.0663796787E-002 +6.1125957829E-002  +9.1089479476E-002 -5.9244927802E-002  -7.8742595466E-003 +8.9933395664E-002  -1.1158395541E-001 +5.2051592439E-002 
