!  2-Port S-parameters saved by WinCal
! VAR MeasName=S-Parameters (CALIBRATED_DATA) read from VNA (MS4647B)
! VAR MeasDate=27-Apr-22 15:17:07
! VAR NAME=RAW_line_5mm_1
! VAR FILENAME=RAW_line_5mm_1.S2P
! VAR DATE=27-Apr-22 15:17:07
! VAR PHYS_PORTS=1,2
! VAR ObjTypeName=DATASET
! VAR IndexType=Frequency
! VAR ChuckHeaterState=Unknown
! VAR ChuckTemp=NaN
! VAR ChuckTempUnits=Unknown
!
# Hz S RI R 50
200000000.000 -1.8862968980E-002 -8.3430865713E-002  -2.5323850936E-001 -6.8402892170E-001  -3.7434148987E-001 -6.4140560154E-001  +2.0536221338E-002 -6.4198689852E-002 
400000000.000 +1.1834531379E-001 -1.0432094860E-001  -4.1777142621E-001 +5.4184574636E-001  -2.4746792640E-001 +6.5221919325E-001  -1.3962351477E-001 +8.5338582577E-003 
600000000.000 +6.2302907599E-002 -6.5386619102E-002  +5.8237246217E-001 +1.9676656485E-001  +5.6919811342E-001 -2.1864414705E-001  -5.1607672986E-002 +5.4056381981E-002 
800000000.000 +7.7070341213E-002 -2.0312649290E-001  -2.3918748461E-001 -6.2057274075E-001  -5.9199401157E-001 -2.7102848238E-001  +1.5455330349E-001 +5.3827542151E-002 
1000000000.000 +1.2898883754E-001 -1.9514863338E-001  -2.1114045204E-001 +6.7569641606E-001  +3.5245585202E-001 +5.7611309495E-001  +2.1810071384E-001 -6.1161350848E-002 
1200000000.000 +7.5865586558E-002 -2.4161090443E-001  +7.0231536548E-001 -2.0959654753E-001  +1.5712231465E-001 -6.6518016136E-001  -1.2176970883E-001 -1.3346797497E-001 
1400000000.000 +5.0904225596E-002 -1.7371429971E-001  -6.3298963286E-001 -3.7205530719E-001  -5.4720559267E-001 +3.9572516513E-001  -1.3664647276E-002 -4.3782733489E-002 
1600000000.000 +1.8764318153E-001 +1.2269484567E-001  +1.2100728898E-001 +6.1165395490E-001  +5.4142944146E-001 +8.3753133524E-002  -1.8417583015E-001 -5.8382895309E-002 
1800000000.000 +7.9560810517E-002 -8.1047995202E-003  +3.6063340942E-001 -3.8510756993E-001  -2.8240768586E-001 -3.6369511609E-001  +3.5197309959E-002 +1.0902583436E-001 
2000000000.000 +1.1240417153E-001 +2.6781938422E-002  -4.5359280902E-001 -3.4352851962E-002  -5.9774989019E-002 +3.7827764546E-001  +1.6406064822E-001 -8.2833874111E-003 
2200000000.000 +4.2126837415E-002 -1.6277106219E-001  +2.0595440401E-001 +3.6773928949E-001  +3.1779883234E-001 -1.9370152413E-001  -4.4317279131E-002 -2.1463287994E-001 
2400000000.000 +2.5915752351E-002 -1.5393808501E-001  +1.0275287170E-002 -4.1849742669E-001  -3.8403846107E-001 +1.8996323197E-002  -1.4487135306E-001 +1.1714771783E-003 
2600000000.000 +5.8631806761E-002 +4.5176158996E-002  -7.3256213628E-001 -1.8778588410E-001  -2.4542112363E-001 +4.5999434591E-001  +5.2888933591E-003 -2.7437243525E-002 
2800000000.000 +5.5232264461E-002 -1.9302589856E-001  +5.6257917647E-001 -6.6763339351E-001  -7.1813228671E-001 -5.3655959801E-002  -1.1772107200E-001 +8.1101719600E-002 
3000000000.000 -1.0085080936E-003 +3.5615583302E-002  +2.4482557677E-001 +8.4204643799E-001  -2.6824359735E-001 -7.1567737300E-001  +4.0424301300E-002 -2.0007498460E-002 
3200000000.000 -1.1639221325E-001 -2.2195833359E-001  -7.1215098364E-001 -1.8856251889E-001  +4.2848815927E-001 -4.9129728348E-001  +7.8107205002E-002 +1.6912022958E-001 
3400000000.000 +2.8890281644E-001 -8.1010616587E-002  +6.4534375602E-001 -4.8951853469E-001  +6.5226455432E-001 +3.6137860195E-001  -1.5084652798E-001 +1.3862774808E-001 
3600000000.000 +7.7874386830E-002 +5.4301747984E-002  -4.6366388718E-003 +8.4099779232E-001  -2.2257223539E-002 +8.6158552883E-001  -3.9347961350E-002 -2.7180512924E-002 
3800000000.000 -3.5684066700E-001 -2.9572713776E-002  -5.8036486980E-001 -6.4911985574E-001  -7.9929409003E-001 +1.1481410695E-001  +2.5496168681E-001 +1.1615585860E-001 
4000000000.000 +1.0410408804E-001 +1.0085214117E-001  +8.7177397649E-001 -8.9735753111E-002  -3.9532780124E-001 -6.4932664008E-001  -8.7736257694E-002 -7.9108259697E-003 
4200000000.000 +1.9009050320E-001 +1.6146523137E-001  -5.5654564973E-001 +6.8977175394E-001  +5.6546628479E-001 -6.0196033235E-001  -2.2891622929E-001 -6.3667813701E-002 
4400000000.000 -6.1949248964E-002 -7.8648409317E-002  -1.1457064221E-001 -8.4832823595E-001  +8.1365716016E-001 +3.6187602614E-001  +1.1190686858E-001 +1.9278649895E-003 
4600000000.000 -5.6393876576E-002 -1.4276485867E-001  +6.9024184930E-001 +4.8632234577E-001  -2.6206266991E-001 +7.9300934896E-001  +1.4357084142E-001 +8.8661676049E-002 
4800000000.000 -1.3003263850E-001 +4.9248458387E-002  -8.4001843758E-001 +9.6199198576E-002  -7.9713299730E-001 -4.2516837513E-002  +8.6886462303E-002 -6.6092186921E-002 
5000000000.000 -6.6261469290E-002 +2.3821612092E-001  +4.8126686613E-001 -6.0277542308E-001  -2.8831049844E-001 -7.8430088684E-001  -1.2221890606E-001 -1.4988039267E-001 
5200000000.000 -1.4461324656E-002 -1.7571704669E-001  +1.4311808741E-002 +7.9075281036E-001  +8.4275105417E-001 -3.1660707097E-001  +1.6367620079E-001 +1.9249186080E-001 
5400000000.000 -1.4697832588E-001 -1.2418273458E-002  -5.6163451514E-001 -5.2458847363E-001  +4.3616391913E-001 +6.8292651945E-001  -5.9299352565E-002 -8.3024638935E-002 
5600000000.000 +1.1249119557E-002 +9.1263065840E-002  +7.1328898668E-001 +1.4658313910E-003  -4.5435691078E-001 +6.1237273097E-001  -9.1432947290E-002 -8.9281365947E-002 
5800000000.000 -2.2191195524E-002 -2.6295846290E-002  -4.4942212438E-001 +5.0383217241E-001  -6.8046759985E-001 -3.5277857757E-001  +2.1039532842E-002 -5.9990482518E-002 
6000000000.000 +8.7514037789E-002 -1.5003825328E-001  +6.2249620576E-003 -6.4496776543E-001  +3.0438288983E-001 -6.8659223724E-001  +6.6253837633E-002 +8.0937681540E-002 
6200000000.000 +1.6523119473E-002 -7.8925261058E-002  +3.8880216609E-001 +5.0373672283E-001  +6.6007678265E-001 +2.1493723705E-001  +1.5243191669E-001 +6.4834118443E-002 
6400000000.000 -2.5585655944E-001 +7.8097254103E-002  -5.9742641543E-001 +2.9143508924E-002  +9.5103460849E-002 +6.4846406887E-001  -1.7154367727E-001 -2.9014774157E-001 
6600000000.000 +1.5386673217E-001 +5.3510617347E-003  +5.3298929349E-001 -3.2859843524E-001  -6.7755054780E-001 +6.9085470073E-002  +1.2738177163E-001 +4.0855431321E-002 
6800000000.000 -9.2464131445E-003 +9.6583971359E-002  -1.8747599845E-001 +5.8631400816E-001  -1.7150775215E-001 -6.5060584922E-001  -5.1748614582E-002 +1.2672759299E-001 
7000000000.000 -2.6917455368E-002 -2.2280535295E-002  -3.0469711464E-001 -5.2625919502E-001  +4.7772640489E-001 -3.8483333624E-001  -1.8052617724E-004 -2.3018010351E-002 
7200000000.000 -5.8068443446E-002 -1.0121027399E-001  +5.4109957763E-001 +2.2662661953E-001  +4.2048568973E-001 +3.8038418553E-001  +1.5658000778E-001 -4.2577374524E-002 
7400000000.000 -2.7738983498E-002 +3.1967064843E-004  -5.4755041925E-001 +1.5879998878E-001  -3.5579462466E-001 +4.6971173556E-001  -1.8307806748E-001 +2.9617927141E-002 
7600000000.000 +1.5365424516E-001 -2.6488573982E-002  +2.9823913592E-001 -4.9337976224E-001  -4.9732698852E-001 -2.5849418449E-001  +1.5281956796E-001 +1.1358975500E-002 
7800000000.000 -1.9831117406E-001 -1.6892462552E-001  +9.4943593252E-002 +5.2562058236E-001  +1.0831068278E-001 -4.7077866285E-001  -2.3129934258E-002 -1.2499456737E-001 
8000000000.000 +1.1058297706E-001 -1.7923845696E-002  -3.9568167801E-001 -3.5727065377E-001  +5.0945202505E-001 +8.5223280979E-002  +2.7595344504E-003 -3.0676001214E-002 
8200000000.000 -1.3108971415E-001 +1.3638987293E-001  +4.8928923769E-001 -2.9106882384E-002  +9.6886362917E-003 +4.8085270221E-001  -8.7613687774E-002 +7.8489523008E-002 
8400000000.000 +7.8897321483E-002 +1.9304477501E-002  -3.8098491638E-001 +2.5680882204E-001  -4.3985561904E-001 +9.4140893304E-002  +1.3877495158E-002 +1.9136057384E-002 
8600000000.000 +1.6873892113E-001 -4.6000372057E-003  +3.9367099410E-002 -3.9936156908E-001  -1.4066168624E-001 -3.7043436012E-001  +2.1948581205E-001 -4.6314742053E-002 
8800000000.000 -1.0278220640E-001 -4.7613589833E-002  +2.4651024210E-001 +3.2670545759E-001  +3.2121649298E-001 -2.6099422387E-001  -1.2643966897E-001 +3.4297712872E-002 
9000000000.000 -2.0566567513E-002 -1.3074104437E-002  -3.5991739531E-001 -9.3758046407E-002  +2.6629018745E-001 +2.8305551532E-001  -2.9276075559E-002 -3.5612817339E-002 
9200000000.000 -7.2860399464E-002 +2.3365336944E-002  +3.3177721151E-001 -1.8363511643E-001  -2.2927036534E-001 +2.9387619764E-001  +1.5450924561E-002 +1.2009412042E-001 
9400000000.000 +6.7019805987E-002 -6.3710430687E-003  -9.1604543374E-002 +3.4476170612E-001  -3.3103382035E-001 -1.2967236294E-001  -1.6537169678E-002 -4.9421438822E-002 
9600000000.000 -8.9935759373E-002 -9.6675339471E-002  -1.3776384306E-001 -3.1640799626E-001  +1.0059786770E-001 -3.3508018657E-001  -4.9313303056E-002 +1.2243854961E-002 
9800000000.000 +2.4061134766E-002 -2.4083584331E-002  +3.0451418197E-001 +1.4228889767E-001  +3.4877809718E-001 +3.0001688267E-002  -4.2024501938E-002 +4.2939376477E-002 
10000000000.000 -2.5847074659E-002 +5.3346068011E-002  -3.0467476946E-001 +9.6297055585E-002  -7.1481495820E-002 +3.1646355374E-001  -9.4631655445E-003 +3.5564252985E-002 
10200000000.000 +4.0665293365E-002 +2.5147529362E-002  +2.0831956033E-001 -2.3713967743E-001  -2.7980212453E-001 +1.3562549324E-001  +4.0091541175E-003 -9.4006823355E-002 
10400000000.000 +1.2592192517E-001 -1.6884322351E-002  -5.5505247435E-003 +2.9061536406E-001  -1.2629230511E-001 -2.8967332519E-001  -6.9744968593E-002 -5.9392562320E-002 
10600000000.000 -1.7272114772E-002 -8.6922997419E-002  -2.0303167100E-001 -2.1324341031E-001  +2.7965514115E-001 -1.0337713392E-001  -6.3460313248E-002 +1.2611128212E-001 
10800000000.000 -6.5346107800E-002 +1.7651808883E-002  +2.7022283490E-001 +7.0259287040E-002  +1.8705545044E-001 +2.2213140499E-001  +2.8836587076E-002 -5.3990592830E-002 
11000000000.000 +7.9123603422E-002 +7.6859519217E-003  -2.6395811912E-001 +1.0978043410E-001  -1.5817339351E-001 +2.5308892241E-001  +9.6746898305E-002 +1.0313243189E-002 
11200000000.000 -4.3550154490E-003 +7.9002563277E-002  +1.1637912294E-001 -2.3965787763E-001  -2.6373353445E-001 -1.2623091536E-001  -1.0260409921E-001 -4.4619232428E-002 
11400000000.000 +4.5952903379E-002 -3.9536549669E-002  +5.6766786026E-002 +2.5703769456E-001  +9.0063266001E-002 -2.7960883147E-001  +1.6670714363E-002 -1.7682212410E-002 
11600000000.000 +2.2878740005E-003 +1.7287378230E-003  -2.2013359907E-001 -1.1327928080E-001  +2.6440660917E-001 +4.5249530741E-002  +2.4652785205E-002 +1.4510940396E-001 
11800000000.000 -1.0797793343E-001 +7.9654194307E-002  +2.3594025761E-001 -7.7276771927E-002  +8.4848729212E-003 +2.7149626097E-001  -8.3699408960E-003 -1.0947511594E-001 
12000000000.000 +1.5100907758E-001 -3.2012742609E-002  -1.5800789732E-001 +1.6705529730E-001  -2.5354677750E-001 -2.8794738066E-003  -7.4437097134E-002 +4.7990253193E-002 
12200000000.000 -4.2190717980E-002 -8.2301569955E-002  +4.8259238479E-002 -2.2101613291E-001  -1.2032979848E-002 -2.5034812693E-001  -4.2343035941E-002 +5.8441338578E-002 
12400000000.000 -1.1939444866E-002 -2.0705522474E-002  +9.6878195933E-002 +2.0627055155E-001  +2.4716223296E-001 -4.7430213062E-002  +7.4846213567E-002 -7.3366983611E-003 
12600000000.000 +1.2590505415E-002 -3.0965939356E-002  -2.1593958453E-001 -4.1155399137E-002  +1.0186067219E-001 +2.2598978701E-001  -6.5138367335E-002 +4.9737218312E-002 
12800000000.000 +5.9066689532E-002 +3.8708031867E-002  +1.7102199831E-001 -1.2626702672E-001  -1.7666940698E-001 +1.6955130710E-001  -4.8136970128E-003 -1.2189322483E-001 
13000000000.000 +1.0969423956E-001 +1.5148193385E-002  -5.8420045038E-002 +1.9669831654E-001  -1.8189896448E-001 -1.4564510264E-001  -4.6726316864E-002 +1.4917098906E-001 
13200000000.000 -6.9175301374E-002 -1.3776102634E-001  -2.8542521163E-002 -2.0924485110E-001  +1.6068663479E-001 -1.5082082698E-001  +2.7606070562E-002 -7.3687504405E-003 
13400000000.000 +2.8660404264E-002 +1.6026872436E-001  +7.9167876672E-002 +1.7363695251E-001  +1.2311929744E-001 +1.8101694511E-001  -2.3108005814E-002 -5.3397797414E-002 
13600000000.000 -3.6295658236E-002 +1.1064018628E-002  -2.0338001362E-001 -4.5415579079E-002  -1.4228497088E-001 +1.9310355651E-001  -1.0749319284E-001 +1.0000431493E-002 
13800000000.000 +3.5205934595E-002 -7.8234181427E-002  +1.7400510751E-001 -1.1505222753E-001  -2.2199853329E-001 -2.2130707695E-002  +3.8789061288E-002 +2.7182368660E-003 
14000000000.000 +4.5231029921E-002 +2.3433175014E-002  -3.5792902607E-002 +1.8967198477E-001  -2.7098535208E-002 -2.0209878900E-001  -2.3143324565E-002 +5.9846896383E-002 
14200000000.000 -1.4114070387E-001 +3.8610226499E-002  -6.0544600856E-002 -1.8411842371E-001  +1.9506950126E-001 -4.6068602152E-002  -3.6145989935E-002 -1.5644289761E-001 
14400000000.000 +7.3671949235E-002 +4.7341584702E-002  +1.5899959624E-001 +1.0453131617E-001  +2.5311898988E-002 +2.0462453403E-001  -5.0872436657E-002 +2.8224149537E-002 
14600000000.000 +5.7358024558E-002 +1.0564241731E-002  -1.8401418814E-001 +3.6958992894E-002  -1.8410429956E-001 +4.1395366265E-002  -2.4663857321E-002 +1.9386542764E-002 
14800000000.000 -5.2455833059E-002 +2.4261748116E-002  +1.2165615097E-001 -1.4673393193E-001  -8.7661843717E-002 -1.7049822972E-001  +4.0966255585E-003 +1.7041651901E-002 
15000000000.000 -1.4566396281E-002 -6.4922550759E-002  +2.5033099397E-002 +1.9040821735E-001  +1.4861625399E-001 -1.2009322151E-001  +3.5139865128E-003 -8.6111637183E-002 
15200000000.000 -2.2865531095E-002 +9.2012308353E-002  -1.3823745186E-001 -1.3764062541E-001  +1.2861889538E-001 +1.3098088682E-001  -2.9659747794E-002 +3.5301097524E-002 
15400000000.000 +2.6081750904E-002 -2.1547424009E-002  +1.9113654459E-001 -1.3533656627E-002  -1.1508034125E-001 +1.3800266481E-001  -2.2992947098E-002 +5.0304756338E-002 
15600000000.000 -3.2563234329E-002 -6.3310029220E-002  -1.5915496696E-001 +1.2020497928E-001  -1.7093349910E-001 -6.9748689618E-002  -1.8092046397E-002 -1.2369965754E-001 
15800000000.000 -8.1362820985E-003 +4.8529494241E-002  +7.8766611437E-002 -1.9203480499E-001  +5.0459336290E-002 -1.7787248461E-001  +1.8635775189E-002 +8.1054838273E-002 
16000000000.000 -1.0136889837E-002 -1.7592392058E-002  +7.2696909370E-002 +1.7890054019E-001  +1.6272676757E-001 +6.7757320661E-002  -5.0785895542E-002 -8.0156372691E-002 
16200000000.000 -3.7901406480E-002 +6.2724898033E-002  -1.6820651801E-001 -9.8874881371E-002  -3.3774011672E-002 +1.6580694333E-001  -3.7989882234E-002 +4.1208750686E-002 
16400000000.000 +6.1629339935E-002 -1.6127438726E-002  +1.7902228251E-001 -5.3096806914E-002  -1.6457280478E-001 -1.7097723058E-003  +6.2531739244E-002 -3.2282507375E-002 
16600000000.000 -6.4213484382E-002 -3.8348025367E-002  -1.2232539688E-001 +1.3600317209E-001  -4.4519609296E-002 -1.6254188580E-001  -3.7560387024E-002 +2.1096954551E-003 
16800000000.000 -7.5000171286E-003 +3.7894933435E-002  +4.0627959364E-002 -1.7124595194E-001  +1.4240851311E-001 -5.8857962139E-002  -4.1742022450E-002 +3.0743426120E-002 
17000000000.000 +1.1652434702E-002 -2.9115216185E-002  +7.8583786300E-002 +1.6360275655E-001  +6.5587499549E-002 +1.4392710000E-001  +3.5595151268E-002 -1.2135020248E-001 
17200000000.000 -3.3707480216E-005 +3.6576248542E-003  -1.7440676061E-001 -2.1333933453E-002  -1.2792603164E-001 +8.7536127291E-002  -2.2523569902E-002 +1.2761910636E-001 
17400000000.000 -1.9630255696E-002 +3.8683341220E-002  +1.1548542254E-001 -9.7254014121E-002  -9.9643392176E-002 -9.1760656804E-002  -9.2195083060E-002 -6.4080293066E-002 
17600000000.000 -5.6830166254E-002 -9.0529557324E-002  -4.0113672172E-002 +1.4967442928E-001  +7.1358406355E-002 -1.1676630582E-001  +5.1965024203E-002 -4.9245199837E-002 
17800000000.000 +2.2914193968E-002 +5.8630599968E-002  -6.2393100221E-002 -1.4638666948E-001  +1.3650387923E-001 +3.6530790780E-002  +4.7168348630E-004 +5.1514465195E-002 
18000000000.000 +2.8057511057E-002 -2.1873471005E-002  +1.4229509857E-001 +7.4686801350E-002  -2.4766495490E-002 +1.3943848321E-001  -5.4188082717E-002 -1.1982389090E-001 
18200000000.000 -1.3873690824E-002 -1.1733959617E-001  -1.3784104556E-001 +1.6043575125E-002  -1.2038923753E-001 -1.4532409412E-002  -3.4677883382E-002 +4.3482856354E-002 
18400000000.000 +2.3542437243E-002 +5.8835155104E-002  +1.0448295971E-001 -1.2360074322E-001  -3.2752457415E-003 -1.4119130389E-001  +3.6396867583E-002 -1.2003167967E-002 
18600000000.000 +1.2904845705E-002 -6.5943219120E-002  +4.2230069029E-002 +1.4607110360E-001  +1.2347467298E-001 -2.4764702810E-002  -5.2735138674E-002 -6.6876954808E-002 
18800000000.000 +5.2684129245E-003 +4.2594102544E-002  -1.1845569821E-001 -8.5396907452E-002  +6.7674465827E-002 +1.1864009519E-001  +7.7440807462E-003 -1.7135455442E-002 
19000000000.000 +8.6100036095E-002 -3.5235375812E-003  +1.4178167297E-001 +9.2185856137E-003  -1.0597205101E-001 +6.3748106483E-002  -2.6052701653E-002 -5.4861738044E-002 
19200000000.000 -3.5551240864E-002 -8.3257669808E-002  -1.2213118020E-001 +8.2108199297E-002  -7.0343155432E-002 -1.0511021449E-001  -1.2829792102E-002 +3.4112268406E-002 
19400000000.000 +6.0054646922E-002 +1.3556967324E-001  +4.7236665569E-002 -1.4243971648E-001  +9.0010215886E-002 -8.9780777986E-002  +1.1016555659E-001 -8.4350250113E-002 
19600000000.000 +4.0819804667E-002 -3.7242989618E-002  +6.3170474199E-002 +1.2955744433E-001  +1.0835417886E-001 +6.5505602270E-002  -1.0010791092E-001 -1.1340721554E-002 
19800000000.000 +3.5091025843E-002 +1.8058343471E-002  -1.4760989151E-001 -5.6344365628E-002  -7.3236332050E-002 +1.2311724360E-001  +2.3524044159E-002 -4.3091970563E-002 
20000000000.000 -1.0808807285E-002 +1.9178210471E-002  +1.3784271684E-001 -5.5184162799E-002  -9.7204942843E-002 -9.0292864146E-002  +1.7116734695E-003 +3.8509282957E-002 
20200000000.000 -1.7007958894E-003 -6.3569198698E-002  -9.1968437778E-002 +1.0820910163E-001  -4.2453437159E-002 -1.2395833337E-001  -4.6131870623E-002 -1.7437592490E-002 
20400000000.000 -1.0376505413E-002 +1.0220380948E-001  +1.4594635966E-002 -1.4038856492E-001  +1.1971398828E-001 -5.2142760427E-002  +4.8231160993E-003 -8.6090060332E-002 
20600000000.000 +1.5201651871E-002 +1.4220554277E-002  +8.2323323410E-002 +1.0710066142E-001  +6.2616636675E-002 +1.0625723229E-001  -3.2304408266E-002 +6.6562640849E-002 
20800000000.000 +5.0883154254E-002 -4.9890399263E-003  -1.3692738238E-001 -2.7023834311E-002  -1.1227413732E-001 +5.8444650379E-002  -3.4945180932E-002 -3.8901644189E-002 
21000000000.000 -6.0862468260E-002 +5.3732044621E-003  +9.9883133497E-002 -7.4894528346E-002  -2.8867395270E-002 -1.1406304593E-001  +1.7149856458E-002 -2.4357664154E-002 
21200000000.000 +1.0906079592E-002 +8.2130262944E-002  -2.0340499797E-002 +1.1914139554E-001  +9.7368592544E-002 -4.5739732351E-002  -1.3374614797E-001 +1.9189008404E-002 
21400000000.000 -2.2636945728E-002 -2.6895163888E-002  -5.5884426169E-002 -1.1787018062E-001  +7.0168465963E-002 +9.2594363531E-002  +8.3776958672E-002 -1.6877044899E-002 
21600000000.000 +1.2240461466E-003 +6.3308438203E-002  +1.1022649514E-001 +5.7840435865E-002  -4.5800695448E-002 +9.7296337315E-002  -6.3655874565E-002 +1.3385894505E-002 
21800000000.000 -5.2861967635E-002 -8.7978762612E-003  -1.2168888859E-001 +6.1521032350E-003  -1.0925007554E-001 -9.6659736720E-003  -3.6781012800E-002 -6.2607038116E-002 
22000000000.000 -4.6947089157E-002 -3.0480334861E-002  +8.7269389745E-002 -6.7073604562E-002  +5.1851482486E-003 -9.4124591083E-002  +9.8074784167E-004 +4.9526049598E-003 
22200000000.000 +4.7133231283E-002 +1.0256204419E-001  -1.7981802886E-002 +1.2051209647E-001  +1.0444185018E-001 -1.0108743690E-002  -5.2670868218E-002 +3.7078251290E-002 
22400000000.000 -6.2349646665E-002 -9.6077994860E-002  -4.9448216251E-002 -1.1015375650E-001  +2.0219712618E-002 +1.0156705993E-001  +8.1957803176E-002 -1.0499085631E-001 
22600000000.000 -2.8599415850E-002 +3.3393767291E-002  +1.0282745361E-001 +4.6390810931E-002  -8.3188316745E-002 +4.3829276972E-002  -1.0501598347E-001 +1.0658421026E-002 
