!  2-Port S-parameters saved by WinCal
! VAR MeasName=S-Parameters (CALIBRATED_DATA) read from VNA (MS4647B)
! VAR MeasDate=27-Apr-22 15:00:06
! VAR NAME=RAW_line_0.5mm_1
! VAR FILENAME=RAW_line_0.5mm_1.S2P
! VAR DATE=27-Apr-22 15:00:06
! VAR PHYS_PORTS=1,2
! VAR ObjTypeName=DATASET
! VAR IndexType=Frequency
! VAR ChuckHeaterState=Unknown
! VAR ChuckTemp=NaN
! VAR ChuckTempUnits=Unknown
!
# Hz S RI R 50
200000000.000 -1.6862836784E-002 -8.5170365121E-002  -2.3478975819E-001 -6.9053618384E-001  -3.5505887811E-001 -6.5065260338E-001  +2.1741381163E-002 -6.1103337820E-002 
400000000.000 +1.1767613311E-001 -9.2903087136E-002  -4.4865353934E-001 +5.1682005697E-001  -2.8464354590E-001 +6.3600177671E-001  -1.3326953010E-001 +1.6121753293E-003 
600000000.000 +5.8599261800E-002 -6.6204128486E-002  +5.6250937327E-001 +2.4524313229E-001  +5.8560919605E-001 -1.6793428470E-001  -4.4572247887E-002 +5.0793235622E-002 
800000000.000 +8.4911186155E-002 -2.2004826256E-001  -1.6582086343E-001 -6.4043889045E-001  -5.5269872931E-001 -3.3692568137E-001  +1.7383790572E-001 +6.8030063935E-002 
1000000000.000 +1.0293246842E-001 -1.9132568106E-001  -3.0723806809E-001 +6.3641157424E-001  +2.6100483801E-001 +6.2274637247E-001  +1.8787309405E-001 -5.8659137395E-002 
1200000000.000 +9.2467418173E-002 -2.4397986035E-001  +7.2563857767E-001 -8.7286066241E-002  +2.6889877972E-001 -6.2631045435E-001  -1.2582431552E-001 -1.5073829866E-001 
1400000000.000 +9.7329335287E-002 -1.8743842826E-001  -5.4209583889E-001 -4.9156997225E-001  -6.1619648324E-001 +2.7406015226E-001  -3.5578335768E-002 -5.2138328874E-002 
1600000000.000 +1.3881614404E-001 +1.4155140789E-001  -1.9333674414E-002 +6.2685539035E-001  +5.0992579526E-001 +2.0532816748E-001  -1.6179439229E-001 -6.5223271554E-002 
1800000000.000 +9.5803775827E-002 -1.4048121595E-002  +4.4677284452E-001 -2.8093957032E-001  -1.7773496425E-001 -4.2416790510E-001  +4.5003652944E-002 +1.1407289095E-001 
2000000000.000 +8.8966897385E-002 +3.3547187350E-002  -4.2716441424E-001 -1.5983135998E-001  -1.6549868622E-001 +3.4664226096E-001  +1.4072996583E-001 -1.7703973567E-002 
2200000000.000 +9.8385752313E-002 -1.8496605465E-001  +7.2541045999E-002 +4.0737112826E-001  +3.5731951260E-001 -7.7807874326E-002  -2.0206201017E-002 -2.5055537819E-001 
2400000000.000 -1.4524556436E-002 -1.2437466716E-001  +1.5148154408E-001 -3.9954034941E-001  -3.7389031818E-001 -1.1372951258E-001  -1.1618239137E-001 +3.3903101052E-002 
2600000000.000 +5.9450152739E-002 +7.2191767223E-002  -6.1421509888E-001 -4.4320639556E-001  -3.9664113448E-001 +3.4005050041E-001  +9.5194956435E-003 -4.1073393561E-002 
2800000000.000 +4.4875043777E-002 -2.1842416210E-001  +7.7990064004E-001 -3.9163164569E-001  -6.3832157659E-001 -3.3239501475E-001  -1.2109295354E-001 +9.9782461981E-002 
3000000000.000 +1.0851172340E-001 +6.2153648246E-002  -1.3971174005E-001 +8.5238890645E-001  +6.2437235599E-002 -7.5217103725E-001  -3.7847303773E-002 -5.1574601471E-002 
3200000000.000 +2.1771405246E-002 -7.2603896180E-002  -5.7988673711E-001 -5.3011805029E-001  +6.4215710202E-001 -2.5176645260E-001  -2.0855597730E-002 +7.0696917643E-002 
3400000000.000 +2.9585752850E-001 +3.7730410069E-002  +7.8934609229E-001 -1.3698328773E-001  +4.0677649598E-001 +6.1649042993E-001  -1.9515958641E-001 +6.8066704576E-002 
3600000000.000 +6.8318669980E-002 -2.5447006276E-003  -4.2736623490E-001 +7.2742461012E-001  -4.5186823217E-001 +7.3239050921E-001  -9.5218219694E-002 +3.3390536942E-002 
3800000000.000 -3.4284222699E-001 -1.4412782967E-001  -1.6746937723E-001 -8.5200529069E-001  -7.4736588547E-001 -3.1341424772E-001  +1.9983437528E-001 +1.3942501717E-001 
4000000000.000 +5.5184192681E-002 +1.3043204474E-001  +7.8177236215E-001 +4.0466603723E-001  +2.7667425442E-002 -7.6249839333E-001  -6.9541527331E-002 -6.8216696816E-002 
4200000000.000 +5.5213775522E-002 +1.4609254052E-001  -8.5791708490E-001 +2.6094792994E-001  +8.1714525154E-001 -1.8609757240E-001  -1.3694046319E-001 -1.0411885043E-001 
4400000000.000 -4.5038674502E-002 -8.2546254755E-002  +4.1190175541E-001 -7.5312167430E-001  +4.4242018008E-001 +7.7477141175E-001  +1.1577403117E-001 +5.7760229225E-002 
4600000000.000 +2.5485036844E-002 -8.9721858942E-002  +2.5312643177E-001 +8.0875347757E-001  -6.8800356487E-001 +4.7071321591E-001  +4.6995207068E-002 +1.4144636192E-001 
4800000000.000 -1.0046541477E-001 -2.4227438428E-002  -7.1296352601E-001 -4.5881229485E-001  -5.9486511098E-001 -5.3831854090E-001  +6.5125213194E-002 +2.1278681167E-002 
5000000000.000 -1.4187672353E-002 +3.8236144621E-002  +7.8478534583E-001 -1.3510439986E-001  +3.1973542026E-001 -7.9607487301E-001  -8.1534666451E-002 -3.0803271661E-002 
5200000000.000 +1.0426057764E-001 -2.9159310915E-001  -5.2117546019E-001 +5.8778508350E-001  +8.3345793210E-001 +3.3773632735E-001  +1.4403908151E-001 +2.2489716010E-001 
5400000000.000 -1.4548983785E-001 -8.8080034406E-002  -3.0176035144E-002 -7.6246139868E-001  -1.7016959622E-001 +7.8254998684E-001  +3.1567613430E-002 -1.7543962144E-001 
5600000000.000 +9.2783878820E-003 +7.9818394994E-002  +4.9419584574E-001 +5.1821959216E-001  -7.6214936496E-001 +9.6655064228E-002  +3.7829891432E-002 -1.1198492241E-001 
5800000000.000 +6.3293689527E-002 +8.6996825405E-002  -6.9074759756E-001 -6.5063183271E-003  -1.8654122907E-001 -7.6881973408E-001  -2.2554201945E-002 +1.0890376562E-001 
6000000000.000 +1.4865153848E-001 -4.5259129383E-002  +4.8216471207E-001 -4.1529785986E-001  +7.0712493320E-001 -2.2857943943E-001  -5.8012516559E-002 +1.4830654727E-001 
6200000000.000 +9.9949023640E-002 -8.0145207870E-002  -1.4597745284E-001 +6.1724863027E-001  +2.4685265080E-001 +6.4775339458E-001  +1.6988210442E-001 +1.0433189382E-001 
6400000000.000 -1.4534657032E-001 +2.4522606778E-002  -4.0100453901E-001 -4.7471207149E-001  -4.7237131187E-001 +4.9337772868E-001  -5.5406863342E-002 -1.4677025402E-001 
6600000000.000 +1.7499882084E-001 +1.4587277418E-002  +5.7711572940E-001 +2.4229953874E-001  -4.5123132166E-001 -5.0686575468E-001  +9.7394098134E-002 +1.8367097641E-001 
6800000000.000 -8.1123764781E-002 +1.8559533752E-002  -5.9925197047E-001 +1.7794652320E-001  +4.4275372462E-001 -5.1837864604E-001  -1.0160700659E-001 +4.3867569020E-002 
7000000000.000 -4.2446267559E-002 -8.1682180888E-002  +2.8269436674E-001 -5.3593081167E-001  +5.7488927735E-001 +1.9793313169E-001  -1.7268578454E-002 -1.1966311782E-001 
7200000000.000 +1.3411317298E-003 +8.0254481876E-003  +8.2187109583E-002 +5.9447600415E-001  -1.1215319557E-001 +5.6577957879E-001  +1.0991471931E-001 -7.5843035744E-004 
7400000000.000 -1.4270815024E-002 +1.4221013243E-001  -3.9523934242E-001 -4.0084597260E-001  -5.7150890511E-001 -9.0556503835E-002  -2.5884192817E-001 +8.6600897088E-002 
7600000000.000 +2.5466554447E-001 +5.7644399221E-002  +5.6668602974E-001 +4.4792345480E-002  +5.0164074592E-003 -5.5472352035E-001  +2.0151160313E-001 +7.9511345615E-002 
7800000000.000 -7.7928920878E-002 -8.5153686669E-002  -4.2930753601E-001 +3.3390978443E-001  +4.7378973656E-001 -1.2479669132E-001  +4.0580595254E-002 -3.8256578232E-002 
8000000000.000 +9.2138554649E-002 +3.3109056284E-002  +1.6637500709E-001 -5.0754813399E-001  +1.2810029096E-001 +5.0224095494E-001  +3.1614618730E-002 -1.8689992993E-002 
8200000000.000 -2.0285543072E-001 +7.5447128891E-002  +2.2046636691E-001 +4.3724127027E-001  -4.3725857832E-001 +1.9773999280E-001  -8.5145146393E-002 +1.2414839146E-002 
8400000000.000 +2.2744655492E-002 -2.6565884267E-002  -3.7526488252E-001 -2.6496607069E-001  -2.4573257837E-001 -3.7789858600E-001  +3.0750976957E-003 +3.7766885365E-002 
8600000000.000 +8.7522245049E-002 -2.8116170506E-003  +4.0583933339E-001 -9.6880080445E-002  +3.1351577636E-001 -2.6365263529E-001  +1.0375106821E-001 +2.2648439374E-002 
8800000000.000 -1.4160660489E-001 -4.8870761268E-002  -2.3597246620E-001 +3.2988169714E-001  +3.4133464370E-001 +2.2576174453E-001  -2.2316277506E-001 +3.8837376190E-002 
9000000000.000 +6.8503804162E-002 +2.3142047552E-002  -1.7259547673E-002 -3.7734004792E-001  -1.9577288648E-001 +3.4260738875E-001  +2.4845272150E-002 -7.9666306145E-002 
9200000000.000 +3.5847505517E-002 +9.5757933578E-002  +2.4458763294E-001 +2.7790584470E-001  -3.2933533404E-001 -1.5802801609E-001  +9.8395086242E-002 +1.2247249043E-001 
9400000000.000 +1.1215366186E-001 +2.1670683348E-002  -3.5541853778E-001 -1.4330849059E-002  +5.3783416251E-002 -3.4991152831E-001  -1.7332191788E-002 -8.7786810061E-002 
9600000000.000 -3.5548487377E-002 -1.0593944603E-001  +2.8280307727E-001 -2.0332942945E-001  +3.5175905353E-001 +2.8051611754E-002  -4.0585470204E-002 -9.6862765408E-002 
9800000000.000 +1.9838662836E-002 +2.8585522582E-002  -8.7107148889E-002 +3.2189126621E-001  +3.0334448777E-002 +3.4666661742E-001  +2.8158422152E-002 +7.9761595204E-003 
10000000000.000 -1.1908863114E-001 +6.4132064854E-002  -1.2699127295E-001 -2.8208280097E-001  -3.1270143285E-001 -3.2549561903E-002  +2.3205953306E-002 +1.1175830446E-001 
10200000000.000 -3.1793675768E-002 +2.5241894395E-002  +2.6530210965E-001 +1.8152989070E-001  -1.7208590159E-001 -2.6557354691E-001  +4.7240850625E-002 -5.5473808443E-002 
10400000000.000 +9.6269132906E-002 +5.2093879623E-002  -2.9576311747E-001 +2.2241610730E-002  +2.8243713893E-001 -1.5691115490E-001  -3.4341929968E-003 -7.5992396181E-002 
10600000000.000 -7.0269719812E-002 -2.3198474767E-002  +2.0782437656E-001 -2.0656958661E-001  +1.0962465011E-001 +2.7595887790E-001  -1.0934914539E-002 +1.3592584528E-001 
10800000000.000 -6.9647393958E-002 +2.4511112203E-002  -6.6469078562E-002 +2.7280716127E-001  -2.2031656175E-001 +1.9186223478E-001  +1.3846498950E-002 -5.5577093521E-002 
11000000000.000 +9.3852377530E-002 +1.6521078701E-002  -1.0582514973E-001 -2.6589728233E-001  -2.5129150311E-001 -1.6235302653E-001  +5.4850274607E-002 -2.6032642214E-002 
11200000000.000 -4.0362534801E-002 +4.7839329988E-002  +2.3623404720E-001 +1.2767398013E-001  +1.3768445730E-001 -2.6052273371E-001  -1.0117512494E-001 -3.8878452598E-002 
11400000000.000 +1.4759274287E-002 -1.2874222378E-001  -2.5879115768E-001 +3.6626232403E-002  +2.7024012535E-001 +1.0928774754E-001  +1.2425059117E-002 +5.6655383645E-003 
11600000000.000 +9.1187692240E-003 -3.8145987265E-002  +1.3392522880E-001 -2.0669158660E-001  -7.0819446582E-002 +2.5762201583E-001  +4.5500805330E-002 +1.1519409000E-001 
11800000000.000 -1.1687503181E-001 +1.1177785714E-001  +4.4569416940E-002 +2.3938728753E-001  -2.6626304626E-001 -2.6450462840E-002  +6.5441498008E-002 -1.7396100716E-001 
12000000000.000 +1.2898177917E-001 +1.4326714981E-004  -1.4485392195E-001 -1.8550214410E-001  +4.0824212754E-002 -2.5682371469E-001  -1.5019066253E-002 +4.1849340655E-002 
12200000000.000 -3.6117729899E-002 -1.2811721478E-002  +2.1458728974E-001 +8.7039118325E-002  +2.5456370511E-001 +3.0332033654E-002  -5.6933470660E-002 +2.3297174014E-002 
12400000000.000 -4.7060607176E-002 +6.2471564455E-002  -2.1582737443E-001 +4.4067759963E-002  -1.1531138957E-002 +2.4273508245E-001  +8.8240618489E-002 -6.0809336633E-002 
12600000000.000 -5.5866811960E-002 -9.6451103031E-003  +9.7254613520E-002 -1.9795710750E-001  -2.4551555989E-001 +3.9467398421E-002  -3.3059662499E-002 +6.5029876268E-002 
12800000000.000 +6.5764786893E-003 -8.7985201479E-003  +7.7414927804E-002 +2.0406867205E-001  -1.1943655628E-001 -2.2111710587E-001  +3.8596047951E-003 -9.4823491599E-002 
13000000000.000 +6.7562077608E-002 -1.4754064612E-002  -1.7676923285E-001 -1.1805929150E-001  +1.9950198187E-001 -1.3615620537E-001  -1.7296966234E-002 +1.0531934430E-001 
13200000000.000 -1.2666722944E-001 -1.9648914439E-001  +1.8710236095E-001 +4.6814060385E-002  +7.3853740955E-002 +1.8672702294E-001  +1.3083640827E-001 -3.1478919368E-002 
13400000000.000 +2.9365449956E-002 +9.2725326985E-002  -2.0561341679E-001 +1.6510112987E-002  -2.2862629622E-001 +5.8679972623E-002  +4.3815955973E-002 +6.6792027037E-003 
13600000000.000 -3.2480533884E-002 +9.1363606773E-003  +1.1937050221E-001 -1.7237370118E-001  -1.2665891725E-001 -2.0549153555E-001  -8.2080800155E-002 +1.3234018624E-002 
13800000000.000 +7.3417518211E-003 -5.7787556012E-002  +3.1643328753E-002 +2.0524927265E-001  +1.1143328814E-001 -1.9194756230E-001  +8.2814271658E-002 -9.7084811168E-003 
14000000000.000 +3.9900814440E-002 -1.5059034390E-002  -1.5175995061E-001 -1.2072511237E-001  +1.9195558679E-001 +7.0319104639E-002  +3.2002331887E-002 +1.1228866417E-001 
14200000000.000 -9.4116774722E-002 +6.2546809946E-003  +2.0489335163E-001 +2.4812246047E-002  -4.3432442863E-002 +2.0871839563E-001  -3.1433898429E-002 -7.2581403165E-002 
14400000000.000 +9.4001729482E-002 +2.6891819619E-002  -1.7115996554E-001 +8.8377688073E-002  -1.9332130437E-001 -7.8692709099E-002  -4.3771228548E-002 +5.5838585686E-002 
14600000000.000 +6.2320864461E-002 -3.9942274503E-002  +6.7533480320E-002 -1.7199668856E-001  +6.4203281738E-002 -1.7448024719E-001  +2.3997674914E-002 +4.8933540839E-002 
14800000000.000 -1.1643434022E-002 -8.2449510949E-003  +6.6052565757E-002 +1.8682980931E-001  +1.9915897886E-001 +1.2795657069E-002  +3.2874212885E-002 +5.2780759113E-002 
15000000000.000 -1.0538572035E-003 -4.8188326845E-002  -1.7459872294E-001 -8.5186092319E-002  +1.8602109283E-002 +1.9243970705E-001  -9.9781625716E-003 -8.0032976592E-002 
15200000000.000 -3.4205810604E-002 +1.0564585009E-001  +1.9444254232E-001 -3.3101786280E-002  -1.8338922281E-001 +2.9668088500E-002  -2.1271139643E-002 +3.8054048843E-002 
15400000000.000 +4.6997306604E-002 -1.0051138141E-002  -1.0737301779E-001 +1.5907718837E-001  -3.8245873103E-002 -1.7615739557E-001  -2.4463125243E-003 +9.0864249826E-002 
15600000000.000 -1.5611770911E-002 -3.9063667509E-002  +1.1701578049E-003 -2.0364201481E-001  +1.6264334980E-001 -9.6100896555E-002  -2.0041285262E-002 -7.4714694019E-002 
15800000000.000 -1.4887263001E-003 +4.4627085715E-002  +9.6880990546E-002 +1.8594849977E-001  +1.0475903838E-001 +1.5444852409E-001  +3.3827264237E-002 +9.8269210944E-002 
16000000000.000 +2.4589314946E-002 -2.8782497224E-002  -1.8283529401E-001 -7.0519623855E-002  -1.6292738056E-001 +7.3746814159E-002  -2.9354719751E-002 -5.6270498358E-002 
16200000000.000 -2.0377504909E-002 +8.2246162924E-002  +1.9101408113E-001 -5.5172883076E-002  -9.9652082776E-002 -1.4032740213E-001  -4.1731629370E-002 +5.9978607451E-002 
16400000000.000 +5.0993182306E-002 -1.4907334196E-002  -9.0519411699E-002 +1.6562008046E-001  +1.1849548757E-001 -1.1643734707E-001  +5.2165275094E-002 -3.1836899536E-002 
16600000000.000 -5.4449296260E-002 -3.3311982242E-002  -3.4443595165E-003 -1.8340468392E-001  +1.4421955870E-001 +8.8094872699E-002  -2.0642729421E-002 +1.8221608930E-002 
16800000000.000 -1.8875303459E-003 +7.2063386867E-002  +8.1256580935E-002 +1.6309711399E-001  -7.3740982673E-002 +1.4134013093E-001  -4.8596471386E-002 +7.0942948969E-002 
17000000000.000 -1.2784548710E-002 -1.0559605105E-002  -1.6772313720E-001 -7.1878559365E-002  -1.4494745707E-001 -6.5077718825E-002  +2.3249258900E-002 -9.5821499535E-002 
17200000000.000 +1.3014287064E-002 +3.9192711505E-003  +1.5021194028E-001 -9.1272747291E-002  +4.5796237921E-002 -1.4826994663E-001  -3.6491432178E-003 +1.3765083393E-001 
17400000000.000 +7.2134062271E-004 +6.7086100527E-002  -4.3142278508E-002 +1.5132376993E-001  +1.3985793961E-001 +2.0660748388E-002  -7.2657044397E-002 -2.9426625173E-002 
17600000000.000 -7.7820467642E-002 -5.2812925888E-002  -6.3469772299E-002 -1.5073921245E-001  +1.6640855102E-002 +1.4357358203E-001  +3.4705324222E-002 -1.1010522153E-002 
17800000000.000 -3.1892700303E-003 +5.9683509844E-002  +1.3037891686E-001 +8.6413744251E-002  -1.3164676539E-001 +4.4084017135E-002  -1.8486128255E-002 +6.5598811208E-002 
18000000000.000 +1.7384345104E-002 -1.4030793995E-002  -1.6014265095E-001 +1.2543932331E-002  -5.3659329978E-002 -1.3099399587E-001  -5.3186476770E-002 -9.5393838108E-002 
18200000000.000 -4.6748061275E-002 -1.0442926979E-001  +1.2464900219E-001 -8.4867223046E-002  +1.2315476558E-001 -4.7210282224E-002  -5.4198547261E-002 +8.1990033158E-002 
18400000000.000 -2.4192779190E-002 +4.6198513906E-002  -1.8383507039E-002 +1.5440381005E-001  +7.7774795627E-002 +1.1133243599E-001  +1.4440850540E-003 +1.6832793270E-002 
18600000000.000 -9.1653898044E-004 -8.4473215420E-002  -1.0242101293E-001 -1.1566753526E-001  -1.0230510408E-001 +7.6696622177E-002  -6.9047265880E-002 -5.6879621143E-002 
18800000000.000 -4.9526928248E-003 +3.6748078625E-002  +1.4265330256E-001 +2.8109128095E-002  -1.1058794812E-001 -7.9083338974E-002  +3.5579422291E-003 +4.0407595496E-003 
19000000000.000 +7.3546145154E-002 -2.8545189373E-002  -1.4232343127E-001 +5.2856343982E-002  +7.5223477469E-002 -1.0877774189E-001  -5.2816994017E-002 -3.6895386556E-002 
19200000000.000 -3.3562462592E-002 -1.1009109626E-001  +7.7847573640E-002 -1.1742060842E-001  +1.0091378498E-001 +6.6570649060E-002  -4.0424553682E-002 +3.1324766133E-002 
19400000000.000 +6.8784935147E-002 +1.1837763703E-001  +5.7832543709E-003 +1.5473832302E-001  -5.4096756268E-002 +1.1925812063E-001  +9.4230760493E-002 -8.6002544369E-002 
19600000000.000 +3.9104241390E-002 -5.2877814764E-002  -1.0126459707E-001 -1.0764458073E-001  -1.2576453852E-001 -3.0773756070E-002  -1.1497260413E-001 +3.9083935101E-004 
19800000000.000 +4.8057432130E-002 +5.1175538015E-003  +1.5835858987E-001 +7.5803052146E-003  +3.0774298085E-002 -1.4018733875E-001  +7.6304264382E-003 -3.4018840499E-002 
20000000000.000 -4.6028228093E-003 +1.8734916105E-002  -1.2019160117E-001 +9.0068208300E-002  +1.1862378692E-001 +6.2147582985E-002  -1.4919598422E-003 +3.7015951948E-002 
20200000000.000 +1.6680505850E-004 -6.7405857281E-002  +6.5354998201E-002 -1.2781070416E-001  +7.0954199763E-002 +1.1185043223E-001  -4.4838844167E-002 -9.0117262137E-003 
20400000000.000 -1.0084577786E-004 +9.8013965174E-002  +1.7126838874E-002 +1.4380309345E-001  -1.0748727681E-001 +7.9524907229E-002  -4.4722489123E-003 -7.4304762653E-002 
20600000000.000 +2.1318186589E-002 +1.6293678358E-002  -9.9779141894E-002 -9.1733378682E-002  -8.0411381960E-002 -9.3779193013E-002  -3.9313165315E-002 +7.2320030548E-002 
20800000000.000 +5.5212493406E-002 -7.4388556445E-003  +1.4048716162E-001 +6.6708204592E-003  +1.0271144798E-001 -7.5055666852E-002  -3.3529216458E-002 -3.3697492468E-002 
21000000000.000 -5.2769706939E-002 +6.5736366962E-003  -9.1754316640E-002 +8.9870791823E-002  +4.5271558248E-002 +1.1205145175E-001  +1.7371834747E-002 -1.4744923232E-002 
21200000000.000 +1.4657849761E-002 +8.4551729363E-002  +9.6610875163E-003 -1.2045015836E-001  -9.2496820868E-002 +5.4543732867E-002  -1.3591093079E-001 +2.5941422526E-002 
21400000000.000 -2.0917229184E-002 -2.5883424590E-002  +6.4366319268E-002 +1.1591950144E-001  -7.7392544371E-002 -8.8773609749E-002  +7.9994818136E-002 -1.6449025305E-002 
21600000000.000 +3.6656883958E-003 +6.5447512869E-002  -1.1335405223E-001 -5.4970297759E-002  +4.2680754243E-002 -9.9807353244E-002  -6.3888461074E-002 +1.3587045231E-002 
21800000000.000 -5.5282335363E-002 -7.6011492458E-003  +1.2358353317E-001 -6.7471170280E-003  +1.1081754170E-001 +8.8973674440E-003  -3.6400105691E-002 -6.2151576131E-002 
22000000000.000 -4.7114508955E-002 -3.3213745302E-002  -8.9519630734E-002 +6.6111114904E-002  -6.7760692953E-003 +9.5031085369E-002  +3.8495585600E-004 +4.7414885591E-003 
22200000000.000 +4.8445106149E-002 +1.0100358689E-001  +2.4607031324E-002 -1.2095642266E-001  -1.0628618847E-001 +5.0657514538E-003  -5.2610219831E-002 +3.3068925267E-002 
22400000000.000 -6.5880387476E-002 -9.8967006278E-002  +3.9360747382E-002 +1.1411875881E-001  -1.1366154287E-002 -1.0286481883E-001  +8.6663518639E-002 -1.0971042898E-001 
22600000000.000 -2.8065080792E-002 +2.4407876936E-002  -1.0007537305E-001 -5.9029824323E-002  +8.9988542378E-002 -3.5816188536E-002  -9.9457761891E-002 +1.0727538234E-002 
